
SetupTitle, ID-VG Postbreak
PrimitiveTest, I/V Sweep
TestParameter, Context.MainFrame, B1500A
TestParameter, Channel.UnitType, SMU, SMU
TestParameter, Channel.Unit, SMU1:MP, SMU2:MP
TestParameter, Channel.IName, I1, I2
TestParameter, Channel.VName, V1, V2
TestParameter, Channel.Mode, V, V
TestParameter, Channel.Func, VAR1, CONST
TestParameter, Channel.Index, 
TestParameter, Channel.Time, 
TestParameter, Measurement.Port.Unit, SMU1:MP, SMU2:MP
TestParameter, Measurement.Port.SeriesResistor, NONE, NONE
TestParameter, Measurement.Port.Filter, ON, ON
TestParameter, Measurement.Port.OutputVoltageComparison, 0, 0
TestParameter, Measurement.Primary.Locus, Double
TestParameter, Measurement.Primary.Scale, LINEAR
TestParameter, Measurement.Primary.Start, -2
TestParameter, Measurement.Primary.Stop, 6
TestParameter, Measurement.Primary.Step, 0.04
TestParameter, Measurement.Primary.Compliance, 0.1
TestParameter, Measurement.Primary.PowerCompliance, 0
TestParameter, Measurement.Aborting.Condition, CONTINUE AT ANY
TestParameter, Measurement.PostOutput.Value, START
TestParameter, Measurement.PostOutput.Retention, OFF
TestParameter, Measurement.Bias.Source, -2, 0.25
TestParameter, Measurement.Bias.Compliance, 0.1, 0.1
TestParameter, Measurement.Monitor.Unit, SMU1:MP, SMU2:MP
TestParameter, Measurement.Monitor.Adc, HR ADC, HR ADC
TestParameter, Measurement.Monitor.Measurement, Compliance Side, Compliance Side
TestParameter, Measurement.Monitor.RangingMode, LIMITED, LIMITED
TestParameter, Measurement.Monitor.RangeBoundary, 1nA, 1nA
TestParameter, Measurement.Monitor.RangeRating, BY FULL RANGE, BY FULL RANGE
TestParameter, Measurement.Monitor.RangeRatingCoeff, 50, 50
TestParameter, Measurement.Timing.Hold, 0
TestParameter, Measurement.Timing.Delay, 0
TestParameter, Measurement.Adc.HighSpeed.Mode, AUTO
TestParameter, Measurement.Adc.HighSpeed.Coeff, 1
TestParameter, Measurement.Adc.HighResolution.AutoZero, OFF
TestParameter, Measurement.Adc.HighResolution.Mode, AUTO
TestParameter, Measurement.Adc.HighResolution.Coeff, 6
TestParameter, Measurement.WaitTime.Source.Coeff, 1
TestParameter, Measurement.WaitTime.Source.Offset, 0
TestParameter, Measurement.WaitTime.Monitor.Coeff, 1
TestParameter, Measurement.WaitTime.Monitor.Offset, 0
TestParameter, Output.Graph.Enabled, true
TestParameter, Output.Graph.AutoScaling, false
TestParameter, Output.Graph.XAxis.Data, V1
TestParameter, Output.Graph.XAxis.Scale, Linear
TestParameter, Output.Graph.XAxis.Left, -2
TestParameter, Output.Graph.XAxis.Right, 6
TestParameter, Output.Graph.XAxis.RunTimeAutoScale, true
TestParameter, Output.Graph.YAxis.Data, I2
TestParameter, Output.Graph.YAxis.Scale, Linear
TestParameter, Output.Graph.YAxis.Bottom, -0.1
TestParameter, Output.Graph.YAxis.Top, 0.1
TestParameter, Output.Graph.YAxis.Group, 
TestParameter, Output.Graph.YAxis.RunTimeAutoScale, true
TestParameter, Output.List.Data, V1, I1, V2, I2, V3, I3, V4, I4
TestParameter, AutoAnalysis.Interpolation, false
TestParameter, AutoAnalysis.Line1.Enabled, false
TestParameter, AutoAnalysis.Line1.Type, 1
TestParameter, AutoAnalysis.Line1.Fix, True
TestParameter, AutoAnalysis.Line1.YAxis, 0
TestParameter, AutoAnalysis.Line1.Point1.Type, 0
TestParameter, AutoAnalysis.Line1.Point1.XY.X, 
TestParameter, AutoAnalysis.Line1.Point1.XY.Y, 
TestParameter, AutoAnalysis.Line1.Point1.Data.Var, 
TestParameter, AutoAnalysis.Line1.Point1.Data.Condition, 
TestParameter, AutoAnalysis.Line1.Point1.Data.Start, false
TestParameter, AutoAnalysis.Line1.Point1.Data.StartVar, 
TestParameter, AutoAnalysis.Line1.Point1.Data.StartCondition, 
TestParameter, AutoAnalysis.Line1.Point2.Type, 0
TestParameter, AutoAnalysis.Line1.Point2.XY.X, 
TestParameter, AutoAnalysis.Line1.Point2.XY.Y, 
TestParameter, AutoAnalysis.Line1.Point2.Data.Var, 
TestParameter, AutoAnalysis.Line1.Point2.Data.Condition, 
TestParameter, AutoAnalysis.Line1.Point2.Data.Start, false
TestParameter, AutoAnalysis.Line1.Point2.Data.StartVar, 
TestParameter, AutoAnalysis.Line1.Point2.Data.StartCondition, 
TestParameter, AutoAnalysis.Line1.GradientExpr, 0
TestParameter, AutoAnalysis.Line2.Enabled, false
TestParameter, AutoAnalysis.Line2.Type, 1
TestParameter, AutoAnalysis.Line2.Fix, True
TestParameter, AutoAnalysis.Line2.YAxis, 0
TestParameter, AutoAnalysis.Line2.Point1.Type, 0
TestParameter, AutoAnalysis.Line2.Point1.XY.X, 
TestParameter, AutoAnalysis.Line2.Point1.XY.Y, 
TestParameter, AutoAnalysis.Line2.Point1.Data.Var, 
TestParameter, AutoAnalysis.Line2.Point1.Data.Condition, 
TestParameter, AutoAnalysis.Line2.Point1.Data.Start, false
TestParameter, AutoAnalysis.Line2.Point1.Data.StartVar, 
TestParameter, AutoAnalysis.Line2.Point1.Data.StartCondition, 
TestParameter, AutoAnalysis.Line2.Point2.Type, 0
TestParameter, AutoAnalysis.Line2.Point2.XY.X, 
TestParameter, AutoAnalysis.Line2.Point2.XY.Y, 
TestParameter, AutoAnalysis.Line2.Point2.Data.Var, 
TestParameter, AutoAnalysis.Line2.Point2.Data.Condition, 
TestParameter, AutoAnalysis.Line2.Point2.Data.Start, false
TestParameter, AutoAnalysis.Line2.Point2.Data.StartVar, 
TestParameter, AutoAnalysis.Line2.Point2.Data.StartCondition, 
TestParameter, AutoAnalysis.Line2.GradientExpr, 0
TestParameter, AutoAnalysis.Marker.Enabled, false
TestParameter, AutoAnalysis.Marker.Data.Var, 
TestParameter, AutoAnalysis.Marker.Data.Condition, 
TestParameter, AutoAnalysis.Marker.Data.Start, false
TestParameter, AutoAnalysis.Marker.Data.StartVar, 
TestParameter, AutoAnalysis.Marker.Data.StartCondition, 
MetaData, TestRecord.EntryPoint, true
MetaData, TestRecord.RecordTime, 03/10/2023 17:29:54
MetaData, TestRecord.TestTarget, 
MetaData, TestRecord.IterationIndex, 68
MetaData, TestRecord.Preservation, true
MetaData, TestRecord.Flag, 
MetaData, TestRecord.Remarks, 
MetaData, TestRecord.LinkKey, 8d40f137-7f87-49b4-bb6f-5e1d866e0fdc
Dimension1, 402, 402, 402, 402, 402, 402, 402, 402
Dimension2, 1, 1, 1, 1, 1, 1, 1, 1
DataName, V1, V2, I1, I2, V3, I3, V4, I4
DataValue, -2, 0.25, -3.67E-12, 1.21E-12, , , , 
DataValue, -1.96, 0.25, -2.79E-12, -1.3E-13, , , , 
DataValue, -1.92, 0.25, -2.03E-12, 1.17E-12, , , , 
DataValue, -1.8800000000000001, 0.25, -1.04E-12, 3.0300000000000002E-12, , , , 
DataValue, -1.84, 0.25, -1.6100000000000002E-12, 3.05E-12, , , , 
DataValue, -1.8, 0.25, -1.4200000000000002E-12, 6.3E-13, , , , 
DataValue, -1.76, 0.25, -9.9E-13, -2.3000000000000003E-13, , , , 
DataValue, -1.72, 0.25, -7.7000000000000005E-13, 1.0100000000000001E-12, , , , 
DataValue, -1.68, 0.25, -5.6E-13, 2.26E-12, , , , 
DataValue, -1.6400000000000001, 0.25, -1E-12, 1.3400000000000002E-12, , , , 
DataValue, -1.6, 0.25, -6.400000000000001E-13, -4.0000000000000006E-14, , , , 
DataValue, -1.56, 0.25, -1.3900000000000001E-12, 8.5000000000000011E-13, , , , 
DataValue, -1.52, 0.25, 1.1000000000000001E-13, 2.92E-12, , , , 
DataValue, -1.48, 0.25, 7E-14, 1.8400000000000002E-12, , , , 
DataValue, -1.44, 0.25, -2.1000000000000001E-13, 4.2000000000000003E-13, , , , 
DataValue, -1.4000000000000001, 0.25, -7E-13, -1.3900000000000001E-12, , , , 
DataValue, -1.36, 0.25, -5.9E-13, 2.1000000000000003E-12, , , , 
DataValue, -1.32, 0.25, 4.6000000000000006E-13, 3.67E-12, , , , 
DataValue, -1.28, 0.25, -1.4E-13, 3.4400000000000003E-12, , , , 
DataValue, -1.24, 0.25, 1.0000000000000002E-14, 8.6000000000000007E-13, , , , 
DataValue, -1.2, 0.25, -3.5E-13, 3.6000000000000003E-13, , , , 
DataValue, -1.16, 0.25, -6.6E-13, 1.59E-12, , , , 
DataValue, -1.12, 0.25, 1.8000000000000002E-13, 3.5700000000000003E-12, , , , 
DataValue, -1.08, 0.25, 3.0000000000000005E-14, 1.55E-12, , , , 
DataValue, -1.04, 0.25, 7.8000000000000011E-13, -3.4E-13, , , , 
DataValue, -1, 0.25, -4.4000000000000004E-13, -6.3E-13, , , , 
DataValue, -0.96, 0.25, -9.0000000000000008E-14, 2.3800000000000004E-12, , , , 
DataValue, -0.92, 0.25, 2E-13, 2.59E-12, , , , 
DataValue, -0.88, 0.25, 7.2000000000000006E-13, 8.5000000000000011E-13, , , , 
DataValue, -0.84, 0.25, 4E-13, -5E-14, , , , 
DataValue, -0.8, 0.25, 5.5000000000000008E-13, 1.6600000000000002E-12, , , , 
DataValue, -0.76, 0.25, 6.8E-13, 3.13E-12, , , , 
DataValue, -0.72, 0.25, 5.4E-13, 2.31E-12, , , , 
DataValue, -0.68, 0.25, 7.5E-13, -5E-13, , , , 
DataValue, -0.64, 0.25, 5.9E-13, -8.5000000000000011E-13, , , , 
DataValue, -0.6, 0.25, 3.1000000000000004E-13, 1.95E-12, , , , 
DataValue, -0.56, 0.25, 4.5000000000000005E-13, 2.59E-12, , , , 
DataValue, -0.52, 0.25, 1.2000000000000001E-12, 1.5800000000000001E-12, , , , 
DataValue, -0.48, 0.25, 3.8000000000000005E-13, -3.4E-13, , , , 
DataValue, -0.44, 0.25, 9.5E-13, 1.4E-13, , , , 
DataValue, -0.4, 0.25, 8.1000000000000008E-13, 3.15E-12, , , , 
DataValue, -0.36, 0.25, 4.7E-13, 2.36E-12, , , , 
DataValue, -0.32, 0.25, 1.32E-12, 4E-13, , , , 
DataValue, -0.28, 0.25, 3.2000000000000005E-13, -8.2E-13, , , , 
DataValue, -0.24, 0.25, 1.9000000000000002E-13, 1.26E-12, , , , 
DataValue, -0.2, 0.25, 7.4000000000000008E-13, 3.28E-12, , , , 
DataValue, -0.16, 0.25, 8.4000000000000006E-13, 1.8000000000000002E-12, , , , 
DataValue, -0.12, 0.25, 1.17E-12, -4.6000000000000006E-13, , , , 
DataValue, -0.08, 0.25, 7.100000000000001E-13, -5.9E-13, , , , 
DataValue, -0.04, 0.25, 8.1000000000000008E-13, 1.78E-12, , , , 
DataValue, 0, 0.25, 1.08E-12, 2.82E-12, , , , 
DataValue, 0.04, 0.25, 1.2500000000000001E-12, 1.41E-12, , , , 
DataValue, 0.08, 0.25, 2.7E-13, 3.0000000000000005E-14, , , , 
DataValue, 0.12, 0.25, 2E-13, 1.32E-12, , , , 
DataValue, 0.16, 0.25, 1.4800000000000002E-12, 3.0800000000000002E-12, , , , 
DataValue, 0.2, 0.25, 8.300000000000001E-13, 4.32E-12, , , , 
DataValue, 0.24, 0.25, 1.69E-12, 3.6000000000000004E-12, , , , 
DataValue, 0.28, 0.25, 8.8000000000000009E-13, 2.4300000000000003E-12, , , , 
DataValue, 0.32, 0.25, 8E-13, 4.9100000000000007E-12, , , , 
DataValue, 0.36, 0.25, 1E-12, 9.43E-12, , , , 
DataValue, 0.4, 0.25, 1.7700000000000001E-12, 1.2650000000000001E-11, , , , 
DataValue, 0.44, 0.25, 1.6300000000000001E-12, 1.5010000000000002E-11, , , , 
DataValue, 0.48, 0.25, 7.6000000000000009E-13, 2.056E-11, , , , 
DataValue, 0.52, 0.25, 1.45E-12, 3.288E-11, , , , 
DataValue, 0.56, 0.25, 7.3E-13, 4.6410000000000004E-11, , , , 
DataValue, 0.6, 0.25, 1.5600000000000002E-12, 6.353E-11, , , , 
DataValue, 0.64, 0.25, 1.8400000000000002E-12, 8.8630000000000008E-11, , , , 
DataValue, 0.68, 0.25, 1.21E-12, 1.2779E-10, , , , 
DataValue, 0.72, 0.25, 1.0500000000000002E-12, 1.8266000000000002E-10, , , , 
DataValue, 0.76, 0.25, 1.2900000000000002E-12, 2.5716E-10, , , , 
DataValue, 0.8, 0.25, 1.26E-12, 3.5787000000000003E-10, , , , 
DataValue, 0.84, 0.25, 9.9E-13, 5.0056000000000008E-10, , , , 
DataValue, 0.88, 0.25, 9.4E-13, 7.0417000000000006E-10, , , , 
DataValue, 0.92, 0.25, 9.1000000000000016E-13, 9.8119E-10, , , , 
DataValue, 0.96, 0.25, 2.13E-12, 1.4689E-09, , , , 
DataValue, 1, 0.25, 1.14E-12, 1.9702E-09, , , , 
DataValue, 1.04, 0.25, 7.3E-13, 2.6893E-09, , , , 
DataValue, 1.08, 0.25, 6.9000000000000009E-13, 3.664E-09, , , , 
DataValue, 1.12, 0.25, 1.08E-12, 4.9772E-09, , , , 
DataValue, 1.16, 0.25, 1.91E-12, 6.7623E-09, , , , 
DataValue, 1.2, 0.25, 1.5E-12, 9.1522E-09, , , , 
DataValue, 1.24, 0.25, 1.2500000000000001E-12, 1.2765199999999998E-08, , , , 
DataValue, 1.28, 0.25, 1.18E-12, 1.68582E-08, , , , 
DataValue, 1.32, 0.25, 1.4800000000000002E-12, 2.2233799999999998E-08, , , , 
DataValue, 1.36, 0.25, 1.4900000000000001E-12, 2.9124999999999998E-08, , , , 
DataValue, 1.4000000000000001, 0.25, 1.64E-12, 3.77652E-08, , , , 
DataValue, 1.44, 0.25, 1.22E-12, 4.8712399999999995E-08, , , , 
DataValue, 1.48, 0.25, 1.26E-12, 6.23304E-08, , , , 
DataValue, 1.52, 0.25, 7.2000000000000006E-13, 7.8724799999999988E-08, , , , 
DataValue, 1.56, 0.25, 1.4200000000000002E-12, 9.8662999999999988E-08, , , , 
DataValue, 1.6, 0.25, 1.32E-12, 1.2155999999999999E-07, , , , 
DataValue, 1.6400000000000001, 0.25, 7.6000000000000009E-13, 1.4832E-07, , , , 
DataValue, 1.68, 0.25, 1.4400000000000001E-12, 1.7946E-07, , , , 
DataValue, 1.72, 0.25, 1.36E-12, 2.1602E-07, , , , 
DataValue, 1.76, 0.25, 1.22E-12, 2.5738E-07, , , , 
DataValue, 1.8, 0.25, 1.02E-12, 3.0426E-07, , , , 
DataValue, 1.84, 0.25, 1.4300000000000002E-12, 3.5692E-07, , , , 
DataValue, 1.8800000000000001, 0.25, 1.64E-12, 4.1707999999999997E-07, , , , 
DataValue, 1.92, 0.25, 1.32E-12, 4.821E-07, , , , 
DataValue, 1.96, 0.25, 1.6700000000000002E-12, 5.5484E-07, , , , 
DataValue, 2, 0.25, 2.1500000000000003E-12, 6.3438E-07, , , , 
DataValue, 2.04, 0.25, 1.4800000000000002E-12, 7.2046E-07, , , , 
DataValue, 2.08, 0.25, 1.45E-12, 8.1262E-07, , , , 
DataValue, 2.12, 0.25, 1.7600000000000002E-12, 9.1148E-07, , , , 
DataValue, 2.16, 0.25, 1.7600000000000002E-12, 1.0177E-06, , , , 
DataValue, 2.2, 0.25, 1.6700000000000002E-12, 1.12774E-06, , , , 
DataValue, 2.24, 0.25, 1.5800000000000001E-12, 1.2889E-06, , , , 
DataValue, 2.2800000000000002, 0.25, 7.2000000000000006E-13, 1.4015E-06, , , , 
DataValue, 2.32, 0.25, 1.83E-12, 1.5245000000000002E-06, , , , 
DataValue, 2.36, 0.25, 2.29E-12, 1.6567000000000002E-06, , , , 
DataValue, 2.4, 0.25, 1.12E-12, 1.7965E-06, , , , 
DataValue, 2.44, 0.25, 1.88E-12, 1.9409000000000003E-06, , , , 
DataValue, 2.48, 0.25, 2.13E-12, 2.0918E-06, , , , 
DataValue, 2.52, 0.25, 1.3300000000000002E-12, 2.2484000000000004E-06, , , , 
DataValue, 2.56, 0.25, 2.49E-12, 2.4074000000000004E-06, , , , 
DataValue, 2.6, 0.25, 2.14E-12, 2.5698000000000004E-06, , , , 
DataValue, 2.64, 0.25, 1.6700000000000002E-12, 2.7385E-06, , , , 
DataValue, 2.68, 0.25, 2.19E-12, 2.9104E-06, , , , 
DataValue, 2.72, 0.25, 1.9200000000000003E-12, 3.0858E-06, , , , 
DataValue, 2.7600000000000002, 0.25, 2.31E-12, 3.2678000000000003E-06, , , , 
DataValue, 2.8000000000000003, 0.25, 2.29E-12, 3.4527000000000004E-06, , , , 
DataValue, 2.84, 0.25, 1.4800000000000002E-12, 3.6399000000000005E-06, , , , 
DataValue, 2.88, 0.25, 1.4300000000000002E-12, 3.829E-06, , , , 
DataValue, 2.92, 0.25, 2.6500000000000002E-12, 4.0181000000000005E-06, , , , 
DataValue, 2.96, 0.25, 1.4E-12, 4.2077E-06, , , , 
DataValue, 3, 0.25, 1.6E-12, 4.3961E-06, , , , 
DataValue, 3.04, 0.25, 2.06E-12, 4.5936E-06, , , , 
DataValue, 3.08, 0.25, 1.4200000000000002E-12, 4.7946000000000006E-06, , , , 
DataValue, 3.12, 0.25, 2.29E-12, 4.9969E-06, , , , 
DataValue, 3.16, 0.25, 2.1500000000000003E-12, 5.1976000000000009E-06, , , , 
DataValue, 3.2, 0.25, 2.03E-12, 5.4016000000000009E-06, , , , 
DataValue, 3.24, 0.25, 2.21E-12, 5.6015000000000005E-06, , , , 
DataValue, 3.2800000000000002, 0.25, 1.4400000000000001E-12, 5.8006000000000008E-06, , , , 
DataValue, 3.3200000000000003, 0.25, 2.21E-12, 5.9967000000000005E-06, , , , 
DataValue, 3.36, 0.25, 2.57E-12, 6.197800000000001E-06, , , , 
DataValue, 3.4, 0.25, 1.8400000000000002E-12, 6.3936000000000009E-06, , , , 
DataValue, 3.44, 0.25, 2.4500000000000003E-12, 6.5927E-06, , , , 
DataValue, 3.48, 0.25, 1.4400000000000001E-12, 6.786100000000001E-06, , , , 
DataValue, 3.52, 0.25, 1.9700000000000003E-12, 6.9848000000000004E-06, , , , 
DataValue, 3.56, 0.25, 1.3400000000000002E-12, 7.177800000000001E-06, , , , 
DataValue, 3.6, 0.25, 1.7600000000000002E-12, 7.3712000000000007E-06, , , , 
DataValue, 3.64, 0.25, 2.44E-12, 7.5648000000000008E-06, , , , 
DataValue, 3.68, 0.25, 2.75E-12, 7.7553E-06, , , , 
DataValue, 3.72, 0.25, 2.29E-12, 7.9459000000000013E-06, , , , 
DataValue, 3.7600000000000002, 0.25, 2E-12, 8.1333E-06, , , , 
DataValue, 3.8000000000000003, 0.25, 2.13E-12, 8.3156E-06, , , , 
DataValue, 3.84, 0.25, 2.2000000000000003E-12, 8.5003E-06, , , , 
DataValue, 3.88, 0.25, 2.3800000000000004E-12, 8.6785000000000017E-06, , , , 
DataValue, 3.92, 0.25, 3.02E-12, 8.857E-06, , , , 
DataValue, 3.96, 0.25, 2.41E-12, 9.0384000000000014E-06, , , , 
DataValue, 4, 0.25, 1.85E-12, 9.2106000000000012E-06, , , , 
DataValue, 4.04, 0.25, 2.39E-12, 9.3782000000000011E-06, , , , 
DataValue, 4.08, 0.25, 2.9100000000000003E-12, 9.5468000000000015E-06, , , , 
DataValue, 4.12, 0.25, 2.1200000000000003E-12, 9.7116E-06, , , , 
DataValue, 4.16, 0.25, 2.52E-12, 9.878800000000001E-06, , , , 
DataValue, 4.2, 0.25, 2.24E-12, 1.00439E-05, , , , 
DataValue, 4.24, 0.25, 2.4300000000000003E-12, 1.0203E-05, , , , 
DataValue, 4.28, 0.25, 2.8400000000000004E-12, 1.0358900000000002E-05, , , , 
DataValue, 4.32, 0.25, 2.5000000000000003E-12, 1.05166E-05, , , , 
DataValue, 4.36, 0.25, 2.8100000000000003E-12, 1.0667700000000001E-05, , , , 
DataValue, 4.4, 0.25, 2.5500000000000002E-12, 1.0810800000000002E-05, , , , 
DataValue, 4.44, 0.25, 2.23E-12, 1.0956900000000002E-05, , , , 
DataValue, 4.48, 0.25, 2.9100000000000003E-12, 1.1101000000000001E-05, , , , 
DataValue, 4.5200000000000005, 0.25, 2.46E-12, 1.12406E-05, , , , 
DataValue, 4.5600000000000005, 0.25, 2.8E-12, 1.1380200000000002E-05, , , , 
DataValue, 4.6000000000000005, 0.25, 2.44E-12, 1.1576E-05, , , , 
DataValue, 4.64, 0.25, 2.64E-12, 1.1682000000000001E-05, , , , 
DataValue, 4.68, 0.25, 2.97E-12, 1.1796E-05, , , , 
DataValue, 4.72, 0.25, 2.51E-12, 1.1916E-05, , , , 
DataValue, 4.76, 0.25, 1.74E-12, 1.2036E-05, , , , 
DataValue, 4.8, 0.25, 2.6600000000000004E-12, 1.2152E-05, , , , 
DataValue, 4.84, 0.25, 2.39E-12, 1.2268E-05, , , , 
DataValue, 4.88, 0.25, 1.9400000000000002E-12, 1.2388E-05, , , , 
DataValue, 4.92, 0.25, 3.51E-12, 1.2502E-05, , , , 
DataValue, 4.96, 0.25, 2.75E-12, 1.2618E-05, , , , 
DataValue, 5, 0.25, 2.5600000000000004E-12, 1.2728E-05, , , , 
DataValue, 5.04, 0.25, 2.92E-12, 1.284E-05, , , , 
DataValue, 5.08, 0.25, 3.18E-12, 1.2946000000000001E-05, , , , 
DataValue, 5.12, 0.25, 2.4000000000000003E-12, 1.3056E-05, , , , 
DataValue, 5.16, 0.25, 2.7300000000000003E-12, 1.3156E-05, , , , 
DataValue, 5.2, 0.25, 3.4500000000000004E-12, 1.326E-05, , , , 
DataValue, 5.24, 0.25, 2.08E-12, 1.3368E-05, , , , 
DataValue, 5.28, 0.25, 2.39E-12, 1.3468E-05, , , , 
DataValue, 5.32, 0.25, 2.42E-12, 1.3568000000000001E-05, , , , 
DataValue, 5.36, 0.25, 3.1100000000000003E-12, 1.3662E-05, , , , 
DataValue, 5.4, 0.25, 2.6100000000000004E-12, 1.3754E-05, , , , 
DataValue, 5.44, 0.25, 3.2600000000000002E-12, 1.3840000000000001E-05, , , , 
DataValue, 5.48, 0.25, 3.1200000000000004E-12, 1.3934E-05, , , , 
DataValue, 5.5200000000000005, 0.25, 2.4000000000000003E-12, 1.4022E-05, , , , 
DataValue, 5.5600000000000005, 0.25, 2.8800000000000002E-12, 1.4116E-05, , , , 
DataValue, 5.6000000000000005, 0.25, 2.3800000000000004E-12, 1.4204E-05, , , , 
DataValue, 5.64, 0.25, 3.0900000000000004E-12, 1.4298000000000001E-05, , , , 
DataValue, 5.68, 0.25, 3.5400000000000003E-12, 1.4384E-05, , , , 
DataValue, 5.72, 0.25, 3.0900000000000004E-12, 1.4462E-05, , , , 
DataValue, 5.76, 0.25, 2.9E-12, 1.4554E-05, , , , 
DataValue, 5.8, 0.25, 3.1E-12, 1.4636E-05, , , , 
DataValue, 5.84, 0.25, 3.33E-12, 1.4718E-05, , , , 
DataValue, 5.88, 0.25, 3.0100000000000003E-12, 1.48E-05, , , , 
DataValue, 5.92, 0.25, 3.61E-12, 1.4878E-05, , , , 
DataValue, 5.96, 0.25, 3.2E-12, 1.496E-05, , , , 
DataValue, 6, 0.25, 3.3700000000000004E-12, 1.504E-05, , , , 
DataValue, 6, 0.25, 3.13E-12, 1.5046000000000001E-05, , , , 
DataValue, 5.96, 0.25, 2.75E-12, 1.4978000000000001E-05, , , , 
DataValue, 5.92, 0.25, 2.42E-12, 1.489E-05, , , , 
DataValue, 5.88, 0.25, 2.0200000000000003E-12, 1.4784000000000001E-05, , , , 
DataValue, 5.84, 0.25, 2.26E-12, 1.4672000000000001E-05, , , , 
DataValue, 5.8, 0.25, 2.4800000000000003E-12, 1.4548E-05, , , , 
DataValue, 5.76, 0.25, 2.36E-12, 1.4420000000000001E-05, , , , 
DataValue, 5.72, 0.25, 2.0200000000000003E-12, 1.4294E-05, , , , 
DataValue, 5.68, 0.25, 1.7100000000000002E-12, 1.4162000000000001E-05, , , , 
DataValue, 5.64, 0.25, 2.06E-12, 1.4040000000000001E-05, , , , 
DataValue, 5.6000000000000005, 0.25, 1.4200000000000002E-12, 1.3916E-05, , , , 
