
SetupTitle, ID-VG Postbreak
PrimitiveTest, I/V Sweep
TestParameter, Context.MainFrame, B1500A
TestParameter, Channel.UnitType, SMU, SMU
TestParameter, Channel.Unit, SMU1:MP, SMU2:MP
TestParameter, Channel.IName, I1, I2
TestParameter, Channel.VName, V1, V2
TestParameter, Channel.Mode, V, V
TestParameter, Channel.Func, VAR1, CONST
TestParameter, Channel.Index, 
TestParameter, Channel.Time, 
TestParameter, Measurement.Port.Unit, SMU1:MP, SMU2:MP
TestParameter, Measurement.Port.SeriesResistor, NONE, NONE
TestParameter, Measurement.Port.Filter, ON, ON
TestParameter, Measurement.Port.OutputVoltageComparison, 0, 0
TestParameter, Measurement.Primary.Locus, Double
TestParameter, Measurement.Primary.Scale, LINEAR
TestParameter, Measurement.Primary.Start, -2
TestParameter, Measurement.Primary.Stop, 6
TestParameter, Measurement.Primary.Step, 0.04
TestParameter, Measurement.Primary.Compliance, 0.1
TestParameter, Measurement.Primary.PowerCompliance, 0
TestParameter, Measurement.Aborting.Condition, CONTINUE AT ANY
TestParameter, Measurement.PostOutput.Value, START
TestParameter, Measurement.PostOutput.Retention, OFF
TestParameter, Measurement.Bias.Source, -2, 0.25
TestParameter, Measurement.Bias.Compliance, 0.1, 0.1
TestParameter, Measurement.Monitor.Unit, SMU1:MP, SMU2:MP
TestParameter, Measurement.Monitor.Adc, HR ADC, HR ADC
TestParameter, Measurement.Monitor.Measurement, Compliance Side, Compliance Side
TestParameter, Measurement.Monitor.RangingMode, LIMITED, LIMITED
TestParameter, Measurement.Monitor.RangeBoundary, 1nA, 1nA
TestParameter, Measurement.Monitor.RangeRating, BY FULL RANGE, BY FULL RANGE
TestParameter, Measurement.Monitor.RangeRatingCoeff, 50, 50
TestParameter, Measurement.Timing.Hold, 0
TestParameter, Measurement.Timing.Delay, 0
TestParameter, Measurement.Adc.HighSpeed.Mode, AUTO
TestParameter, Measurement.Adc.HighSpeed.Coeff, 1
TestParameter, Measurement.Adc.HighResolution.AutoZero, OFF
TestParameter, Measurement.Adc.HighResolution.Mode, AUTO
TestParameter, Measurement.Adc.HighResolution.Coeff, 6
TestParameter, Measurement.WaitTime.Source.Coeff, 1
TestParameter, Measurement.WaitTime.Source.Offset, 0
TestParameter, Measurement.WaitTime.Monitor.Coeff, 1
TestParameter, Measurement.WaitTime.Monitor.Offset, 0
TestParameter, Output.Graph.Enabled, true
TestParameter, Output.Graph.AutoScaling, false
TestParameter, Output.Graph.XAxis.Data, V1
TestParameter, Output.Graph.XAxis.Scale, Linear
TestParameter, Output.Graph.XAxis.Left, -2
TestParameter, Output.Graph.XAxis.Right, 6
TestParameter, Output.Graph.XAxis.RunTimeAutoScale, true
TestParameter, Output.Graph.YAxis.Data, I2
TestParameter, Output.Graph.YAxis.Scale, Linear
TestParameter, Output.Graph.YAxis.Bottom, -0.1
TestParameter, Output.Graph.YAxis.Top, 0.1
TestParameter, Output.Graph.YAxis.Group, 
TestParameter, Output.Graph.YAxis.RunTimeAutoScale, true
TestParameter, Output.List.Data, V1, I1, V2, I2, V3, I3, V4, I4
TestParameter, AutoAnalysis.Interpolation, false
TestParameter, AutoAnalysis.Line1.Enabled, false
TestParameter, AutoAnalysis.Line1.Type, 1
TestParameter, AutoAnalysis.Line1.Fix, True
TestParameter, AutoAnalysis.Line1.YAxis, 0
TestParameter, AutoAnalysis.Line1.Point1.Type, 0
TestParameter, AutoAnalysis.Line1.Point1.XY.X, 
TestParameter, AutoAnalysis.Line1.Point1.XY.Y, 
TestParameter, AutoAnalysis.Line1.Point1.Data.Var, 
TestParameter, AutoAnalysis.Line1.Point1.Data.Condition, 
TestParameter, AutoAnalysis.Line1.Point1.Data.Start, false
TestParameter, AutoAnalysis.Line1.Point1.Data.StartVar, 
TestParameter, AutoAnalysis.Line1.Point1.Data.StartCondition, 
TestParameter, AutoAnalysis.Line1.Point2.Type, 0
TestParameter, AutoAnalysis.Line1.Point2.XY.X, 
TestParameter, AutoAnalysis.Line1.Point2.XY.Y, 
TestParameter, AutoAnalysis.Line1.Point2.Data.Var, 
TestParameter, AutoAnalysis.Line1.Point2.Data.Condition, 
TestParameter, AutoAnalysis.Line1.Point2.Data.Start, false
TestParameter, AutoAnalysis.Line1.Point2.Data.StartVar, 
TestParameter, AutoAnalysis.Line1.Point2.Data.StartCondition, 
TestParameter, AutoAnalysis.Line1.GradientExpr, 0
TestParameter, AutoAnalysis.Line2.Enabled, false
TestParameter, AutoAnalysis.Line2.Type, 1
TestParameter, AutoAnalysis.Line2.Fix, True
TestParameter, AutoAnalysis.Line2.YAxis, 0
TestParameter, AutoAnalysis.Line2.Point1.Type, 0
TestParameter, AutoAnalysis.Line2.Point1.XY.X, 
TestParameter, AutoAnalysis.Line2.Point1.XY.Y, 
TestParameter, AutoAnalysis.Line2.Point1.Data.Var, 
TestParameter, AutoAnalysis.Line2.Point1.Data.Condition, 
TestParameter, AutoAnalysis.Line2.Point1.Data.Start, false
TestParameter, AutoAnalysis.Line2.Point1.Data.StartVar, 
TestParameter, AutoAnalysis.Line2.Point1.Data.StartCondition, 
TestParameter, AutoAnalysis.Line2.Point2.Type, 0
TestParameter, AutoAnalysis.Line2.Point2.XY.X, 
TestParameter, AutoAnalysis.Line2.Point2.XY.Y, 
TestParameter, AutoAnalysis.Line2.Point2.Data.Var, 
TestParameter, AutoAnalysis.Line2.Point2.Data.Condition, 
TestParameter, AutoAnalysis.Line2.Point2.Data.Start, false
TestParameter, AutoAnalysis.Line2.Point2.Data.StartVar, 
TestParameter, AutoAnalysis.Line2.Point2.Data.StartCondition, 
TestParameter, AutoAnalysis.Line2.GradientExpr, 0
TestParameter, AutoAnalysis.Marker.Enabled, false
TestParameter, AutoAnalysis.Marker.Data.Var, 
TestParameter, AutoAnalysis.Marker.Data.Condition, 
TestParameter, AutoAnalysis.Marker.Data.Start, false
TestParameter, AutoAnalysis.Marker.Data.StartVar, 
TestParameter, AutoAnalysis.Marker.Data.StartCondition, 
MetaData, TestRecord.EntryPoint, true
MetaData, TestRecord.RecordTime, 03/10/2023 17:29:11
MetaData, TestRecord.TestTarget, 
MetaData, TestRecord.IterationIndex, 67
MetaData, TestRecord.Preservation, true
MetaData, TestRecord.Flag, 
MetaData, TestRecord.Remarks, 
MetaData, TestRecord.LinkKey, ac0220a9-3cf3-41d7-85d7-80bf78111b97
Dimension1, 402, 402, 402, 402, 402, 402, 402, 402
Dimension2, 1, 1, 1, 1, 1, 1, 1, 1
DataName, V1, V2, I1, I2, V3, I3, V4, I4
DataValue, -2, 0.25, -3.2700000000000004E-12, 1.12E-12, , , , 
DataValue, -1.96, 0.25, -2.52E-12, 2.28E-12, , , , 
DataValue, -1.92, 0.25, -1.6E-12, 1.4900000000000001E-12, , , , 
DataValue, -1.8800000000000001, 0.25, -1.73E-12, 1.1000000000000001E-13, , , , 
DataValue, -1.84, 0.25, -1.78E-12, -4.0000000000000006E-14, , , , 
DataValue, -1.8, 0.25, -1.4700000000000002E-12, 1.55E-12, , , , 
DataValue, -1.76, 0.25, -9.8E-13, 2.37E-12, , , , 
DataValue, -1.72, 0.25, -8E-13, 6.9000000000000009E-13, , , , 
DataValue, -1.68, 0.25, -1.13E-12, -1.7E-13, , , , 
DataValue, -1.6400000000000001, 0.25, -3.7000000000000004E-13, 1.3E-13, , , , 
DataValue, -1.6, 0.25, -6.6E-13, 1.4700000000000002E-12, , , , 
DataValue, -1.56, 0.25, -4.6000000000000006E-13, 1.8200000000000003E-12, , , , 
DataValue, -1.52, 0.25, -9.7000000000000011E-13, 6.400000000000001E-13, , , , 
DataValue, -1.48, 0.25, 1.6000000000000003E-13, -5.2E-13, , , , 
DataValue, -1.44, 0.25, -1.1000000000000001E-13, 6.5000000000000006E-13, , , , 
DataValue, -1.4000000000000001, 0.25, -1.7E-13, 2.0500000000000004E-12, , , , 
DataValue, -1.36, 0.25, 7.7000000000000005E-13, 1.2000000000000001E-12, , , , 
DataValue, -1.32, 0.25, -2.6E-13, 2.5E-13, , , , 
DataValue, -1.28, 0.25, 9.3E-13, 8.5000000000000011E-13, , , , 
DataValue, -1.24, 0.25, -7.9000000000000007E-13, 2.03E-12, , , , 
DataValue, -1.2, 0.25, 1.13E-12, 1.5E-12, , , , 
DataValue, -1.16, 0.25, -2.2000000000000002E-13, -1.0000000000000002E-14, , , , 
DataValue, -1.12, 0.25, 7.100000000000001E-13, 3.9000000000000005E-13, , , , 
DataValue, -1.08, 0.25, -2.9000000000000003E-13, 2.09E-12, , , , 
DataValue, -1.04, 0.25, 1.0600000000000001E-12, 2.08E-12, , , , 
DataValue, -1, 0.25, 4.8000000000000008E-13, 1.27E-12, , , , 
DataValue, -0.96, 0.25, 7E-14, -6.1E-13, , , , 
DataValue, -0.92, 0.25, 3.8000000000000005E-13, 1.21E-12, , , , 
DataValue, -0.88, 0.25, -8.0000000000000013E-14, 1.65E-12, , , , 
DataValue, -0.84, 0.25, 1.3E-13, 2.16E-12, , , , 
DataValue, -0.8, 0.25, 8E-13, 7.3E-13, , , , 
DataValue, -0.76, 0.25, 1.4E-13, 2E-13, , , , 
DataValue, -0.72, 0.25, 1.1000000000000001E-13, 4.2000000000000003E-13, , , , 
DataValue, -0.68, 0.25, 9.7000000000000011E-13, 1.8200000000000003E-12, , , , 
DataValue, -0.64, 0.25, 6.3E-13, 2.0500000000000004E-12, , , , 
DataValue, -0.6, 0.25, 6.8E-13, 8.6000000000000007E-13, , , , 
DataValue, -0.56, 0.25, 5.2E-13, -3.9000000000000005E-13, , , , 
DataValue, -0.52, 0.25, 1.9000000000000002E-13, 7.4000000000000008E-13, , , , 
DataValue, -0.48, 0.25, 3.4E-13, 2.0200000000000003E-12, , , , 
DataValue, -0.44, 0.25, 6.5000000000000006E-13, 1.32E-12, , , , 
DataValue, -0.4, 0.25, 2.9000000000000003E-13, 8.9E-13, , , , 
DataValue, -0.36, 0.25, 5.5000000000000008E-13, -1.5000000000000002E-13, , , , 
DataValue, -0.32, 0.25, 8.6000000000000007E-13, 1.26E-12, , , , 
DataValue, -0.28, 0.25, 1.21E-12, 2.41E-12, , , , 
DataValue, -0.24, 0.25, 8.2E-13, 4.6000000000000006E-13, , , , 
DataValue, -0.2, 0.25, 7E-13, 1.9000000000000002E-13, , , , 
DataValue, -0.16, 0.25, 2.7E-13, 2.9000000000000003E-13, , , , 
DataValue, -0.12, 0.25, 5.8000000000000005E-13, 2.18E-12, , , , 
DataValue, -0.08, 0.25, 9.2000000000000012E-13, 1.85E-12, , , , 
DataValue, -0.04, 0.25, 7E-13, 5.7E-13, , , , 
DataValue, 0, 0.25, 6.6E-13, -4.1E-13, , , , 
DataValue, 0.04, 0.25, 7.100000000000001E-13, 5.8000000000000005E-13, , , , 
DataValue, 0.08, 0.25, 1.09E-12, 2.18E-12, , , , 
DataValue, 0.12, 0.25, 1.32E-12, 1E-12, , , , 
DataValue, 0.16, 0.25, 6.2000000000000008E-13, 6.8E-13, , , , 
DataValue, 0.2, 0.25, 6.5000000000000006E-13, 1.5000000000000002E-13, , , , 
DataValue, 0.24, 0.25, 1.21E-12, 2.21E-12, , , , 
DataValue, 0.28, 0.25, 5.2E-13, 2.9100000000000003E-12, , , , 
DataValue, 0.32, 0.25, 1.51E-12, 1.64E-12, , , , 
DataValue, 0.36, 0.25, 9.6000000000000015E-13, 2.1000000000000001E-13, , , , 
DataValue, 0.4, 0.25, 1.31E-12, 2.4000000000000003E-12, , , , 
DataValue, 0.44, 0.25, 1.08E-12, 3.2900000000000003E-12, , , , 
DataValue, 0.48, 0.25, 1.0500000000000002E-12, 4.73E-12, , , , 
DataValue, 0.52, 0.25, 1.45E-12, 5.48E-12, , , , 
DataValue, 0.56, 0.25, 9.6000000000000015E-13, 5.6100000000000005E-12, , , , 
DataValue, 0.6, 0.25, 1.12E-12, 9.5900000000000009E-12, , , , 
DataValue, 0.64, 0.25, 8.9E-13, 1.3680000000000002E-11, , , , 
DataValue, 0.68, 0.25, 1.6300000000000001E-12, 1.8560000000000002E-11, , , , 
DataValue, 0.72, 0.25, 9.5E-13, 2.507E-11, , , , 
DataValue, 0.76, 0.25, 1.74E-12, 3.4100000000000004E-11, , , , 
DataValue, 0.8, 0.25, 1.27E-12, 5.0340000000000004E-11, , , , 
DataValue, 0.84, 0.25, 1.22E-12, 7.061E-11, , , , 
DataValue, 0.88, 0.25, 1.21E-12, 9.7480000000000009E-11, , , , 
DataValue, 0.92, 0.25, 8.1000000000000008E-13, 1.3337E-10, , , , 
DataValue, 0.96, 0.25, 1.4E-12, 1.8570000000000002E-10, , , , 
DataValue, 1, 0.25, 5.2E-13, 2.5797000000000004E-10, , , , 
DataValue, 1.04, 0.25, 1.8100000000000002E-12, 3.5692000000000005E-10, , , , 
DataValue, 1.08, 0.25, 6.0000000000000007E-13, 4.8922E-10, , , , 
DataValue, 1.12, 0.25, 1.2400000000000002E-12, 6.6902E-10, , , , 
DataValue, 1.16, 0.25, 1.3500000000000001E-12, 9.2052E-10, , , , 
DataValue, 1.2, 0.25, 1.26E-12, 1.4453E-09, , , , 
DataValue, 1.24, 0.25, 7.7000000000000005E-13, 1.9089E-09, , , , 
DataValue, 1.28, 0.25, 1.1900000000000002E-12, 2.5407E-09, , , , 
DataValue, 1.32, 0.25, 1.5700000000000002E-12, 3.4051E-09, , , , 
DataValue, 1.36, 0.25, 9.1000000000000016E-13, 4.5504E-09, , , , 
DataValue, 1.4000000000000001, 0.25, 1.04E-12, 6.0609E-09, , , , 
DataValue, 1.44, 0.25, 1.2900000000000002E-12, 8.1038E-09, , , , 
DataValue, 1.48, 0.25, 5E-13, 1.07426E-08, , , , 
DataValue, 1.52, 0.25, 1.65E-12, 1.4698999999999998E-08, , , , 
DataValue, 1.56, 0.25, 1.4300000000000002E-12, 1.9294599999999997E-08, , , , 
DataValue, 1.6, 0.25, 7.100000000000001E-13, 2.5220999999999998E-08, , , , 
DataValue, 1.6400000000000001, 0.25, 8.4000000000000006E-13, 3.2832799999999996E-08, , , , 
DataValue, 1.68, 0.25, 1.22E-12, 4.2484799999999995E-08, , , , 
DataValue, 1.72, 0.25, 1E-12, 5.4410999999999997E-08, , , , 
DataValue, 1.76, 0.25, 2.1000000000000003E-12, 6.92022E-08, , , , 
DataValue, 1.8, 0.25, 1.46E-12, 8.71194E-08, , , , 
DataValue, 1.84, 0.25, 8.1000000000000008E-13, 1.085462E-07, , , , 
DataValue, 1.8800000000000001, 0.25, 1.6600000000000002E-12, 1.3362E-07, , , , 
DataValue, 1.92, 0.25, 1.4200000000000002E-12, 1.6242E-07, , , , 
DataValue, 1.96, 0.25, 1.7600000000000002E-12, 1.9672E-07, , , , 
DataValue, 2, 0.25, 1.6E-12, 2.3534E-07, , , , 
DataValue, 2.04, 0.25, 1.6700000000000002E-12, 2.8072E-07, , , , 
DataValue, 2.08, 0.25, 1.7500000000000002E-12, 3.3186E-07, , , , 
DataValue, 2.12, 0.25, 2.7300000000000003E-12, 3.8864E-07, , , , 
DataValue, 2.16, 0.25, 1.14E-12, 4.5208E-07, , , , 
DataValue, 2.2, 0.25, 1.3500000000000001E-12, 5.2306E-07, , , , 
DataValue, 2.24, 0.25, 1.18E-12, 6.0234E-07, , , , 
DataValue, 2.2800000000000002, 0.25, 1.8700000000000003E-12, 6.8856E-07, , , , 
DataValue, 2.32, 0.25, 1.51E-12, 7.8306E-07, , , , 
DataValue, 2.36, 0.25, 1.95E-12, 8.8307999999999994E-07, , , , 
DataValue, 2.4, 0.25, 1.83E-12, 9.9292E-07, , , , 
DataValue, 2.44, 0.25, 1.4300000000000002E-12, 1.10962E-06, , , , 
DataValue, 2.48, 0.25, 1.4800000000000002E-12, 1.2958000000000002E-06, , , , 
DataValue, 2.52, 0.25, 1.69E-12, 1.4156E-06, , , , 
DataValue, 2.56, 0.25, 1.3400000000000002E-12, 1.5467000000000002E-06, , , , 
DataValue, 2.6, 0.25, 1.5800000000000001E-12, 1.6880000000000002E-06, , , , 
DataValue, 2.64, 0.25, 1.78E-12, 1.8363E-06, , , , 
DataValue, 2.68, 0.25, 1.6200000000000002E-12, 1.992E-06, , , , 
DataValue, 2.72, 0.25, 2.1000000000000003E-12, 2.1564000000000002E-06, , , , 
DataValue, 2.7600000000000002, 0.25, 1.98E-12, 2.3254000000000002E-06, , , , 
DataValue, 2.8000000000000003, 0.25, 1.55E-12, 2.5039000000000003E-06, , , , 
DataValue, 2.84, 0.25, 1.51E-12, 2.6873E-06, , , , 
DataValue, 2.88, 0.25, 1.3900000000000001E-12, 2.8763000000000003E-06, , , , 
DataValue, 2.92, 0.25, 2.1500000000000003E-12, 3.0671000000000002E-06, , , , 
DataValue, 2.96, 0.25, 2E-12, 3.2601000000000003E-06, , , , 
DataValue, 3, 0.25, 1.3400000000000002E-12, 3.4631000000000004E-06, , , , 
DataValue, 3.04, 0.25, 2.1000000000000003E-12, 3.6623000000000005E-06, , , , 
DataValue, 3.08, 0.25, 1.86E-12, 3.8712E-06, , , , 
DataValue, 3.12, 0.25, 1.6E-12, 4.0801E-06, , , , 
DataValue, 3.16, 0.25, 2.03E-12, 4.2855000000000007E-06, , , , 
DataValue, 3.2, 0.25, 2.1200000000000003E-12, 4.5032E-06, , , , 
DataValue, 3.24, 0.25, 1.88E-12, 4.7223000000000005E-06, , , , 
DataValue, 3.2800000000000002, 0.25, 2.09E-12, 4.9404E-06, , , , 
DataValue, 3.3200000000000003, 0.25, 1.6600000000000002E-12, 5.1609000000000009E-06, , , , 
DataValue, 3.36, 0.25, 1.7500000000000002E-12, 5.3789E-06, , , , 
DataValue, 3.4, 0.25, 1.8200000000000003E-12, 5.5984000000000005E-06, , , , 
DataValue, 3.44, 0.25, 1.3800000000000002E-12, 5.8225000000000006E-06, , , , 
DataValue, 3.48, 0.25, 2.36E-12, 6.0467000000000009E-06, , , , 
DataValue, 3.52, 0.25, 1.8200000000000003E-12, 6.2682E-06, , , , 
DataValue, 3.56, 0.25, 2.19E-12, 6.4887E-06, , , , 
DataValue, 3.6, 0.25, 2.19E-12, 6.710000000000001E-06, , , , 
DataValue, 3.64, 0.25, 1.0500000000000002E-12, 6.9255000000000009E-06, , , , 
DataValue, 3.68, 0.25, 2E-12, 7.1416E-06, , , , 
DataValue, 3.72, 0.25, 2.0500000000000004E-12, 7.3583E-06, , , , 
DataValue, 3.7600000000000002, 0.25, 2.37E-12, 7.5728000000000006E-06, , , , 
DataValue, 3.8000000000000003, 0.25, 1.85E-12, 7.7869000000000016E-06, , , , 
DataValue, 3.84, 0.25, 1.9700000000000003E-12, 7.9985000000000014E-06, , , , 
DataValue, 3.88, 0.25, 1.7100000000000002E-12, 8.2089E-06, , , , 
DataValue, 3.92, 0.25, 1.9200000000000003E-12, 8.4215E-06, , , , 
DataValue, 3.96, 0.25, 2.29E-12, 8.6288000000000011E-06, , , , 
DataValue, 4, 0.25, 2.04E-12, 8.8321000000000014E-06, , , , 
DataValue, 4.04, 0.25, 1.98E-12, 9.0352000000000012E-06, , , , 
DataValue, 4.08, 0.25, 1.78E-12, 9.2349E-06, , , , 
DataValue, 4.12, 0.25, 1.7000000000000002E-12, 9.4345000000000009E-06, , , , 
DataValue, 4.16, 0.25, 2.0200000000000003E-12, 9.6311000000000017E-06, , , , 
DataValue, 4.2, 0.25, 2.9800000000000002E-12, 9.8279000000000012E-06, , , , 
DataValue, 4.24, 0.25, 3.05E-12, 1.00252E-05, , , , 
DataValue, 4.28, 0.25, 2.57E-12, 1.0210400000000001E-05, , , , 
DataValue, 4.32, 0.25, 1.65E-12, 1.03985E-05, , , , 
DataValue, 4.36, 0.25, 2.57E-12, 1.0579000000000002E-05, , , , 
DataValue, 4.4, 0.25, 2.28E-12, 1.07577E-05, , , , 
DataValue, 4.44, 0.25, 2.46E-12, 1.0932100000000002E-05, , , , 
DataValue, 4.48, 0.25, 2.3300000000000004E-12, 1.1105100000000002E-05, , , , 
DataValue, 4.5200000000000005, 0.25, 1.65E-12, 1.1271900000000001E-05, , , , 
DataValue, 4.5600000000000005, 0.25, 1.8700000000000003E-12, 1.14378E-05, , , , 
DataValue, 4.6000000000000005, 0.25, 2.3800000000000004E-12, 1.1658000000000001E-05, , , , 
DataValue, 4.64, 0.25, 2.1200000000000003E-12, 1.1804E-05, , , , 
DataValue, 4.68, 0.25, 1.6800000000000001E-12, 1.1948E-05, , , , 
DataValue, 4.72, 0.25, 1.9700000000000003E-12, 1.2088E-05, , , , 
DataValue, 4.76, 0.25, 2.59E-12, 1.2232E-05, , , , 
DataValue, 4.8, 0.25, 2.4500000000000003E-12, 1.2374E-05, , , , 
DataValue, 4.84, 0.25, 3.0100000000000003E-12, 1.2518000000000001E-05, , , , 
DataValue, 4.88, 0.25, 2.16E-12, 1.2652E-05, , , , 
DataValue, 4.92, 0.25, 2.59E-12, 1.2790000000000001E-05, , , , 
DataValue, 4.96, 0.25, 2.37E-12, 1.2928E-05, , , , 
DataValue, 5, 0.25, 2.2000000000000003E-12, 1.3058000000000001E-05, , , , 
DataValue, 5.04, 0.25, 2.3000000000000003E-12, 1.3188E-05, , , , 
DataValue, 5.08, 0.25, 1.83E-12, 1.3318E-05, , , , 
DataValue, 5.12, 0.25, 2.4300000000000003E-12, 1.3444E-05, , , , 
DataValue, 5.16, 0.25, 2.23E-12, 1.3568000000000001E-05, , , , 
DataValue, 5.2, 0.25, 1.7700000000000001E-12, 1.3692E-05, , , , 
DataValue, 5.24, 0.25, 2.6300000000000003E-12, 1.3808E-05, , , , 
DataValue, 5.28, 0.25, 2.47E-12, 1.3924000000000001E-05, , , , 
DataValue, 5.32, 0.25, 2.4300000000000003E-12, 1.4036E-05, , , , 
DataValue, 5.36, 0.25, 2.36E-12, 1.4156000000000001E-05, , , , 
DataValue, 5.4, 0.25, 2.36E-12, 1.4266E-05, , , , 
DataValue, 5.44, 0.25, 3.38E-12, 1.4372E-05, , , , 
DataValue, 5.48, 0.25, 2.39E-12, 1.448E-05, , , , 
DataValue, 5.5200000000000005, 0.25, 2.2200000000000002E-12, 1.4586E-05, , , , 
DataValue, 5.5600000000000005, 0.25, 2.67E-12, 1.4696000000000001E-05, , , , 
DataValue, 5.6000000000000005, 0.25, 2.4500000000000003E-12, 1.4796E-05, , , , 
DataValue, 5.64, 0.25, 2.24E-12, 1.4894E-05, , , , 
DataValue, 5.68, 0.25, 3.61E-12, 1.499E-05, , , , 
DataValue, 5.72, 0.25, 2.37E-12, 1.5092E-05, , , , 
DataValue, 5.76, 0.25, 2.8600000000000003E-12, 1.5182000000000001E-05, , , , 
DataValue, 5.8, 0.25, 3.1400000000000004E-12, 1.528E-05, , , , 
DataValue, 5.84, 0.25, 3.5200000000000003E-12, 1.5368E-05, , , , 
DataValue, 5.88, 0.25, 2.74E-12, 1.5458E-05, , , , 
DataValue, 5.92, 0.25, 2.9800000000000002E-12, 1.5550000000000002E-05, , , , 
DataValue, 5.96, 0.25, 2.92E-12, 1.5636E-05, , , , 
DataValue, 6, 0.25, 2.59E-12, 1.5722E-05, , , , 
DataValue, 6, 0.25, 3.2200000000000004E-12, 1.5726E-05, , , , 
DataValue, 5.96, 0.25, 3.15E-12, 1.569E-05, , , , 
DataValue, 5.92, 0.25, 2.6000000000000002E-12, 1.5624E-05, , , , 
DataValue, 5.88, 0.25, 2.1000000000000003E-12, 1.5546E-05, , , , 
DataValue, 5.84, 0.25, 1.8000000000000002E-12, 1.5452E-05, , , , 
DataValue, 5.8, 0.25, 2.03E-12, 1.5348E-05, , , , 
DataValue, 5.76, 0.25, 1.9900000000000002E-12, 1.5236000000000001E-05, , , , 
DataValue, 5.72, 0.25, 2.82E-12, 1.5124000000000001E-05, , , , 
DataValue, 5.68, 0.25, 2E-12, 1.5002000000000001E-05, , , , 
DataValue, 5.64, 0.25, 1.4800000000000002E-12, 1.4878E-05, , , , 
