
SetupTitle, ID-VG Postbreak
PrimitiveTest, I/V Sweep
TestParameter, Context.MainFrame, B1500A
TestParameter, Channel.UnitType, SMU, SMU
TestParameter, Channel.Unit, SMU1:MP, SMU2:MP
TestParameter, Channel.IName, I1, I2
TestParameter, Channel.VName, V1, V2
TestParameter, Channel.Mode, V, V
TestParameter, Channel.Func, VAR1, CONST
TestParameter, Channel.Index, 
TestParameter, Channel.Time, 
TestParameter, Measurement.Port.Unit, SMU1:MP, SMU2:MP
TestParameter, Measurement.Port.SeriesResistor, NONE, NONE
TestParameter, Measurement.Port.Filter, ON, ON
TestParameter, Measurement.Port.OutputVoltageComparison, 0, 0
TestParameter, Measurement.Primary.Locus, Double
TestParameter, Measurement.Primary.Scale, LINEAR
TestParameter, Measurement.Primary.Start, -2
TestParameter, Measurement.Primary.Stop, 6
TestParameter, Measurement.Primary.Step, 0.04
TestParameter, Measurement.Primary.Compliance, 0.1
TestParameter, Measurement.Primary.PowerCompliance, 0
TestParameter, Measurement.Aborting.Condition, CONTINUE AT ANY
TestParameter, Measurement.PostOutput.Value, START
TestParameter, Measurement.PostOutput.Retention, OFF
TestParameter, Measurement.Bias.Source, -2, 0.25
TestParameter, Measurement.Bias.Compliance, 0.1, 0.1
TestParameter, Measurement.Monitor.Unit, SMU1:MP, SMU2:MP
TestParameter, Measurement.Monitor.Adc, HR ADC, HR ADC
TestParameter, Measurement.Monitor.Measurement, Compliance Side, Compliance Side
TestParameter, Measurement.Monitor.RangingMode, LIMITED, LIMITED
TestParameter, Measurement.Monitor.RangeBoundary, 1nA, 1nA
TestParameter, Measurement.Monitor.RangeRating, BY FULL RANGE, BY FULL RANGE
TestParameter, Measurement.Monitor.RangeRatingCoeff, 50, 50
TestParameter, Measurement.Timing.Hold, 0
TestParameter, Measurement.Timing.Delay, 0
TestParameter, Measurement.Adc.HighSpeed.Mode, AUTO
TestParameter, Measurement.Adc.HighSpeed.Coeff, 1
TestParameter, Measurement.Adc.HighResolution.AutoZero, OFF
TestParameter, Measurement.Adc.HighResolution.Mode, AUTO
TestParameter, Measurement.Adc.HighResolution.Coeff, 6
TestParameter, Measurement.WaitTime.Source.Coeff, 1
TestParameter, Measurement.WaitTime.Source.Offset, 0
TestParameter, Measurement.WaitTime.Monitor.Coeff, 1
TestParameter, Measurement.WaitTime.Monitor.Offset, 0
TestParameter, Output.Graph.Enabled, true
TestParameter, Output.Graph.AutoScaling, false
TestParameter, Output.Graph.XAxis.Data, V1
TestParameter, Output.Graph.XAxis.Scale, Linear
TestParameter, Output.Graph.XAxis.Left, -2
TestParameter, Output.Graph.XAxis.Right, 6
TestParameter, Output.Graph.XAxis.RunTimeAutoScale, true
TestParameter, Output.Graph.YAxis.Data, I2
TestParameter, Output.Graph.YAxis.Scale, Linear
TestParameter, Output.Graph.YAxis.Bottom, -0.1
TestParameter, Output.Graph.YAxis.Top, 0.1
TestParameter, Output.Graph.YAxis.Group, 
TestParameter, Output.Graph.YAxis.RunTimeAutoScale, true
TestParameter, Output.List.Data, V1, I1, V2, I2, V3, I3, V4, I4
TestParameter, AutoAnalysis.Interpolation, false
TestParameter, AutoAnalysis.Line1.Enabled, false
TestParameter, AutoAnalysis.Line1.Type, 1
TestParameter, AutoAnalysis.Line1.Fix, True
TestParameter, AutoAnalysis.Line1.YAxis, 0
TestParameter, AutoAnalysis.Line1.Point1.Type, 0
TestParameter, AutoAnalysis.Line1.Point1.XY.X, 
TestParameter, AutoAnalysis.Line1.Point1.XY.Y, 
TestParameter, AutoAnalysis.Line1.Point1.Data.Var, 
TestParameter, AutoAnalysis.Line1.Point1.Data.Condition, 
TestParameter, AutoAnalysis.Line1.Point1.Data.Start, false
TestParameter, AutoAnalysis.Line1.Point1.Data.StartVar, 
TestParameter, AutoAnalysis.Line1.Point1.Data.StartCondition, 
TestParameter, AutoAnalysis.Line1.Point2.Type, 0
TestParameter, AutoAnalysis.Line1.Point2.XY.X, 
TestParameter, AutoAnalysis.Line1.Point2.XY.Y, 
TestParameter, AutoAnalysis.Line1.Point2.Data.Var, 
TestParameter, AutoAnalysis.Line1.Point2.Data.Condition, 
TestParameter, AutoAnalysis.Line1.Point2.Data.Start, false
TestParameter, AutoAnalysis.Line1.Point2.Data.StartVar, 
TestParameter, AutoAnalysis.Line1.Point2.Data.StartCondition, 
TestParameter, AutoAnalysis.Line1.GradientExpr, 0
TestParameter, AutoAnalysis.Line2.Enabled, false
TestParameter, AutoAnalysis.Line2.Type, 1
TestParameter, AutoAnalysis.Line2.Fix, True
TestParameter, AutoAnalysis.Line2.YAxis, 0
TestParameter, AutoAnalysis.Line2.Point1.Type, 0
TestParameter, AutoAnalysis.Line2.Point1.XY.X, 
TestParameter, AutoAnalysis.Line2.Point1.XY.Y, 
TestParameter, AutoAnalysis.Line2.Point1.Data.Var, 
TestParameter, AutoAnalysis.Line2.Point1.Data.Condition, 
TestParameter, AutoAnalysis.Line2.Point1.Data.Start, false
TestParameter, AutoAnalysis.Line2.Point1.Data.StartVar, 
TestParameter, AutoAnalysis.Line2.Point1.Data.StartCondition, 
TestParameter, AutoAnalysis.Line2.Point2.Type, 0
TestParameter, AutoAnalysis.Line2.Point2.XY.X, 
TestParameter, AutoAnalysis.Line2.Point2.XY.Y, 
TestParameter, AutoAnalysis.Line2.Point2.Data.Var, 
TestParameter, AutoAnalysis.Line2.Point2.Data.Condition, 
TestParameter, AutoAnalysis.Line2.Point2.Data.Start, false
TestParameter, AutoAnalysis.Line2.Point2.Data.StartVar, 
TestParameter, AutoAnalysis.Line2.Point2.Data.StartCondition, 
TestParameter, AutoAnalysis.Line2.GradientExpr, 0
TestParameter, AutoAnalysis.Marker.Enabled, false
TestParameter, AutoAnalysis.Marker.Data.Var, 
TestParameter, AutoAnalysis.Marker.Data.Condition, 
TestParameter, AutoAnalysis.Marker.Data.Start, false
TestParameter, AutoAnalysis.Marker.Data.StartVar, 
TestParameter, AutoAnalysis.Marker.Data.StartCondition, 
MetaData, TestRecord.EntryPoint, true
MetaData, TestRecord.RecordTime, 03/10/2023 17:27:20
MetaData, TestRecord.TestTarget, 
MetaData, TestRecord.IterationIndex, 64
MetaData, TestRecord.Preservation, true
MetaData, TestRecord.Flag, 
MetaData, TestRecord.Remarks, 
MetaData, TestRecord.LinkKey, 99dd139f-4742-4f60-ac12-79439faf2330
Dimension1, 402, 402, 402, 402, 402, 402, 402, 402
Dimension2, 1, 1, 1, 1, 1, 1, 1, 1
DataName, V1, V2, I1, I2, V3, I3, V4, I4
DataValue, -2, 0.25, -4.74E-12, 7.74E-12, , , , 
DataValue, -1.96, 0.25, -2.31E-12, 8.51E-12, , , , 
DataValue, -1.92, 0.25, -2.51E-12, 8.51E-12, , , , 
DataValue, -1.8800000000000001, 0.25, -1.95E-12, 7.61E-12, , , , 
DataValue, -1.84, 0.25, -2.5600000000000004E-12, 5.9200000000000006E-12, , , , 
DataValue, -1.8, 0.25, -1.9E-12, 7.75E-12, , , , 
DataValue, -1.76, 0.25, -1.7500000000000002E-12, 8.85E-12, , , , 
DataValue, -1.72, 0.25, -1.4800000000000002E-12, 8.7100000000000015E-12, , , , 
DataValue, -1.68, 0.25, -2.3000000000000003E-13, 6.7900000000000008E-12, , , , 
DataValue, -1.6400000000000001, 0.25, -1.02E-12, 6.2300000000000007E-12, , , , 
DataValue, -1.6, 0.25, -9.2000000000000012E-13, 7.8900000000000013E-12, , , , 
DataValue, -1.56, 0.25, -8.300000000000001E-13, 9.4000000000000011E-12, , , , 
DataValue, -1.52, 0.25, -2.4000000000000004E-13, 8.0900000000000013E-12, , , , 
DataValue, -1.48, 0.25, 1.9000000000000002E-13, 6.6E-12, , , , 
DataValue, -1.44, 0.25, -9.000000000000001E-13, 6.7E-12, , , , 
DataValue, -1.4000000000000001, 0.25, -8.0000000000000013E-14, 8.25E-12, , , , 
DataValue, -1.36, 0.25, -2E-13, 8.5900000000000012E-12, , , , 
DataValue, -1.32, 0.25, 2E-13, 7.42E-12, , , , 
DataValue, -1.28, 0.25, -2.4000000000000004E-13, 6.1100000000000004E-12, , , , 
DataValue, -1.24, 0.25, 1.5000000000000002E-13, 6.9800000000000006E-12, , , , 
DataValue, -1.2, 0.25, 4.0000000000000006E-14, 8.2700000000000009E-12, , , , 
DataValue, -1.16, 0.25, -1.0000000000000002E-14, 8.3900000000000012E-12, , , , 
DataValue, -1.12, 0.25, 3.8000000000000005E-13, 7.41E-12, , , , 
DataValue, -1.08, 0.25, -1.7E-13, 5.84E-12, , , , 
DataValue, -1.04, 0.25, -9.0000000000000008E-14, 7.72E-12, , , , 
DataValue, -1, 0.25, 1.0000000000000002E-14, 8.3700000000000009E-12, , , , 
DataValue, -0.96, 0.25, 4.0000000000000006E-14, 8.3700000000000009E-12, , , , 
DataValue, -0.92, 0.25, 6.6E-13, 7.1800000000000005E-12, , , , 
DataValue, -0.88, 0.25, -1E-13, 6.8300000000000006E-12, , , , 
DataValue, -0.84, 0.25, 1.18E-12, 8.46E-12, , , , 
DataValue, -0.8, 0.25, 6.9000000000000009E-13, 8.8800000000000009E-12, , , , 
DataValue, -0.76, 0.25, 9.4E-13, 7.21E-12, , , , 
DataValue, -0.72, 0.25, 6.5000000000000006E-13, 7.1900000000000007E-12, , , , 
DataValue, -0.68, 0.25, 1.1000000000000001E-13, 7.7E-12, , , , 
DataValue, -0.64, 0.25, 1.9000000000000002E-13, 8.82E-12, , , , 
DataValue, -0.6, 0.25, 6.2000000000000008E-13, 8.7000000000000013E-12, , , , 
DataValue, -0.56, 0.25, 9.4E-13, 7.6E-12, , , , 
DataValue, -0.52, 0.25, 6.1E-13, 5.8800000000000008E-12, , , , 
DataValue, -0.48, 0.25, 1.17E-12, 8.11E-12, , , , 
DataValue, -0.44, 0.25, 9.1000000000000016E-13, 8.5900000000000012E-12, , , , 
DataValue, -0.4, 0.25, 9.6000000000000015E-13, 8.3900000000000012E-12, , , , 
DataValue, -0.36, 0.25, 1.5E-12, 6.6700000000000005E-12, , , , 
DataValue, -0.32, 0.25, 4.5000000000000005E-13, 5.9800000000000008E-12, , , , 
DataValue, -0.28, 0.25, 1.3900000000000001E-12, 8.7000000000000013E-12, , , , 
DataValue, -0.24, 0.25, 6.8E-13, 8.96E-12, , , , 
DataValue, -0.2, 0.25, 1.6700000000000002E-12, 7.83E-12, , , , 
DataValue, -0.16, 0.25, 1.2000000000000001E-12, 6.4900000000000008E-12, , , , 
DataValue, -0.12, 0.25, 6.3E-13, 7.2400000000000007E-12, , , , 
DataValue, -0.08, 0.25, 1.59E-12, 8.5900000000000012E-12, , , , 
DataValue, -0.04, 0.25, 5.7E-13, 8.11E-12, , , , 
DataValue, 0, 0.25, 1.3000000000000001E-12, 7.1500000000000008E-12, , , , 
DataValue, 0.04, 0.25, 1.13E-12, 6.21E-12, , , , 
DataValue, 0.08, 0.25, 4.9E-13, 8.7900000000000011E-12, , , , 
DataValue, 0.12, 0.25, 1.2800000000000002E-12, 9.34E-12, , , , 
DataValue, 0.16, 0.25, 1.12E-12, 8.580000000000001E-12, , , , 
DataValue, 0.2, 0.25, 1.37E-12, 7.2400000000000007E-12, , , , 
DataValue, 0.24, 0.25, 8.9E-13, 6.6300000000000006E-12, , , , 
DataValue, 0.28, 0.25, 6.8E-13, 8.11E-12, , , , 
DataValue, 0.32, 0.25, 1.6800000000000001E-12, 8.63E-12, , , , 
DataValue, 0.36, 0.25, 1.4900000000000001E-12, 8.3000000000000014E-12, , , , 
DataValue, 0.4, 0.25, 1.4900000000000001E-12, 6.4800000000000007E-12, , , , 
DataValue, 0.44, 0.25, 6.8E-13, 7.73E-12, , , , 
DataValue, 0.48, 0.25, 1.8900000000000002E-12, 8.14E-12, , , , 
DataValue, 0.52, 0.25, 1.17E-12, 9.1000000000000012E-12, , , , 
DataValue, 0.56, 0.25, 1.86E-12, 8.9800000000000009E-12, , , , 
DataValue, 0.6, 0.25, 1.4900000000000001E-12, 7.92E-12, , , , 
DataValue, 0.64, 0.25, 1.5400000000000001E-12, 8.45E-12, , , , 
DataValue, 0.68, 0.25, 1.0600000000000001E-12, 9.3000000000000012E-12, , , , 
DataValue, 0.72, 0.25, 1.5800000000000001E-12, 9.26E-12, , , , 
DataValue, 0.76, 0.25, 1.86E-12, 8.03E-12, , , , 
DataValue, 0.8, 0.25, 9.2000000000000012E-13, 7.55E-12, , , , 
DataValue, 0.84, 0.25, 1.79E-12, 9.4000000000000011E-12, , , , 
DataValue, 0.88, 0.25, 1.7500000000000002E-12, 1.0710000000000001E-11, , , , 
DataValue, 0.92, 0.25, 2.0700000000000003E-12, 9.65E-12, , , , 
DataValue, 0.96, 0.25, 1.88E-12, 9.04E-12, , , , 
DataValue, 1, 0.25, 1.17E-12, 9.2800000000000008E-12, , , , 
DataValue, 1.04, 0.25, 2.24E-12, 1.026E-11, , , , 
DataValue, 1.08, 0.25, 1.8100000000000002E-12, 1.1420000000000001E-11, , , , 
DataValue, 1.12, 0.25, 2.11E-12, 1.0420000000000001E-11, , , , 
DataValue, 1.16, 0.25, 1.2900000000000002E-12, 1.0640000000000002E-11, , , , 
DataValue, 1.2, 0.25, 1.6300000000000001E-12, 1.2860000000000001E-11, , , , 
DataValue, 1.24, 0.25, 2.0700000000000003E-12, 1.4610000000000002E-11, , , , 
DataValue, 1.28, 0.25, 1.98E-12, 1.464E-11, , , , 
DataValue, 1.32, 0.25, 2.44E-12, 1.4270000000000001E-11, , , , 
DataValue, 1.36, 0.25, 1.8400000000000002E-12, 1.606E-11, , , , 
DataValue, 1.4000000000000001, 0.25, 2.36E-12, 1.8910000000000002E-11, , , , 
DataValue, 1.44, 0.25, 1.51E-12, 2.101E-11, , , , 
DataValue, 1.48, 0.25, 2.2200000000000002E-12, 2.2240000000000002E-11, , , , 
DataValue, 1.52, 0.25, 1.4900000000000001E-12, 2.3430000000000003E-11, , , , 
DataValue, 1.56, 0.25, 1.4700000000000002E-12, 2.8200000000000003E-11, , , , 
DataValue, 1.6, 0.25, 1.6200000000000002E-12, 3.2570000000000004E-11, , , , 
DataValue, 1.6400000000000001, 0.25, 1.9E-12, 3.6470000000000004E-11, , , , 
DataValue, 1.68, 0.25, 2.16E-12, 4.039E-11, , , , 
DataValue, 1.72, 0.25, 1.5800000000000001E-12, 4.5950000000000007E-11, , , , 
DataValue, 1.76, 0.25, 2.21E-12, 5.5260000000000005E-11, , , , 
DataValue, 1.8, 0.25, 1.96E-12, 6.4560000000000008E-11, , , , 
DataValue, 1.84, 0.25, 2.11E-12, 7.359E-11, , , , 
DataValue, 1.8800000000000001, 0.25, 2.51E-12, 8.5570000000000008E-11, , , , 
DataValue, 1.92, 0.25, 1.55E-12, 9.9580000000000007E-11, , , , 
DataValue, 1.96, 0.25, 2.18E-12, 1.1967E-10, , , , 
DataValue, 2, 0.25, 2.19E-12, 1.4247E-10, , , , 
DataValue, 2.04, 0.25, 2.54E-12, 1.6893E-10, , , , 
DataValue, 2.08, 0.25, 3.0300000000000002E-12, 1.9996000000000003E-10, , , , 
DataValue, 2.12, 0.25, 2.54E-12, 2.3888E-10, , , , 
DataValue, 2.16, 0.25, 3.02E-12, 2.8763E-10, , , , 
DataValue, 2.2, 0.25, 2.74E-12, 3.4671000000000004E-10, , , , 
DataValue, 2.24, 0.25, 2.8600000000000003E-12, 4.1608E-10, , , , 
DataValue, 2.2800000000000002, 0.25, 2.46E-12, 5.0157000000000006E-10, , , , 
DataValue, 2.32, 0.25, 2.1000000000000003E-12, 6.0798E-10, , , , 
DataValue, 2.36, 0.25, 2.52E-12, 7.414E-10, , , , 
DataValue, 2.4, 0.25, 3.2700000000000004E-12, 9.0282000000000009E-10, , , , 
DataValue, 2.44, 0.25, 3.38E-12, 1.1000500000000002E-09, , , , 
DataValue, 2.48, 0.25, 2.6000000000000002E-12, 1.5303E-09, , , , 
DataValue, 2.52, 0.25, 2.06E-12, 1.8507E-09, , , , 
DataValue, 2.56, 0.25, 2.74E-12, 2.2502E-09, , , , 
DataValue, 2.6, 0.25, 2.9400000000000004E-12, 2.7468E-09, , , , 
DataValue, 2.64, 0.25, 3.4700000000000004E-12, 3.3636E-09, , , , 
DataValue, 2.68, 0.25, 2.03E-12, 4.1316E-09, , , , 
DataValue, 2.72, 0.25, 2.44E-12, 5.0894E-09, , , , 
DataValue, 2.7600000000000002, 0.25, 2.44E-12, 6.2808E-09, , , , 
DataValue, 2.8000000000000003, 0.25, 2.9900000000000004E-12, 7.7749E-09, , , , 
DataValue, 2.84, 0.25, 2.9400000000000004E-12, 9.6479E-09, , , , 
DataValue, 2.88, 0.25, 3.18E-12, 1.3453799999999998E-08, , , , 
DataValue, 2.92, 0.25, 2.26E-12, 1.6749199999999998E-08, , , , 
DataValue, 2.96, 0.25, 2.6100000000000004E-12, 2.0905799999999998E-08, , , , 
DataValue, 3, 0.25, 3.8400000000000006E-12, 2.6090199999999998E-08, , , , 
DataValue, 3.04, 0.25, 3.6200000000000003E-12, 3.26088E-08, , , , 
DataValue, 3.08, 0.25, 3.72E-12, 4.06882E-08, , , , 
DataValue, 3.12, 0.25, 2.9800000000000002E-12, 5.0859199999999997E-08, , , , 
DataValue, 3.16, 0.25, 2.9100000000000003E-12, 6.33596E-08, , , , 
DataValue, 3.2, 0.25, 3.46E-12, 7.8611799999999992E-08, , , , 
DataValue, 3.24, 0.25, 3.4500000000000004E-12, 9.7518599999999993E-08, , , , 
DataValue, 3.2800000000000002, 0.25, 3.2900000000000003E-12, 1.2568E-07, , , , 
DataValue, 3.3200000000000003, 0.25, 3.1200000000000004E-12, 1.5142E-07, , , , 
DataValue, 3.36, 0.25, 3.8800000000000004E-12, 1.8228E-07, , , , 
DataValue, 3.4, 0.25, 3.35E-12, 2.191E-07, , , , 
DataValue, 3.44, 0.25, 3.7400000000000006E-12, 2.6414E-07, , , , 
DataValue, 3.48, 0.25, 3.3400000000000003E-12, 3.1508E-07, , , , 
DataValue, 3.52, 0.25, 3.7900000000000006E-12, 3.7502E-07, , , , 
DataValue, 3.56, 0.25, 3.3900000000000003E-12, 4.4466E-07, , , , 
DataValue, 3.6, 0.25, 4.23E-12, 5.2326E-07, , , , 
DataValue, 3.64, 0.25, 3.8300000000000004E-12, 6.1348E-07, , , , 
DataValue, 3.68, 0.25, 3.6800000000000005E-12, 7.1812E-07, , , , 
DataValue, 3.72, 0.25, 3.51E-12, 8.3772E-07, , , , 
DataValue, 3.7600000000000002, 0.25, 3.67E-12, 9.724E-07, , , , 
DataValue, 3.8000000000000003, 0.25, 4.13E-12, 1.12374E-06, , , , 
DataValue, 3.84, 0.25, 4.22E-12, 1.4371000000000002E-06, , , , 
DataValue, 3.88, 0.25, 3.9900000000000006E-12, 1.6260000000000002E-06, , , , 
DataValue, 3.92, 0.25, 4.1000000000000007E-12, 1.8351000000000002E-06, , , , 
DataValue, 3.96, 0.25, 4.46E-12, 2.0645000000000003E-06, , , , 
DataValue, 4, 0.25, 4.16E-12, 2.3159E-06, , , , 
DataValue, 4.04, 0.25, 4.3400000000000005E-12, 2.5879000000000002E-06, , , , 
DataValue, 4.08, 0.25, 3.97E-12, 2.8854000000000004E-06, , , , 
DataValue, 4.12, 0.25, 4.6900000000000004E-12, 3.1958000000000004E-06, , , , 
DataValue, 4.16, 0.25, 4.46E-12, 3.5362000000000005E-06, , , , 
DataValue, 4.2, 0.25, 4.13E-12, 3.8983000000000004E-06, , , , 
DataValue, 4.24, 0.25, 4.37E-12, 4.2766000000000007E-06, , , , 
DataValue, 4.28, 0.25, 4.6900000000000004E-12, 4.6847E-06, , , , 
DataValue, 4.32, 0.25, 4.42E-12, 5.1162E-06, , , , 
DataValue, 4.36, 0.25, 5.04E-12, 5.5700000000000009E-06, , , , 
DataValue, 4.4, 0.25, 5.1500000000000005E-12, 6.044800000000001E-06, , , , 
DataValue, 4.44, 0.25, 4.6600000000000007E-12, 6.5499000000000006E-06, , , , 
DataValue, 4.48, 0.25, 4.37E-12, 7.069E-06, , , , 
DataValue, 4.5200000000000005, 0.25, 4.8100000000000007E-12, 7.6090000000000012E-06, , , , 
DataValue, 4.5600000000000005, 0.25, 4.92E-12, 8.1679E-06, , , , 
DataValue, 4.6000000000000005, 0.25, 4.94E-12, 8.7483E-06, , , , 
DataValue, 4.64, 0.25, 4.74E-12, 9.3479E-06, , , , 
DataValue, 4.68, 0.25, 4.83E-12, 9.9666E-06, , , , 
DataValue, 4.72, 0.25, 4.9600000000000007E-12, 1.0600800000000002E-05, , , , 
DataValue, 4.76, 0.25, 5.3700000000000007E-12, 1.1252600000000001E-05, , , , 
DataValue, 4.8, 0.25, 4.74E-12, 1.235E-05, , , , 
DataValue, 4.84, 0.25, 5.1200000000000008E-12, 1.3002E-05, , , , 
DataValue, 4.88, 0.25, 5.1500000000000005E-12, 1.3676000000000001E-05, , , , 
DataValue, 4.92, 0.25, 5.4700000000000007E-12, 1.4364E-05, , , , 
DataValue, 4.96, 0.25, 5.9100000000000005E-12, 1.5066000000000001E-05, , , , 
DataValue, 5, 0.25, 4.72E-12, 1.5786E-05, , , , 
DataValue, 5.04, 0.25, 5.55E-12, 1.652E-05, , , , 
DataValue, 5.08, 0.25, 5.94E-12, 1.7274E-05, , , , 
DataValue, 5.12, 0.25, 5.75E-12, 1.8030000000000002E-05, , , , 
DataValue, 5.16, 0.25, 5.6E-12, 1.881E-05, , , , 
DataValue, 5.2, 0.25, 6.3400000000000009E-12, 1.9594E-05, , , , 
DataValue, 5.24, 0.25, 5.5E-12, 2.0392E-05, , , , 
DataValue, 5.28, 0.25, 5.4500000000000004E-12, 2.1184E-05, , , , 
DataValue, 5.32, 0.25, 5.7300000000000008E-12, 2.2E-05, , , , 
DataValue, 5.36, 0.25, 6.0800000000000008E-12, 2.2824E-05, , , , 
DataValue, 5.4, 0.25, 6.1E-12, 2.3658E-05, , , , 
DataValue, 5.44, 0.25, 6.3E-12, 2.4498E-05, , , , 
DataValue, 5.48, 0.25, 6.5400000000000008E-12, 2.5354E-05, , , , 
DataValue, 5.5200000000000005, 0.25, 5.9700000000000006E-12, 2.6222E-05, , , , 
DataValue, 5.5600000000000005, 0.25, 6.5800000000000006E-12, 2.711E-05, , , , 
DataValue, 5.6000000000000005, 0.25, 6.6800000000000006E-12, 2.7978000000000002E-05, , , , 
DataValue, 5.64, 0.25, 6.3800000000000007E-12, 2.8852E-05, , , , 
DataValue, 5.68, 0.25, 6.2200000000000006E-12, 2.973E-05, , , , 
DataValue, 5.72, 0.25, 6.61E-12, 3.0606E-05, , , , 
DataValue, 5.76, 0.25, 6.3700000000000005E-12, 3.1488E-05, , , , 
DataValue, 5.8, 0.25, 6.6400000000000008E-12, 3.2364000000000004E-05, , , , 
DataValue, 5.84, 0.25, 6.41E-12, 3.325E-05, , , , 
DataValue, 5.88, 0.25, 7.42E-12, 3.4128E-05, , , , 
DataValue, 5.92, 0.25, 6.3400000000000009E-12, 3.5008E-05, , , , 
DataValue, 5.96, 0.25, 7.11E-12, 3.5882E-05, , , , 
DataValue, 6, 0.25, 7.2300000000000005E-12, 3.676E-05, , , , 
DataValue, 6, 0.25, 6.9900000000000007E-12, 3.6902E-05, , , , 
DataValue, 5.96, 0.25, 5.94E-12, 3.7550000000000005E-05, , , , 
DataValue, 5.92, 0.25, 5.6600000000000005E-12, 3.8088E-05, , , , 
DataValue, 5.88, 0.25, 5.02E-12, 3.853E-05, , , , 
DataValue, 5.84, 0.25, 5.6700000000000007E-12, 3.8886E-05, , , , 
DataValue, 5.8, 0.25, 4.62E-12, 3.9172000000000004E-05, , , , 
DataValue, 5.76, 0.25, 3.7300000000000005E-12, 3.9396E-05, , , , 
DataValue, 5.72, 0.25, 4.2500000000000007E-12, 3.9562E-05, , , , 
DataValue, 5.68, 0.25, 3.92E-12, 3.9676000000000004E-05, , , , 
