
SetupTitle, ID-VG Postbreak
PrimitiveTest, I/V Sweep
TestParameter, Context.MainFrame, B1500A
TestParameter, Channel.UnitType, SMU, SMU
TestParameter, Channel.Unit, SMU1:MP, SMU2:MP
TestParameter, Channel.IName, I1, I2
TestParameter, Channel.VName, V1, V2
TestParameter, Channel.Mode, V, V
TestParameter, Channel.Func, VAR1, CONST
TestParameter, Channel.Index, 
TestParameter, Channel.Time, 
TestParameter, Measurement.Port.Unit, SMU1:MP, SMU2:MP
TestParameter, Measurement.Port.SeriesResistor, NONE, NONE
TestParameter, Measurement.Port.Filter, ON, ON
TestParameter, Measurement.Port.OutputVoltageComparison, 0, 0
TestParameter, Measurement.Primary.Locus, Double
TestParameter, Measurement.Primary.Scale, LINEAR
TestParameter, Measurement.Primary.Start, -2
TestParameter, Measurement.Primary.Stop, 6
TestParameter, Measurement.Primary.Step, 0.04
TestParameter, Measurement.Primary.Compliance, 0.1
TestParameter, Measurement.Primary.PowerCompliance, 0
TestParameter, Measurement.Aborting.Condition, CONTINUE AT ANY
TestParameter, Measurement.PostOutput.Value, START
TestParameter, Measurement.PostOutput.Retention, OFF
TestParameter, Measurement.Bias.Source, -2, 0.25
TestParameter, Measurement.Bias.Compliance, 0.1, 0.1
TestParameter, Measurement.Monitor.Unit, SMU1:MP, SMU2:MP
TestParameter, Measurement.Monitor.Adc, HR ADC, HR ADC
TestParameter, Measurement.Monitor.Measurement, Compliance Side, Compliance Side
TestParameter, Measurement.Monitor.RangingMode, LIMITED, LIMITED
TestParameter, Measurement.Monitor.RangeBoundary, 1nA, 1nA
TestParameter, Measurement.Monitor.RangeRating, BY FULL RANGE, BY FULL RANGE
TestParameter, Measurement.Monitor.RangeRatingCoeff, 50, 50
TestParameter, Measurement.Timing.Hold, 0
TestParameter, Measurement.Timing.Delay, 0
TestParameter, Measurement.Adc.HighSpeed.Mode, AUTO
TestParameter, Measurement.Adc.HighSpeed.Coeff, 1
TestParameter, Measurement.Adc.HighResolution.AutoZero, OFF
TestParameter, Measurement.Adc.HighResolution.Mode, AUTO
TestParameter, Measurement.Adc.HighResolution.Coeff, 6
TestParameter, Measurement.WaitTime.Source.Coeff, 1
TestParameter, Measurement.WaitTime.Source.Offset, 0
TestParameter, Measurement.WaitTime.Monitor.Coeff, 1
TestParameter, Measurement.WaitTime.Monitor.Offset, 0
TestParameter, Output.Graph.Enabled, true
TestParameter, Output.Graph.AutoScaling, false
TestParameter, Output.Graph.XAxis.Data, V1
TestParameter, Output.Graph.XAxis.Scale, Linear
TestParameter, Output.Graph.XAxis.Left, -2
TestParameter, Output.Graph.XAxis.Right, 6
TestParameter, Output.Graph.XAxis.RunTimeAutoScale, true
TestParameter, Output.Graph.YAxis.Data, I2
TestParameter, Output.Graph.YAxis.Scale, Linear
TestParameter, Output.Graph.YAxis.Bottom, -0.1
TestParameter, Output.Graph.YAxis.Top, 0.1
TestParameter, Output.Graph.YAxis.Group, 
TestParameter, Output.Graph.YAxis.RunTimeAutoScale, true
TestParameter, Output.List.Data, V1, I1, V2, I2, V3, I3, V4, I4
TestParameter, AutoAnalysis.Interpolation, false
TestParameter, AutoAnalysis.Line1.Enabled, false
TestParameter, AutoAnalysis.Line1.Type, 1
TestParameter, AutoAnalysis.Line1.Fix, True
TestParameter, AutoAnalysis.Line1.YAxis, 0
TestParameter, AutoAnalysis.Line1.Point1.Type, 0
TestParameter, AutoAnalysis.Line1.Point1.XY.X, 
TestParameter, AutoAnalysis.Line1.Point1.XY.Y, 
TestParameter, AutoAnalysis.Line1.Point1.Data.Var, 
TestParameter, AutoAnalysis.Line1.Point1.Data.Condition, 
TestParameter, AutoAnalysis.Line1.Point1.Data.Start, false
TestParameter, AutoAnalysis.Line1.Point1.Data.StartVar, 
TestParameter, AutoAnalysis.Line1.Point1.Data.StartCondition, 
TestParameter, AutoAnalysis.Line1.Point2.Type, 0
TestParameter, AutoAnalysis.Line1.Point2.XY.X, 
TestParameter, AutoAnalysis.Line1.Point2.XY.Y, 
TestParameter, AutoAnalysis.Line1.Point2.Data.Var, 
TestParameter, AutoAnalysis.Line1.Point2.Data.Condition, 
TestParameter, AutoAnalysis.Line1.Point2.Data.Start, false
TestParameter, AutoAnalysis.Line1.Point2.Data.StartVar, 
TestParameter, AutoAnalysis.Line1.Point2.Data.StartCondition, 
TestParameter, AutoAnalysis.Line1.GradientExpr, 0
TestParameter, AutoAnalysis.Line2.Enabled, false
TestParameter, AutoAnalysis.Line2.Type, 1
TestParameter, AutoAnalysis.Line2.Fix, True
TestParameter, AutoAnalysis.Line2.YAxis, 0
TestParameter, AutoAnalysis.Line2.Point1.Type, 0
TestParameter, AutoAnalysis.Line2.Point1.XY.X, 
TestParameter, AutoAnalysis.Line2.Point1.XY.Y, 
TestParameter, AutoAnalysis.Line2.Point1.Data.Var, 
TestParameter, AutoAnalysis.Line2.Point1.Data.Condition, 
TestParameter, AutoAnalysis.Line2.Point1.Data.Start, false
TestParameter, AutoAnalysis.Line2.Point1.Data.StartVar, 
TestParameter, AutoAnalysis.Line2.Point1.Data.StartCondition, 
TestParameter, AutoAnalysis.Line2.Point2.Type, 0
TestParameter, AutoAnalysis.Line2.Point2.XY.X, 
TestParameter, AutoAnalysis.Line2.Point2.XY.Y, 
TestParameter, AutoAnalysis.Line2.Point2.Data.Var, 
TestParameter, AutoAnalysis.Line2.Point2.Data.Condition, 
TestParameter, AutoAnalysis.Line2.Point2.Data.Start, false
TestParameter, AutoAnalysis.Line2.Point2.Data.StartVar, 
TestParameter, AutoAnalysis.Line2.Point2.Data.StartCondition, 
TestParameter, AutoAnalysis.Line2.GradientExpr, 0
TestParameter, AutoAnalysis.Marker.Enabled, false
TestParameter, AutoAnalysis.Marker.Data.Var, 
TestParameter, AutoAnalysis.Marker.Data.Condition, 
TestParameter, AutoAnalysis.Marker.Data.Start, false
TestParameter, AutoAnalysis.Marker.Data.StartVar, 
TestParameter, AutoAnalysis.Marker.Data.StartCondition, 
MetaData, TestRecord.EntryPoint, true
MetaData, TestRecord.RecordTime, 03/10/2023 17:28:33
MetaData, TestRecord.TestTarget, 
MetaData, TestRecord.IterationIndex, 66
MetaData, TestRecord.Preservation, true
MetaData, TestRecord.Flag, 
MetaData, TestRecord.Remarks, 
MetaData, TestRecord.LinkKey, 598d5134-e8ff-4139-87bf-08294a74b216
Dimension1, 402, 402, 402, 402, 402, 402, 402, 402
Dimension2, 1, 1, 1, 1, 1, 1, 1, 1
DataName, V1, V2, I1, I2, V3, I3, V4, I4
DataValue, -2, 0.25, -4.93E-12, 1.5E-12, , , , 
DataValue, -1.96, 0.25, -2.57E-12, -2E-13, , , , 
DataValue, -1.92, 0.25, -2.6000000000000002E-12, 2.29E-12, , , , 
DataValue, -1.8800000000000001, 0.25, -1.51E-12, 3.71E-12, , , , 
DataValue, -1.84, 0.25, -1.64E-12, 1.96E-12, , , , 
DataValue, -1.8, 0.25, -1.37E-12, -2.0000000000000003E-14, , , , 
DataValue, -1.76, 0.25, -1.6100000000000002E-12, 5E-14, , , , 
DataValue, -1.72, 0.25, -8.6000000000000007E-13, 2.85E-12, , , , 
DataValue, -1.68, 0.25, -5.9E-13, 3.81E-12, , , , 
DataValue, -1.6400000000000001, 0.25, -1.7E-13, 1.3500000000000001E-12, , , , 
DataValue, -1.6, 0.25, -9.8E-13, -9.0000000000000008E-14, , , , 
DataValue, -1.56, 0.25, -1.1000000000000002E-12, 2.29E-12, , , , 
DataValue, -1.52, 0.25, -1E-13, 3.0100000000000003E-12, , , , 
DataValue, -1.48, 0.25, -1.21E-12, 1.9700000000000003E-12, , , , 
DataValue, -1.44, 0.25, -3.7000000000000004E-13, -1.2000000000000002E-13, , , , 
DataValue, -1.4000000000000001, 0.25, -1.08E-12, 2.0000000000000003E-14, , , , 
DataValue, -1.36, 0.25, -1.5000000000000002E-13, 2.72E-12, , , , 
DataValue, -1.32, 0.25, -2.5E-13, 3.77E-12, , , , 
DataValue, -1.28, 0.25, 2.0000000000000003E-14, 1.1000000000000002E-12, , , , 
DataValue, -1.24, 0.25, -2.0000000000000003E-14, -5.7E-13, , , , 
DataValue, -1.2, 0.25, -6.3E-13, 1.5600000000000002E-12, , , , 
DataValue, -1.16, 0.25, 4.1E-13, 3.87E-12, , , , 
DataValue, -1.12, 0.25, -1.9000000000000002E-13, 2.5300000000000003E-12, , , , 
DataValue, -1.08, 0.25, 1.9000000000000002E-13, 6.6E-13, , , , 
DataValue, -1.04, 0.25, 1.5000000000000002E-13, -2.3000000000000003E-13, , , , 
DataValue, -1, 0.25, 2.3000000000000003E-13, 2.44E-12, , , , 
DataValue, -0.96, 0.25, 3.8000000000000005E-13, 3.07E-12, , , , 
DataValue, -0.92, 0.25, 7E-13, 1.22E-12, , , , 
DataValue, -0.88, 0.25, 2.6E-13, -2.7E-13, , , , 
DataValue, -0.84, 0.25, 0, 1.64E-12, , , , 
DataValue, -0.8, 0.25, 8.300000000000001E-13, 3.4900000000000003E-12, , , , 
DataValue, -0.76, 0.25, 4E-13, 1.83E-12, , , , 
DataValue, -0.72, 0.25, 7.5E-13, -1.5000000000000002E-13, , , , 
DataValue, -0.68, 0.25, 2.6E-13, -9.8E-13, , , , 
DataValue, -0.64, 0.25, 7.4000000000000008E-13, 2.06E-12, , , , 
DataValue, -0.6, 0.25, 9.3E-13, 3.4900000000000003E-12, , , , 
DataValue, -0.56, 0.25, 7.2000000000000006E-13, 8.8000000000000009E-13, , , , 
DataValue, -0.52, 0.25, 6.3E-13, -8.6000000000000007E-13, , , , 
DataValue, -0.48, 0.25, 5E-14, 8.6000000000000007E-13, , , , 
DataValue, -0.44, 0.25, 1.1100000000000001E-12, 3.3600000000000002E-12, , , , 
DataValue, -0.4, 0.25, 1.1600000000000001E-12, 3.1100000000000003E-12, , , , 
DataValue, -0.36, 0.25, 9.3E-13, 6.3E-13, , , , 
DataValue, -0.32, 0.25, 8.6000000000000007E-13, -4.6000000000000006E-13, , , , 
DataValue, -0.28, 0.25, 8E-13, 2.69E-12, , , , 
DataValue, -0.24, 0.25, 1.26E-12, 3.82E-12, , , , 
DataValue, -0.2, 0.25, 1.12E-12, 1.79E-12, , , , 
DataValue, -0.16, 0.25, 1.36E-12, 2E-13, , , , 
DataValue, -0.12, 0.25, 3.1000000000000004E-13, -2.7E-13, , , , 
DataValue, -0.08, 0.25, 1.03E-12, 2.3800000000000004E-12, , , , 
DataValue, -0.04, 0.25, 7.9000000000000007E-13, 3.3200000000000004E-12, , , , 
DataValue, 0, 0.25, 1.09E-12, 1.6700000000000002E-12, , , , 
DataValue, 0.04, 0.25, 1.17E-12, 3.0000000000000005E-14, , , , 
DataValue, 0.08, 0.25, 3.5E-13, 9.9E-13, , , , 
DataValue, 0.12, 0.25, 1.6800000000000001E-12, 3.2600000000000002E-12, , , , 
DataValue, 0.16, 0.25, 1.03E-12, 2.14E-12, , , , 
DataValue, 0.2, 0.25, 1.1500000000000002E-12, -2.1000000000000001E-13, , , , 
DataValue, 0.24, 0.25, 1.23E-12, -1.4E-13, , , , 
DataValue, 0.28, 0.25, 1.22E-12, 3.0600000000000003E-12, , , , 
DataValue, 0.32, 0.25, 9.7000000000000011E-13, 3.97E-12, , , , 
DataValue, 0.36, 0.25, 1.73E-12, 8.300000000000001E-13, , , , 
DataValue, 0.4, 0.25, 1.2400000000000002E-12, 1.3E-13, , , , 
DataValue, 0.44, 0.25, 7.4000000000000008E-13, 2.11E-12, , , , 
DataValue, 0.48, 0.25, 1.4700000000000002E-12, 4.4500000000000006E-12, , , , 
DataValue, 0.52, 0.25, 1.1000000000000002E-12, 3.5400000000000003E-12, , , , 
DataValue, 0.56, 0.25, 1.45E-12, 2.09E-12, , , , 
DataValue, 0.6, 0.25, 9.1000000000000016E-13, 1.8200000000000003E-12, , , , 
DataValue, 0.64, 0.25, 1.03E-12, 5.2500000000000004E-12, , , , 
DataValue, 0.68, 0.25, 1.7100000000000002E-12, 7.34E-12, , , , 
DataValue, 0.72, 0.25, 1.4900000000000001E-12, 8.2700000000000009E-12, , , , 
DataValue, 0.76, 0.25, 1.23E-12, 7.8800000000000012E-12, , , , 
DataValue, 0.8, 0.25, 4E-13, 1.3E-11, , , , 
DataValue, 0.84, 0.25, 1.12E-12, 1.967E-11, , , , 
DataValue, 0.88, 0.25, 1.17E-12, 2.6590000000000002E-11, , , , 
DataValue, 0.92, 0.25, 1.6600000000000002E-12, 3.3E-11, , , , 
DataValue, 0.96, 0.25, 1.22E-12, 4.37E-11, , , , 
DataValue, 1, 0.25, 4.8000000000000008E-13, 6.042000000000001E-11, , , , 
DataValue, 1.04, 0.25, 2.1200000000000003E-12, 8.382E-11, , , , 
DataValue, 1.08, 0.25, 1.8000000000000002E-12, 1.1144E-10, , , , 
DataValue, 1.12, 0.25, 1.8000000000000002E-12, 1.4779000000000001E-10, , , , 
DataValue, 1.16, 0.25, 9.3E-13, 1.9928E-10, , , , 
DataValue, 1.2, 0.25, 1.5400000000000001E-12, 2.7243E-10, , , , 
DataValue, 1.24, 0.25, 1.59E-12, 3.6607E-10, , , , 
DataValue, 1.28, 0.25, 1.36E-12, 4.8958000000000008E-10, , , , 
DataValue, 1.32, 0.25, 2.3000000000000003E-12, 6.578E-10, , , , 
DataValue, 1.36, 0.25, 9.4E-13, 8.807400000000001E-10, , , , 
DataValue, 1.4000000000000001, 0.25, 1.14E-12, 1.3968E-09, , , , 
DataValue, 1.44, 0.25, 1.1900000000000002E-12, 1.8077E-09, , , , 
DataValue, 1.48, 0.25, 1.3000000000000001E-12, 2.3711E-09, , , , 
DataValue, 1.52, 0.25, 1.26E-12, 3.13E-09, , , , 
DataValue, 1.56, 0.25, 2.6600000000000004E-12, 4.1377E-09, , , , 
DataValue, 1.6, 0.25, 1.13E-12, 5.4492E-09, , , , 
DataValue, 1.6400000000000001, 0.25, 1.9400000000000002E-12, 7.1756E-09, , , , 
DataValue, 1.68, 0.25, 1.3900000000000001E-12, 9.4029E-09, , , , 
DataValue, 1.72, 0.25, 2.01E-12, 1.3029999999999998E-08, , , , 
DataValue, 1.76, 0.25, 1.98E-12, 1.6847599999999998E-08, , , , 
DataValue, 1.8, 0.25, 1.23E-12, 2.1776199999999997E-08, , , , 
DataValue, 1.84, 0.25, 1.6800000000000001E-12, 2.79574E-08, , , , 
DataValue, 1.8800000000000001, 0.25, 2.59E-12, 3.56708E-08, , , , 
DataValue, 1.92, 0.25, 2.2200000000000002E-12, 4.5285199999999996E-08, , , , 
DataValue, 1.96, 0.25, 1.7500000000000002E-12, 5.7101399999999991E-08, , , , 
DataValue, 2, 0.25, 1.2400000000000002E-12, 7.13428E-08, , , , 
DataValue, 2.04, 0.25, 2E-12, 8.8254999999999992E-08, , , , 
DataValue, 2.08, 0.25, 1.3900000000000001E-12, 1.0817899999999999E-07, , , , 
DataValue, 2.12, 0.25, 2.64E-12, 1.3106E-07, , , , 
DataValue, 2.16, 0.25, 2.1500000000000003E-12, 1.5658E-07, , , , 
DataValue, 2.2, 0.25, 2.04E-12, 1.8614E-07, , , , 
DataValue, 2.24, 0.25, 2.14E-12, 2.1999999999999999E-07, , , , 
DataValue, 2.2800000000000002, 0.25, 2.11E-12, 2.5878E-07, , , , 
DataValue, 2.32, 0.25, 1.9900000000000002E-12, 3.0144E-07, , , , 
DataValue, 2.36, 0.25, 2.1000000000000003E-12, 3.4918E-07, , , , 
DataValue, 2.4, 0.25, 2.3500000000000003E-12, 4.0255999999999997E-07, , , , 
DataValue, 2.44, 0.25, 2.06E-12, 4.6216E-07, , , , 
DataValue, 2.48, 0.25, 1.5800000000000001E-12, 5.2769999999999994E-07, , , , 
DataValue, 2.52, 0.25, 2.01E-12, 5.989E-07, , , , 
DataValue, 2.56, 0.25, 1.5200000000000002E-12, 6.758E-07, , , , 
DataValue, 2.6, 0.25, 1.5200000000000002E-12, 7.5882E-07, , , , 
DataValue, 2.64, 0.25, 2.1500000000000003E-12, 8.4782E-07, , , , 
DataValue, 2.68, 0.25, 2.4500000000000003E-12, 9.4332E-07, , , , 
DataValue, 2.72, 0.25, 2.2000000000000003E-12, 1.04504E-06, , , , 
DataValue, 2.7600000000000002, 0.25, 2.79E-12, 1.1793E-06, , , , 
DataValue, 2.8000000000000003, 0.25, 2.36E-12, 1.2901000000000002E-06, , , , 
DataValue, 2.84, 0.25, 2.6600000000000004E-12, 1.4074E-06, , , , 
DataValue, 2.88, 0.25, 2.09E-12, 1.5312E-06, , , , 
DataValue, 2.92, 0.25, 2.2500000000000003E-12, 1.6608000000000003E-06, , , , 
DataValue, 2.96, 0.25, 2.2200000000000002E-12, 1.7957000000000002E-06, , , , 
DataValue, 3, 0.25, 2.26E-12, 1.9359000000000004E-06, , , , 
DataValue, 3.04, 0.25, 2.82E-12, 2.0814E-06, , , , 
DataValue, 3.08, 0.25, 2.13E-12, 2.2303E-06, , , , 
DataValue, 3.12, 0.25, 2.3500000000000003E-12, 2.3868E-06, , , , 
DataValue, 3.16, 0.25, 2.97E-12, 2.5436E-06, , , , 
DataValue, 3.2, 0.25, 1.83E-12, 2.7068E-06, , , , 
DataValue, 3.24, 0.25, 2.95E-12, 2.8727000000000005E-06, , , , 
DataValue, 3.2800000000000002, 0.25, 2.52E-12, 3.0413000000000004E-06, , , , 
DataValue, 3.3200000000000003, 0.25, 2.37E-12, 3.2132000000000004E-06, , , , 
DataValue, 3.36, 0.25, 2.31E-12, 3.3886000000000005E-06, , , , 
DataValue, 3.4, 0.25, 2.2500000000000003E-12, 3.5659000000000005E-06, , , , 
DataValue, 3.44, 0.25, 2.77E-12, 3.7488000000000004E-06, , , , 
DataValue, 3.48, 0.25, 3E-12, 3.9305000000000007E-06, , , , 
DataValue, 3.52, 0.25, 2.39E-12, 4.1149E-06, , , , 
DataValue, 3.56, 0.25, 1.7100000000000002E-12, 4.3E-06, , , , 
DataValue, 3.6, 0.25, 2.8900000000000004E-12, 4.4872000000000008E-06, , , , 
DataValue, 3.64, 0.25, 3.1200000000000004E-12, 4.6736000000000005E-06, , , , 
DataValue, 3.68, 0.25, 3.15E-12, 4.8628E-06, , , , 
DataValue, 3.72, 0.25, 3.1100000000000003E-12, 5.0531000000000008E-06, , , , 
DataValue, 3.7600000000000002, 0.25, 1.83E-12, 5.2430000000000005E-06, , , , 
DataValue, 3.8000000000000003, 0.25, 3.0300000000000002E-12, 5.4352000000000009E-06, , , , 
DataValue, 3.84, 0.25, 2.44E-12, 5.6310000000000008E-06, , , , 
DataValue, 3.88, 0.25, 2.28E-12, 5.8239E-06, , , , 
DataValue, 3.92, 0.25, 3.2100000000000003E-12, 6.0150000000000009E-06, , , , 
DataValue, 3.96, 0.25, 2.62E-12, 6.208200000000001E-06, , , , 
DataValue, 4, 0.25, 2.97E-12, 6.397100000000001E-06, , , , 
DataValue, 4.04, 0.25, 3.46E-12, 6.5875000000000009E-06, , , , 
DataValue, 4.08, 0.25, 2.8900000000000004E-12, 6.7748000000000008E-06, , , , 
DataValue, 4.12, 0.25, 3.23E-12, 6.964600000000001E-06, , , , 
DataValue, 4.16, 0.25, 3.6000000000000004E-12, 7.1510000000000007E-06, , , , 
DataValue, 4.2, 0.25, 2.67E-12, 7.3397000000000011E-06, , , , 
DataValue, 4.24, 0.25, 2.9400000000000004E-12, 7.5214000000000005E-06, , , , 
DataValue, 4.28, 0.25, 3.3600000000000002E-12, 7.7023E-06, , , , 
DataValue, 4.32, 0.25, 3.5400000000000003E-12, 7.8829E-06, , , , 
DataValue, 4.36, 0.25, 3.2600000000000002E-12, 8.062E-06, , , , 
DataValue, 4.4, 0.25, 3.6800000000000005E-12, 8.2434000000000014E-06, , , , 
DataValue, 4.44, 0.25, 3.25E-12, 8.4204000000000016E-06, , , , 
DataValue, 4.48, 0.25, 3.3700000000000004E-12, 8.5956000000000012E-06, , , , 
DataValue, 4.5200000000000005, 0.25, 3.7800000000000005E-12, 8.7673000000000016E-06, , , , 
DataValue, 4.5600000000000005, 0.25, 3.58E-12, 8.94E-06, , , , 
DataValue, 4.6000000000000005, 0.25, 3.97E-12, 9.111600000000001E-06, , , , 
DataValue, 4.64, 0.25, 3.5000000000000004E-12, 9.2797E-06, , , , 
DataValue, 4.68, 0.25, 2.9100000000000003E-12, 9.4456000000000015E-06, , , , 
DataValue, 4.72, 0.25, 2.97E-12, 9.6129E-06, , , , 
DataValue, 4.76, 0.25, 3.53E-12, 9.7722000000000011E-06, , , , 
DataValue, 4.8, 0.25, 3.95E-12, 9.932E-06, , , , 
DataValue, 4.84, 0.25, 3.9300000000000004E-12, 1.0087700000000002E-05, , , , 
DataValue, 4.88, 0.25, 2.82E-12, 1.02417E-05, , , , 
DataValue, 4.92, 0.25, 3.1900000000000003E-12, 1.0391400000000002E-05, , , , 
DataValue, 4.96, 0.25, 4.22E-12, 1.0541600000000001E-05, , , , 
DataValue, 5, 0.25, 4.22E-12, 1.0689400000000001E-05, , , , 
DataValue, 5.04, 0.25, 4.2000000000000007E-12, 1.0835500000000002E-05, , , , 
DataValue, 5.08, 0.25, 4.6500000000000006E-12, 1.09818E-05, , , , 
DataValue, 5.12, 0.25, 3.8E-12, 1.11249E-05, , , , 
DataValue, 5.16, 0.25, 3.72E-12, 1.1263500000000002E-05, , , , 
DataValue, 5.2, 0.25, 4.13E-12, 1.1400400000000002E-05, , , , 
DataValue, 5.24, 0.25, 4.0400000000000006E-12, 1.1606E-05, , , , 
DataValue, 5.28, 0.25, 4.13E-12, 1.1716000000000001E-05, , , , 
DataValue, 5.32, 0.25, 3.66E-12, 1.1828000000000001E-05, , , , 
DataValue, 5.36, 0.25, 3.8400000000000006E-12, 1.1946E-05, , , , 
DataValue, 5.4, 0.25, 4.99E-12, 1.2062E-05, , , , 
DataValue, 5.44, 0.25, 4.58E-12, 1.2178000000000001E-05, , , , 
DataValue, 5.48, 0.25, 5.1000000000000005E-12, 1.2296E-05, , , , 
DataValue, 5.5200000000000005, 0.25, 5.03E-12, 1.2412E-05, , , , 
DataValue, 5.5600000000000005, 0.25, 4.13E-12, 1.253E-05, , , , 
DataValue, 5.6000000000000005, 0.25, 4.4500000000000006E-12, 1.2646E-05, , , , 
DataValue, 5.64, 0.25, 4.9500000000000005E-12, 1.276E-05, , , , 
DataValue, 5.68, 0.25, 4.58E-12, 1.287E-05, , , , 
DataValue, 5.72, 0.25, 5.7700000000000007E-12, 1.2982E-05, , , , 
DataValue, 5.76, 0.25, 5.7300000000000008E-12, 1.3094E-05, , , , 
DataValue, 5.8, 0.25, 5.5600000000000005E-12, 1.321E-05, , , , 
DataValue, 5.84, 0.25, 5.23E-12, 1.3320000000000001E-05, , , , 
DataValue, 5.88, 0.25, 5.4200000000000007E-12, 1.3426E-05, , , , 
DataValue, 5.92, 0.25, 5.7600000000000005E-12, 1.3530000000000001E-05, , , , 
DataValue, 5.96, 0.25, 5.9700000000000006E-12, 1.3632000000000001E-05, , , , 
DataValue, 6, 0.25, 5.1600000000000006E-12, 1.3736E-05, , , , 
DataValue, 6, 0.25, 5.08E-12, 1.3748000000000001E-05, , , , 
DataValue, 5.96, 0.25, 4.51E-12, 1.3718E-05, , , , 
DataValue, 5.92, 0.25, 5.0500000000000005E-12, 1.3648E-05, , , , 
DataValue, 5.88, 0.25, 4.51E-12, 1.356E-05, , , , 
DataValue, 5.84, 0.25, 3.8900000000000006E-12, 1.3458E-05, , , , 
DataValue, 5.8, 0.25, 4.5400000000000004E-12, 1.3350000000000001E-05, , , , 
DataValue, 5.76, 0.25, 3.77E-12, 1.3234E-05, , , , 
DataValue, 5.72, 0.25, 2.8400000000000004E-12, 1.3114E-05, , , , 
DataValue, 5.68, 0.25, 2.8600000000000003E-12, 1.2990000000000001E-05, , , , 
DataValue, 5.64, 0.25, 3.5400000000000003E-12, 1.2864E-05, , , , 
