
SetupTitle, ID-VG Postbreak
PrimitiveTest, I/V Sweep
TestParameter, Context.MainFrame, B1500A
TestParameter, Channel.UnitType, SMU, SMU
TestParameter, Channel.Unit, SMU1:MP, SMU2:MP
TestParameter, Channel.IName, I1, I2
TestParameter, Channel.VName, V1, V2
TestParameter, Channel.Mode, V, V
TestParameter, Channel.Func, VAR1, CONST
TestParameter, Channel.Index, 
TestParameter, Channel.Time, 
TestParameter, Measurement.Port.Unit, SMU1:MP, SMU2:MP
TestParameter, Measurement.Port.SeriesResistor, NONE, NONE
TestParameter, Measurement.Port.Filter, ON, ON
TestParameter, Measurement.Port.OutputVoltageComparison, 0, 0
TestParameter, Measurement.Primary.Locus, Double
TestParameter, Measurement.Primary.Scale, LINEAR
TestParameter, Measurement.Primary.Start, -2
TestParameter, Measurement.Primary.Stop, 6
TestParameter, Measurement.Primary.Step, 0.04
TestParameter, Measurement.Primary.Compliance, 0.1
TestParameter, Measurement.Primary.PowerCompliance, 0
TestParameter, Measurement.Aborting.Condition, CONTINUE AT ANY
TestParameter, Measurement.PostOutput.Value, START
TestParameter, Measurement.PostOutput.Retention, OFF
TestParameter, Measurement.Bias.Source, -2, 0.25
TestParameter, Measurement.Bias.Compliance, 0.1, 0.1
TestParameter, Measurement.Monitor.Unit, SMU1:MP, SMU2:MP
TestParameter, Measurement.Monitor.Adc, HR ADC, HR ADC
TestParameter, Measurement.Monitor.Measurement, Compliance Side, Compliance Side
TestParameter, Measurement.Monitor.RangingMode, LIMITED, LIMITED
TestParameter, Measurement.Monitor.RangeBoundary, 1nA, 1nA
TestParameter, Measurement.Monitor.RangeRating, BY FULL RANGE, BY FULL RANGE
TestParameter, Measurement.Monitor.RangeRatingCoeff, 50, 50
TestParameter, Measurement.Timing.Hold, 0
TestParameter, Measurement.Timing.Delay, 0
TestParameter, Measurement.Adc.HighSpeed.Mode, AUTO
TestParameter, Measurement.Adc.HighSpeed.Coeff, 1
TestParameter, Measurement.Adc.HighResolution.AutoZero, OFF
TestParameter, Measurement.Adc.HighResolution.Mode, AUTO
TestParameter, Measurement.Adc.HighResolution.Coeff, 6
TestParameter, Measurement.WaitTime.Source.Coeff, 1
TestParameter, Measurement.WaitTime.Source.Offset, 0
TestParameter, Measurement.WaitTime.Monitor.Coeff, 1
TestParameter, Measurement.WaitTime.Monitor.Offset, 0
TestParameter, Output.Graph.Enabled, true
TestParameter, Output.Graph.AutoScaling, false
TestParameter, Output.Graph.XAxis.Data, V1
TestParameter, Output.Graph.XAxis.Scale, Linear
TestParameter, Output.Graph.XAxis.Left, -2
TestParameter, Output.Graph.XAxis.Right, 6
TestParameter, Output.Graph.XAxis.RunTimeAutoScale, true
TestParameter, Output.Graph.YAxis.Data, I2
TestParameter, Output.Graph.YAxis.Scale, Linear
TestParameter, Output.Graph.YAxis.Bottom, -0.1
TestParameter, Output.Graph.YAxis.Top, 0.1
TestParameter, Output.Graph.YAxis.Group, 
TestParameter, Output.Graph.YAxis.RunTimeAutoScale, true
TestParameter, Output.List.Data, V1, I1, V2, I2, V3, I3, V4, I4
TestParameter, AutoAnalysis.Interpolation, false
TestParameter, AutoAnalysis.Line1.Enabled, false
TestParameter, AutoAnalysis.Line1.Type, 1
TestParameter, AutoAnalysis.Line1.Fix, True
TestParameter, AutoAnalysis.Line1.YAxis, 0
TestParameter, AutoAnalysis.Line1.Point1.Type, 0
TestParameter, AutoAnalysis.Line1.Point1.XY.X, 
TestParameter, AutoAnalysis.Line1.Point1.XY.Y, 
TestParameter, AutoAnalysis.Line1.Point1.Data.Var, 
TestParameter, AutoAnalysis.Line1.Point1.Data.Condition, 
TestParameter, AutoAnalysis.Line1.Point1.Data.Start, false
TestParameter, AutoAnalysis.Line1.Point1.Data.StartVar, 
TestParameter, AutoAnalysis.Line1.Point1.Data.StartCondition, 
TestParameter, AutoAnalysis.Line1.Point2.Type, 0
TestParameter, AutoAnalysis.Line1.Point2.XY.X, 
TestParameter, AutoAnalysis.Line1.Point2.XY.Y, 
TestParameter, AutoAnalysis.Line1.Point2.Data.Var, 
TestParameter, AutoAnalysis.Line1.Point2.Data.Condition, 
TestParameter, AutoAnalysis.Line1.Point2.Data.Start, false
TestParameter, AutoAnalysis.Line1.Point2.Data.StartVar, 
TestParameter, AutoAnalysis.Line1.Point2.Data.StartCondition, 
TestParameter, AutoAnalysis.Line1.GradientExpr, 0
TestParameter, AutoAnalysis.Line2.Enabled, false
TestParameter, AutoAnalysis.Line2.Type, 1
TestParameter, AutoAnalysis.Line2.Fix, True
TestParameter, AutoAnalysis.Line2.YAxis, 0
TestParameter, AutoAnalysis.Line2.Point1.Type, 0
TestParameter, AutoAnalysis.Line2.Point1.XY.X, 
TestParameter, AutoAnalysis.Line2.Point1.XY.Y, 
TestParameter, AutoAnalysis.Line2.Point1.Data.Var, 
TestParameter, AutoAnalysis.Line2.Point1.Data.Condition, 
TestParameter, AutoAnalysis.Line2.Point1.Data.Start, false
TestParameter, AutoAnalysis.Line2.Point1.Data.StartVar, 
TestParameter, AutoAnalysis.Line2.Point1.Data.StartCondition, 
TestParameter, AutoAnalysis.Line2.Point2.Type, 0
TestParameter, AutoAnalysis.Line2.Point2.XY.X, 
TestParameter, AutoAnalysis.Line2.Point2.XY.Y, 
TestParameter, AutoAnalysis.Line2.Point2.Data.Var, 
TestParameter, AutoAnalysis.Line2.Point2.Data.Condition, 
TestParameter, AutoAnalysis.Line2.Point2.Data.Start, false
TestParameter, AutoAnalysis.Line2.Point2.Data.StartVar, 
TestParameter, AutoAnalysis.Line2.Point2.Data.StartCondition, 
TestParameter, AutoAnalysis.Line2.GradientExpr, 0
TestParameter, AutoAnalysis.Marker.Enabled, false
TestParameter, AutoAnalysis.Marker.Data.Var, 
TestParameter, AutoAnalysis.Marker.Data.Condition, 
TestParameter, AutoAnalysis.Marker.Data.Start, false
TestParameter, AutoAnalysis.Marker.Data.StartVar, 
TestParameter, AutoAnalysis.Marker.Data.StartCondition, 
MetaData, TestRecord.EntryPoint, true
MetaData, TestRecord.RecordTime, 03/10/2023 17:27:55
MetaData, TestRecord.TestTarget, 
MetaData, TestRecord.IterationIndex, 65
MetaData, TestRecord.Preservation, true
MetaData, TestRecord.Flag, 
MetaData, TestRecord.Remarks, 
MetaData, TestRecord.LinkKey, 89a58d69-c83c-4a90-a15e-4f158a3d6240
Dimension1, 402, 402, 402, 402, 402, 402, 402, 402
Dimension2, 1, 1, 1, 1, 1, 1, 1, 1
DataName, V1, V2, I1, I2, V3, I3, V4, I4
DataValue, -2, 0.25, -5.28E-12, 3.5700000000000003E-12, , , , 
DataValue, -1.96, 0.25, -3.4200000000000004E-12, 2.36E-12, , , , 
DataValue, -1.92, 0.25, -2.2700000000000002E-12, 3.4400000000000003E-12, , , , 
DataValue, -1.8800000000000001, 0.25, -2.46E-12, 4.8500000000000005E-12, , , , 
DataValue, -1.84, 0.25, -1.5E-12, 4.27E-12, , , , 
DataValue, -1.8, 0.25, -1.64E-12, 3.48E-12, , , , 
DataValue, -1.76, 0.25, -1.37E-12, 3.6900000000000006E-12, , , , 
DataValue, -1.72, 0.25, -7.6000000000000009E-13, 4.8500000000000005E-12, , , , 
DataValue, -1.68, 0.25, -1.1900000000000002E-12, 5.3200000000000008E-12, , , , 
DataValue, -1.6400000000000001, 0.25, -6.400000000000001E-13, 3.86E-12, , , , 
DataValue, -1.6, 0.25, -5.4E-13, 2.19E-12, , , , 
DataValue, -1.56, 0.25, -5.2E-13, 4.16E-12, , , , 
DataValue, -1.52, 0.25, -7.7000000000000005E-13, 5.3200000000000008E-12, , , , 
DataValue, -1.48, 0.25, 4.0000000000000006E-14, 4.5000000000000006E-12, , , , 
DataValue, -1.44, 0.25, 7E-14, 3.4500000000000004E-12, , , , 
DataValue, -1.4000000000000001, 0.25, -3.4E-13, 3.9E-12, , , , 
DataValue, -1.36, 0.25, -4.3000000000000004E-13, 4.52E-12, , , , 
DataValue, -1.32, 0.25, 1.1000000000000001E-13, 5.02E-12, , , , 
DataValue, -1.28, 0.25, 4.2000000000000003E-13, 3.95E-12, , , , 
DataValue, -1.24, 0.25, -6.0000000000000007E-13, 2.11E-12, , , , 
DataValue, -1.2, 0.25, 8.0000000000000013E-14, 3.7400000000000006E-12, , , , 
DataValue, -1.16, 0.25, -1.5000000000000002E-13, 4.37E-12, , , , 
DataValue, -1.12, 0.25, 9.0000000000000008E-14, 4.7600000000000007E-12, , , , 
DataValue, -1.08, 0.25, -2.1000000000000001E-13, 3.5700000000000003E-12, , , , 
DataValue, -1.04, 0.25, 2.8E-13, 2.85E-12, , , , 
DataValue, -1, 0.25, 4E-13, 4.42E-12, , , , 
DataValue, -0.96, 0.25, 8E-13, 5.08E-12, , , , 
DataValue, -0.92, 0.25, 1.5200000000000002E-12, 3.9800000000000004E-12, , , , 
DataValue, -0.88, 0.25, 6.5000000000000006E-13, 2.6100000000000004E-12, , , , 
DataValue, -0.84, 0.25, -2.0000000000000003E-14, 2.8900000000000004E-12, , , , 
DataValue, -0.8, 0.25, 7.8000000000000011E-13, 4.94E-12, , , , 
DataValue, -0.76, 0.25, 3.0000000000000003E-13, 4.8000000000000005E-12, , , , 
DataValue, -0.72, 0.25, 9.6000000000000015E-13, 3.1E-12, , , , 
DataValue, -0.68, 0.25, 7.100000000000001E-13, 2.0200000000000003E-12, , , , 
DataValue, -0.64, 0.25, 6.9000000000000009E-13, 3.95E-12, , , , 
DataValue, -0.6, 0.25, 5.5000000000000008E-13, 4.5500000000000006E-12, , , , 
DataValue, -0.56, 0.25, 1.3400000000000002E-12, 3.7400000000000006E-12, , , , 
DataValue, -0.52, 0.25, 1.1000000000000001E-13, 2.18E-12, , , , 
DataValue, -0.48, 0.25, 5.3000000000000006E-13, 2.67E-12, , , , 
DataValue, -0.44, 0.25, 3.0000000000000003E-13, 4.48E-12, , , , 
DataValue, -0.4, 0.25, 3.6000000000000003E-13, 4.8000000000000005E-12, , , , 
DataValue, -0.36, 0.25, 1.3800000000000002E-12, 3.38E-12, , , , 
DataValue, -0.32, 0.25, 4.4000000000000004E-13, 2.4000000000000003E-12, , , , 
DataValue, -0.28, 0.25, 8.4000000000000006E-13, 3.6000000000000004E-12, , , , 
DataValue, -0.24, 0.25, 7E-13, 4.18E-12, , , , 
DataValue, -0.2, 0.25, 9.9E-13, 3.92E-12, , , , 
DataValue, -0.16, 0.25, 1.12E-12, 2.79E-12, , , , 
DataValue, -0.12, 0.25, 6.1E-13, 2.06E-12, , , , 
DataValue, -0.08, 0.25, 7.9000000000000007E-13, 3.71E-12, , , , 
DataValue, -0.04, 0.25, 8.9E-13, 4.74E-12, , , , 
DataValue, 0, 0.25, 5E-13, 3.4200000000000004E-12, , , , 
DataValue, 0.04, 0.25, 8.6000000000000007E-13, 3.0300000000000002E-12, , , , 
DataValue, 0.08, 0.25, 1.32E-12, 4.16E-12, , , , 
DataValue, 0.12, 0.25, 1.5E-12, 4.56E-12, , , , 
DataValue, 0.16, 0.25, 1.13E-12, 4.97E-12, , , , 
DataValue, 0.2, 0.25, 1.5300000000000001E-12, 3.8800000000000004E-12, , , , 
DataValue, 0.24, 0.25, 1.5E-12, 3.7900000000000006E-12, , , , 
DataValue, 0.28, 0.25, 9.8E-13, 3.56E-12, , , , 
DataValue, 0.32, 0.25, 1.22E-12, 4.7100000000000007E-12, , , , 
DataValue, 0.36, 0.25, 1.2400000000000002E-12, 4.8100000000000007E-12, , , , 
DataValue, 0.4, 0.25, 1.09E-12, 3.65E-12, , , , 
DataValue, 0.44, 0.25, 8.2E-13, 2.8300000000000003E-12, , , , 
DataValue, 0.48, 0.25, 1.18E-12, 4.6600000000000007E-12, , , , 
DataValue, 0.52, 0.25, 1.4300000000000002E-12, 5.3200000000000008E-12, , , , 
DataValue, 0.56, 0.25, 1.9900000000000002E-12, 4.23E-12, , , , 
DataValue, 0.6, 0.25, 2.18E-12, 3.4400000000000003E-12, , , , 
DataValue, 0.64, 0.25, 1.2000000000000001E-12, 2.6000000000000002E-12, , , , 
DataValue, 0.68, 0.25, 1.1900000000000002E-12, 4.7600000000000007E-12, , , , 
DataValue, 0.72, 0.25, 1.46E-12, 5.9600000000000005E-12, , , , 
DataValue, 0.76, 0.25, 1.8200000000000003E-12, 6.19E-12, , , , 
DataValue, 0.8, 0.25, 1.2500000000000001E-12, 5.0600000000000007E-12, , , , 
DataValue, 0.84, 0.25, 1.8000000000000002E-12, 6.0700000000000006E-12, , , , 
DataValue, 0.88, 0.25, 1.4300000000000002E-12, 8.16E-12, , , , 
DataValue, 0.92, 0.25, 1.5E-12, 9.78E-12, , , , 
DataValue, 0.96, 0.25, 1.85E-12, 1.0120000000000001E-11, , , , 
DataValue, 1, 0.25, 1.21E-12, 1.0240000000000002E-11, , , , 
DataValue, 1.04, 0.25, 1.7500000000000002E-12, 1.352E-11, , , , 
DataValue, 1.08, 0.25, 1.4300000000000002E-12, 1.662E-11, , , , 
DataValue, 1.12, 0.25, 1.7100000000000002E-12, 1.926E-11, , , , 
DataValue, 1.16, 0.25, 8.4000000000000006E-13, 2.2350000000000002E-11, , , , 
DataValue, 1.2, 0.25, 1.1900000000000002E-12, 2.5960000000000003E-11, , , , 
DataValue, 1.24, 0.25, 2.09E-12, 3.3310000000000006E-11, , , , 
DataValue, 1.28, 0.25, 1.98E-12, 4.126E-11, , , , 
DataValue, 1.32, 0.25, 2.4500000000000003E-12, 4.9900000000000003E-11, , , , 
DataValue, 1.36, 0.25, 1.74E-12, 5.9700000000000011E-11, , , , 
DataValue, 1.4000000000000001, 0.25, 1.6700000000000002E-12, 7.367E-11, , , , 
DataValue, 1.44, 0.25, 1.4200000000000002E-12, 9.210000000000001E-11, , , , 
DataValue, 1.48, 0.25, 2.04E-12, 1.126E-10, , , , 
DataValue, 1.52, 0.25, 2.9900000000000004E-12, 1.3697000000000002E-10, , , , 
DataValue, 1.56, 0.25, 1.51E-12, 1.6755E-10, , , , 
DataValue, 1.6, 0.25, 2.26E-12, 2.0790000000000003E-10, , , , 
DataValue, 1.6400000000000001, 0.25, 2E-12, 2.5692000000000003E-10, , , , 
DataValue, 1.68, 0.25, 2.5800000000000003E-12, 3.1663E-10, , , , 
DataValue, 1.72, 0.25, 1.6300000000000001E-12, 3.9133000000000003E-10, , , , 
DataValue, 1.76, 0.25, 2E-12, 4.8260000000000007E-10, , , , 
DataValue, 1.8, 0.25, 2.46E-12, 5.9988E-10, , , , 
DataValue, 1.84, 0.25, 2E-12, 7.4826000000000006E-10, , , , 
DataValue, 1.8800000000000001, 0.25, 1.6200000000000002E-12, 9.3274E-10, , , , 
DataValue, 1.92, 0.25, 1.8200000000000003E-12, 1.4048E-09, , , , 
DataValue, 1.96, 0.25, 1.7100000000000002E-12, 1.7189E-09, , , , 
DataValue, 2, 0.25, 2.6100000000000004E-12, 2.1241E-09, , , , 
DataValue, 2.04, 0.25, 2.29E-12, 2.6391E-09, , , , 
DataValue, 2.08, 0.25, 1.8100000000000002E-12, 3.2831E-09, , , , 
DataValue, 2.12, 0.25, 2.24E-12, 4.104E-09, , , , 
DataValue, 2.16, 0.25, 1.88E-12, 5.1692E-09, , , , 
DataValue, 2.2, 0.25, 2.62E-12, 6.5028E-09, , , , 
DataValue, 2.24, 0.25, 1.95E-12, 8.1938E-09, , , , 
DataValue, 2.2800000000000002, 0.25, 2.26E-12, 1.03223E-08, , , , 
DataValue, 2.32, 0.25, 1.6200000000000002E-12, 1.3590999999999999E-08, , , , 
DataValue, 2.36, 0.25, 2.8300000000000003E-12, 1.72888E-08, , , , 
DataValue, 2.4, 0.25, 3.4000000000000005E-12, 2.2014399999999996E-08, , , , 
DataValue, 2.44, 0.25, 2.0500000000000004E-12, 2.78912E-08, , , , 
DataValue, 2.48, 0.25, 2.49E-12, 3.5353199999999997E-08, , , , 
DataValue, 2.52, 0.25, 1.95E-12, 4.4644399999999994E-08, , , , 
DataValue, 2.56, 0.25, 2.31E-12, 5.6179799999999993E-08, , , , 
DataValue, 2.6, 0.25, 2.6800000000000003E-12, 7.04052E-08, , , , 
DataValue, 2.64, 0.25, 2.54E-12, 8.8003999999999985E-08, , , , 
DataValue, 2.68, 0.25, 2.72E-12, 1.0925219999999999E-07, , , , 
DataValue, 2.72, 0.25, 2.21E-12, 1.3388E-07, , , , 
DataValue, 2.7600000000000002, 0.25, 2.75E-12, 1.6196E-07, , , , 
DataValue, 2.8000000000000003, 0.25, 2.0500000000000004E-12, 1.9524E-07, , , , 
DataValue, 2.84, 0.25, 2.82E-12, 2.3406E-07, , , , 
DataValue, 2.88, 0.25, 2.7800000000000003E-12, 2.7986E-07, , , , 
DataValue, 2.92, 0.25, 2.9300000000000002E-12, 3.3284E-07, , , , 
DataValue, 2.96, 0.25, 2.79E-12, 3.9321999999999997E-07, , , , 
DataValue, 3, 0.25, 2.62E-12, 4.622E-07, , , , 
DataValue, 3.04, 0.25, 3.0300000000000002E-12, 5.402E-07, , , , 
DataValue, 3.08, 0.25, 2.8600000000000003E-12, 6.2756E-07, , , , 
DataValue, 3.12, 0.25, 2.34E-12, 7.2576E-07, , , , 
DataValue, 3.16, 0.25, 3.07E-12, 8.3573999999999994E-07, , , , 
DataValue, 3.2, 0.25, 3.0300000000000002E-12, 9.5714E-07, , , , 
DataValue, 3.24, 0.25, 2.92E-12, 1.0892999999999999E-06, , , , 
DataValue, 3.2800000000000002, 0.25, 3.5000000000000004E-12, 1.3462000000000001E-06, , , , 
DataValue, 3.3200000000000003, 0.25, 2.74E-12, 1.4976E-06, , , , 
DataValue, 3.36, 0.25, 3.2600000000000002E-12, 1.6625000000000002E-06, , , , 
DataValue, 3.4, 0.25, 3.2100000000000003E-12, 1.8413000000000003E-06, , , , 
DataValue, 3.44, 0.25, 3.05E-12, 2.0342000000000004E-06, , , , 
DataValue, 3.48, 0.25, 3.61E-12, 2.2382E-06, , , , 
DataValue, 3.52, 0.25, 2.9100000000000003E-12, 2.4558000000000003E-06, , , , 
DataValue, 3.56, 0.25, 2.97E-12, 2.6853000000000004E-06, , , , 
DataValue, 3.6, 0.25, 3.71E-12, 2.9247E-06, , , , 
DataValue, 3.64, 0.25, 3.77E-12, 3.1752E-06, , , , 
DataValue, 3.68, 0.25, 3.53E-12, 3.4368000000000003E-06, , , , 
DataValue, 3.72, 0.25, 3.13E-12, 3.7095000000000002E-06, , , , 
DataValue, 3.7600000000000002, 0.25, 2.92E-12, 3.9921E-06, , , , 
DataValue, 3.8000000000000003, 0.25, 3.5500000000000004E-12, 4.2866000000000006E-06, , , , 
DataValue, 3.84, 0.25, 3.86E-12, 4.5899000000000007E-06, , , , 
DataValue, 3.88, 0.25, 3.05E-12, 4.9038E-06, , , , 
DataValue, 3.92, 0.25, 3.6800000000000005E-12, 5.2245000000000005E-06, , , , 
DataValue, 3.96, 0.25, 3.8400000000000006E-12, 5.5565000000000009E-06, , , , 
DataValue, 4, 0.25, 3.0300000000000002E-12, 5.900700000000001E-06, , , , 
DataValue, 4.04, 0.25, 3.9300000000000004E-12, 6.2493000000000005E-06, , , , 
DataValue, 4.08, 0.25, 3.7900000000000006E-12, 6.6043000000000004E-06, , , , 
DataValue, 4.12, 0.25, 3.2900000000000003E-12, 6.9647E-06, , , , 
DataValue, 4.16, 0.25, 3.82E-12, 7.3318000000000007E-06, , , , 
DataValue, 4.2, 0.25, 3.3900000000000003E-12, 7.7019000000000016E-06, , , , 
DataValue, 4.24, 0.25, 3.87E-12, 8.0848000000000009E-06, , , , 
DataValue, 4.28, 0.25, 3.9900000000000006E-12, 8.4674000000000013E-06, , , , 
DataValue, 4.32, 0.25, 3.5200000000000003E-12, 8.8626E-06, , , , 
DataValue, 4.36, 0.25, 4.01E-12, 9.2611E-06, , , , 
DataValue, 4.4, 0.25, 3.5000000000000004E-12, 9.6668E-06, , , , 
DataValue, 4.44, 0.25, 3.4100000000000002E-12, 1.0074E-05, , , , 
DataValue, 4.48, 0.25, 3.66E-12, 1.0488600000000002E-05, , , , 
DataValue, 4.5200000000000005, 0.25, 4.6400000000000004E-12, 1.0901300000000002E-05, , , , 
DataValue, 4.5600000000000005, 0.25, 4.1500000000000007E-12, 1.1317800000000002E-05, , , , 
DataValue, 4.6000000000000005, 0.25, 3.2100000000000003E-12, 1.1994E-05, , , , 
DataValue, 4.64, 0.25, 4.01E-12, 1.239E-05, , , , 
DataValue, 4.68, 0.25, 3.7300000000000005E-12, 1.2794E-05, , , , 
DataValue, 4.72, 0.25, 3.9800000000000004E-12, 1.3202E-05, , , , 
DataValue, 4.76, 0.25, 3.97E-12, 1.361E-05, , , , 
DataValue, 4.8, 0.25, 4.77E-12, 1.4022E-05, , , , 
DataValue, 4.84, 0.25, 4.52E-12, 1.4436E-05, , , , 
DataValue, 4.88, 0.25, 4.63E-12, 1.4854E-05, , , , 
DataValue, 4.92, 0.25, 4.41E-12, 1.527E-05, , , , 
DataValue, 4.96, 0.25, 4.74E-12, 1.5692E-05, , , , 
DataValue, 5, 0.25, 4.2400000000000005E-12, 1.611E-05, , , , 
DataValue, 5.04, 0.25, 4.6600000000000007E-12, 1.6534E-05, , , , 
DataValue, 5.08, 0.25, 3.7800000000000005E-12, 1.6956E-05, , , , 
DataValue, 5.12, 0.25, 4.56E-12, 1.738E-05, , , , 
DataValue, 5.16, 0.25, 4.89E-12, 1.7808E-05, , , , 
DataValue, 5.2, 0.25, 4.3500000000000006E-12, 1.823E-05, , , , 
DataValue, 5.24, 0.25, 4.1900000000000005E-12, 1.8652E-05, , , , 
DataValue, 5.28, 0.25, 4.7600000000000007E-12, 1.9074E-05, , , , 
DataValue, 5.32, 0.25, 4.82E-12, 1.9494E-05, , , , 
DataValue, 5.36, 0.25, 4.6500000000000006E-12, 1.991E-05, , , , 
DataValue, 5.4, 0.25, 5.29E-12, 2.0324E-05, , , , 
DataValue, 5.44, 0.25, 5.1000000000000005E-12, 2.0732E-05, , , , 
DataValue, 5.48, 0.25, 4.57E-12, 2.1146E-05, , , , 
DataValue, 5.5200000000000005, 0.25, 5.6800000000000008E-12, 2.1542E-05, , , , 
DataValue, 5.5600000000000005, 0.25, 5.43E-12, 2.1948E-05, , , , 
DataValue, 5.6000000000000005, 0.25, 4.8500000000000005E-12, 2.235E-05, , , , 
DataValue, 5.64, 0.25, 5.5E-12, 2.2742E-05, , , , 
DataValue, 5.68, 0.25, 5.99E-12, 2.3134000000000002E-05, , , , 
DataValue, 5.72, 0.25, 5.6200000000000007E-12, 2.3522E-05, , , , 
DataValue, 5.76, 0.25, 4.99E-12, 2.391E-05, , , , 
DataValue, 5.8, 0.25, 6.0200000000000006E-12, 2.4286E-05, , , , 
DataValue, 5.84, 0.25, 5.95E-12, 2.4662000000000002E-05, , , , 
DataValue, 5.88, 0.25, 5.2700000000000008E-12, 2.5028E-05, , , , 
DataValue, 5.92, 0.25, 5.89E-12, 2.5392E-05, , , , 
DataValue, 5.96, 0.25, 6.5300000000000007E-12, 2.5750000000000002E-05, , , , 
DataValue, 6, 0.25, 5.7100000000000005E-12, 2.61E-05, , , , 
DataValue, 6, 0.25, 5.8800000000000008E-12, 2.6152E-05, , , , 
DataValue, 5.96, 0.25, 5.0100000000000007E-12, 2.6322E-05, , , , 
DataValue, 5.92, 0.25, 4.47E-12, 2.6422000000000002E-05, , , , 
DataValue, 5.88, 0.25, 4.87E-12, 2.6458E-05, , , , 
DataValue, 5.84, 0.25, 4.32E-12, 2.6456000000000002E-05, , , , 
DataValue, 5.8, 0.25, 3.3900000000000003E-12, 2.6414E-05, , , , 
DataValue, 5.76, 0.25, 3.6400000000000006E-12, 2.6344E-05, , , , 
DataValue, 5.72, 0.25, 3.1700000000000004E-12, 2.625E-05, , , , 
DataValue, 5.68, 0.25, 2.37E-12, 2.6136000000000002E-05, , , , 
