
SetupTitle, ID-VG Postbreak
PrimitiveTest, I/V Sweep
TestParameter, Context.MainFrame, B1500A
TestParameter, Channel.UnitType, SMU, SMU
TestParameter, Channel.Unit, SMU1:MP, SMU2:MP
TestParameter, Channel.IName, I1, I2
TestParameter, Channel.VName, V1, V2
TestParameter, Channel.Mode, V, V
TestParameter, Channel.Func, VAR1, CONST
TestParameter, Channel.Index, 
TestParameter, Channel.Time, 
TestParameter, Measurement.Port.Unit, SMU1:MP, SMU2:MP
TestParameter, Measurement.Port.SeriesResistor, NONE, NONE
TestParameter, Measurement.Port.Filter, ON, ON
TestParameter, Measurement.Port.OutputVoltageComparison, 0, 0
TestParameter, Measurement.Primary.Locus, Double
TestParameter, Measurement.Primary.Scale, LINEAR
TestParameter, Measurement.Primary.Start, -2
TestParameter, Measurement.Primary.Stop, 6
TestParameter, Measurement.Primary.Step, 0.04
TestParameter, Measurement.Primary.Compliance, 0.1
TestParameter, Measurement.Primary.PowerCompliance, 0
TestParameter, Measurement.Aborting.Condition, CONTINUE AT ANY
TestParameter, Measurement.PostOutput.Value, START
TestParameter, Measurement.PostOutput.Retention, OFF
TestParameter, Measurement.Bias.Source, -2, 0.25
TestParameter, Measurement.Bias.Compliance, 0.1, 0.1
TestParameter, Measurement.Monitor.Unit, SMU1:MP, SMU2:MP
TestParameter, Measurement.Monitor.Adc, HR ADC, HR ADC
TestParameter, Measurement.Monitor.Measurement, Compliance Side, Compliance Side
TestParameter, Measurement.Monitor.RangingMode, LIMITED, LIMITED
TestParameter, Measurement.Monitor.RangeBoundary, 1nA, 1nA
TestParameter, Measurement.Monitor.RangeRating, BY FULL RANGE, BY FULL RANGE
TestParameter, Measurement.Monitor.RangeRatingCoeff, 50, 50
TestParameter, Measurement.Timing.Hold, 0
TestParameter, Measurement.Timing.Delay, 0
TestParameter, Measurement.Adc.HighSpeed.Mode, AUTO
TestParameter, Measurement.Adc.HighSpeed.Coeff, 1
TestParameter, Measurement.Adc.HighResolution.AutoZero, OFF
TestParameter, Measurement.Adc.HighResolution.Mode, AUTO
TestParameter, Measurement.Adc.HighResolution.Coeff, 6
TestParameter, Measurement.WaitTime.Source.Coeff, 1
TestParameter, Measurement.WaitTime.Source.Offset, 0
TestParameter, Measurement.WaitTime.Monitor.Coeff, 1
TestParameter, Measurement.WaitTime.Monitor.Offset, 0
TestParameter, Output.Graph.Enabled, true
TestParameter, Output.Graph.AutoScaling, false
TestParameter, Output.Graph.XAxis.Data, V1
TestParameter, Output.Graph.XAxis.Scale, Linear
TestParameter, Output.Graph.XAxis.Left, -2
TestParameter, Output.Graph.XAxis.Right, 6
TestParameter, Output.Graph.XAxis.RunTimeAutoScale, true
TestParameter, Output.Graph.YAxis.Data, I2
TestParameter, Output.Graph.YAxis.Scale, Linear
TestParameter, Output.Graph.YAxis.Bottom, -0.1
TestParameter, Output.Graph.YAxis.Top, 0.1
TestParameter, Output.Graph.YAxis.Group, 
TestParameter, Output.Graph.YAxis.RunTimeAutoScale, true
TestParameter, Output.List.Data, V1, I1, V2, I2, V3, I3, V4, I4
TestParameter, AutoAnalysis.Interpolation, false
TestParameter, AutoAnalysis.Line1.Enabled, false
TestParameter, AutoAnalysis.Line1.Type, 1
TestParameter, AutoAnalysis.Line1.Fix, True
TestParameter, AutoAnalysis.Line1.YAxis, 0
TestParameter, AutoAnalysis.Line1.Point1.Type, 0
TestParameter, AutoAnalysis.Line1.Point1.XY.X, 
TestParameter, AutoAnalysis.Line1.Point1.XY.Y, 
TestParameter, AutoAnalysis.Line1.Point1.Data.Var, 
TestParameter, AutoAnalysis.Line1.Point1.Data.Condition, 
TestParameter, AutoAnalysis.Line1.Point1.Data.Start, false
TestParameter, AutoAnalysis.Line1.Point1.Data.StartVar, 
TestParameter, AutoAnalysis.Line1.Point1.Data.StartCondition, 
TestParameter, AutoAnalysis.Line1.Point2.Type, 0
TestParameter, AutoAnalysis.Line1.Point2.XY.X, 
TestParameter, AutoAnalysis.Line1.Point2.XY.Y, 
TestParameter, AutoAnalysis.Line1.Point2.Data.Var, 
TestParameter, AutoAnalysis.Line1.Point2.Data.Condition, 
TestParameter, AutoAnalysis.Line1.Point2.Data.Start, false
TestParameter, AutoAnalysis.Line1.Point2.Data.StartVar, 
TestParameter, AutoAnalysis.Line1.Point2.Data.StartCondition, 
TestParameter, AutoAnalysis.Line1.GradientExpr, 0
TestParameter, AutoAnalysis.Line2.Enabled, false
TestParameter, AutoAnalysis.Line2.Type, 1
TestParameter, AutoAnalysis.Line2.Fix, True
TestParameter, AutoAnalysis.Line2.YAxis, 0
TestParameter, AutoAnalysis.Line2.Point1.Type, 0
TestParameter, AutoAnalysis.Line2.Point1.XY.X, 
TestParameter, AutoAnalysis.Line2.Point1.XY.Y, 
TestParameter, AutoAnalysis.Line2.Point1.Data.Var, 
TestParameter, AutoAnalysis.Line2.Point1.Data.Condition, 
TestParameter, AutoAnalysis.Line2.Point1.Data.Start, false
TestParameter, AutoAnalysis.Line2.Point1.Data.StartVar, 
TestParameter, AutoAnalysis.Line2.Point1.Data.StartCondition, 
TestParameter, AutoAnalysis.Line2.Point2.Type, 0
TestParameter, AutoAnalysis.Line2.Point2.XY.X, 
TestParameter, AutoAnalysis.Line2.Point2.XY.Y, 
TestParameter, AutoAnalysis.Line2.Point2.Data.Var, 
TestParameter, AutoAnalysis.Line2.Point2.Data.Condition, 
TestParameter, AutoAnalysis.Line2.Point2.Data.Start, false
TestParameter, AutoAnalysis.Line2.Point2.Data.StartVar, 
TestParameter, AutoAnalysis.Line2.Point2.Data.StartCondition, 
TestParameter, AutoAnalysis.Line2.GradientExpr, 0
TestParameter, AutoAnalysis.Marker.Enabled, false
TestParameter, AutoAnalysis.Marker.Data.Var, 
TestParameter, AutoAnalysis.Marker.Data.Condition, 
TestParameter, AutoAnalysis.Marker.Data.Start, false
TestParameter, AutoAnalysis.Marker.Data.StartVar, 
TestParameter, AutoAnalysis.Marker.Data.StartCondition, 
MetaData, TestRecord.EntryPoint, true
MetaData, TestRecord.RecordTime, 03/10/2023 17:26:24
MetaData, TestRecord.TestTarget, 
MetaData, TestRecord.IterationIndex, 63
MetaData, TestRecord.Preservation, true
MetaData, TestRecord.Flag, 
MetaData, TestRecord.Remarks, 
MetaData, TestRecord.LinkKey, 762ca265-0927-40e9-abaf-3fe7a7987d7f
Dimension1, 402, 402, 402, 402, 402, 402, 402, 402
Dimension2, 1, 1, 1, 1, 1, 1, 1, 1
DataName, V1, V2, I1, I2, V3, I3, V4, I4
DataValue, -2, 0.25, -4.97E-12, 1.533E-11, , , , 
DataValue, -1.96, 0.25, -2.7800000000000003E-12, 1.699E-11, , , , 
DataValue, -1.92, 0.25, -2.08E-12, 1.548E-11, , , , 
DataValue, -1.8800000000000001, 0.25, -2.74E-12, 1.497E-11, , , , 
DataValue, -1.84, 0.25, -1.88E-12, 1.5870000000000002E-11, , , , 
DataValue, -1.8, 0.25, -2.08E-12, 1.664E-11, , , , 
DataValue, -1.76, 0.25, -5.6E-13, 1.684E-11, , , , 
DataValue, -1.72, 0.25, -1.02E-12, 1.471E-11, , , , 
DataValue, -1.68, 0.25, -8.5000000000000011E-13, 1.413E-11, , , , 
DataValue, -1.6400000000000001, 0.25, -3.9000000000000005E-13, 1.6070000000000002E-11, , , , 
DataValue, -1.6, 0.25, -4.1E-13, 1.744E-11, , , , 
DataValue, -1.56, 0.25, -3.8000000000000005E-13, 1.6270000000000002E-11, , , , 
DataValue, -1.52, 0.25, -6.6E-13, 1.5650000000000002E-11, , , , 
DataValue, -1.48, 0.25, -3.0000000000000003E-13, 1.546E-11, , , , 
DataValue, -1.44, 0.25, -4.2000000000000003E-13, 1.7000000000000003E-11, , , , 
DataValue, -1.4000000000000001, 0.25, -1.4E-13, 1.648E-11, , , , 
DataValue, -1.36, 0.25, 2.7E-13, 1.5140000000000002E-11, , , , 
DataValue, -1.32, 0.25, 2.6E-13, 1.475E-11, , , , 
DataValue, -1.28, 0.25, 4.0000000000000006E-14, 1.524E-11, , , , 
DataValue, -1.24, 0.25, -2.2000000000000002E-13, 1.6450000000000002E-11, , , , 
DataValue, -1.2, 0.25, 5.9E-13, 1.566E-11, , , , 
DataValue, -1.16, 0.25, -6.0000000000000009E-14, 1.443E-11, , , , 
DataValue, -1.12, 0.25, -1.3E-13, 1.4160000000000001E-11, , , , 
DataValue, -1.08, 0.25, -9.0000000000000008E-14, 1.575E-11, , , , 
DataValue, -1.04, 0.25, 4E-13, 1.779E-11, , , , 
DataValue, -1, 0.25, 4.3000000000000004E-13, 1.56E-11, , , , 
DataValue, -0.96, 0.25, -1.8000000000000002E-13, 1.478E-11, , , , 
DataValue, -0.92, 0.25, 5.3000000000000006E-13, 1.3990000000000002E-11, , , , 
DataValue, -0.88, 0.25, 1.1000000000000001E-13, 1.5360000000000002E-11, , , , 
DataValue, -0.84, 0.25, 4.2000000000000003E-13, 1.6180000000000003E-11, , , , 
DataValue, -0.8, 0.25, 3.0000000000000003E-13, 1.5120000000000002E-11, , , , 
DataValue, -0.76, 0.25, -2.3000000000000003E-13, 1.4110000000000002E-11, , , , 
DataValue, -0.72, 0.25, 6.1E-13, 1.506E-11, , , , 
DataValue, -0.68, 0.25, 3.2000000000000005E-13, 1.657E-11, , , , 
DataValue, -0.64, 0.25, 8.1000000000000008E-13, 1.611E-11, , , , 
DataValue, -0.6, 0.25, 5.5000000000000008E-13, 1.55E-11, , , , 
DataValue, -0.56, 0.25, 8.7E-13, 1.3190000000000002E-11, , , , 
DataValue, -0.52, 0.25, 8.8000000000000009E-13, 1.5470000000000003E-11, , , , 
DataValue, -0.48, 0.25, 5.1E-13, 1.6760000000000002E-11, , , , 
DataValue, -0.44, 0.25, 1.9000000000000002E-13, 1.546E-11, , , , 
DataValue, -0.4, 0.25, 4.1E-13, 1.479E-11, , , , 
DataValue, -0.36, 0.25, 9.4E-13, 1.459E-11, , , , 
DataValue, -0.32, 0.25, 3.4E-13, 1.5630000000000002E-11, , , , 
DataValue, -0.28, 0.25, 1.7100000000000002E-12, 1.682E-11, , , , 
DataValue, -0.24, 0.25, 9.000000000000001E-13, 1.495E-11, , , , 
DataValue, -0.2, 0.25, 9.6000000000000015E-13, 1.382E-11, , , , 
DataValue, -0.16, 0.25, 4.7E-13, 1.611E-11, , , , 
DataValue, -0.12, 0.25, 9.4E-13, 1.6670000000000002E-11, , , , 
DataValue, -0.08, 0.25, 1.73E-12, 1.606E-11, , , , 
DataValue, -0.04, 0.25, 6.0000000000000007E-13, 1.5740000000000002E-11, , , , 
DataValue, 0, 0.25, 1.13E-12, 1.615E-11, , , , 
DataValue, 0.04, 0.25, 8.6000000000000007E-13, 1.697E-11, , , , 
DataValue, 0.08, 0.25, 1.21E-12, 1.6780000000000002E-11, , , , 
DataValue, 0.12, 0.25, 1.91E-12, 1.639E-11, , , , 
DataValue, 0.16, 0.25, 1.6E-12, 1.454E-11, , , , 
DataValue, 0.2, 0.25, 1.4E-12, 1.5380000000000003E-11, , , , 
DataValue, 0.24, 0.25, 1.18E-12, 1.69E-11, , , , 
DataValue, 0.28, 0.25, 1.6700000000000002E-12, 1.655E-11, , , , 
DataValue, 0.32, 0.25, 1.26E-12, 1.52E-11, , , , 
DataValue, 0.36, 0.25, 1.5E-12, 1.575E-11, , , , 
DataValue, 0.4, 0.25, 1.4400000000000001E-12, 1.7160000000000002E-11, , , , 
DataValue, 0.44, 0.25, 1.85E-12, 1.7560000000000002E-11, , , , 
DataValue, 0.48, 0.25, 1.0500000000000002E-12, 1.5780000000000003E-11, , , , 
DataValue, 0.52, 0.25, 1.18E-12, 1.466E-11, , , , 
DataValue, 0.56, 0.25, 1.1900000000000002E-12, 1.615E-11, , , , 
DataValue, 0.6, 0.25, 1.18E-12, 1.732E-11, , , , 
DataValue, 0.64, 0.25, 1.59E-12, 1.666E-11, , , , 
DataValue, 0.68, 0.25, 2.08E-12, 1.5580000000000003E-11, , , , 
DataValue, 0.72, 0.25, 1.3400000000000002E-12, 1.473E-11, , , , 
DataValue, 0.76, 0.25, 1.26E-12, 1.675E-11, , , , 
DataValue, 0.8, 0.25, 1.1100000000000001E-12, 1.753E-11, , , , 
DataValue, 0.84, 0.25, 2.0200000000000003E-12, 1.6160000000000002E-11, , , , 
DataValue, 0.88, 0.25, 1.5600000000000002E-12, 1.6180000000000003E-11, , , , 
DataValue, 0.92, 0.25, 1.5300000000000001E-12, 1.5540000000000002E-11, , , , 
DataValue, 0.96, 0.25, 1.4400000000000001E-12, 1.7870000000000002E-11, , , , 
DataValue, 1, 0.25, 1.74E-12, 1.8290000000000002E-11, , , , 
DataValue, 1.04, 0.25, 1.86E-12, 1.637E-11, , , , 
DataValue, 1.08, 0.25, 1.5700000000000002E-12, 1.641E-11, , , , 
DataValue, 1.12, 0.25, 1.5200000000000002E-12, 1.6690000000000003E-11, , , , 
DataValue, 1.16, 0.25, 1.51E-12, 1.741E-11, , , , 
DataValue, 1.2, 0.25, 1.64E-12, 1.8180000000000002E-11, , , , 
DataValue, 1.24, 0.25, 1.86E-12, 1.6690000000000003E-11, , , , 
DataValue, 1.28, 0.25, 1.5600000000000002E-12, 1.6400000000000003E-11, , , , 
DataValue, 1.32, 0.25, 1.45E-12, 1.7930000000000003E-11, , , , 
DataValue, 1.36, 0.25, 2.11E-12, 1.9860000000000003E-11, , , , 
DataValue, 1.4000000000000001, 0.25, 2.29E-12, 1.9040000000000003E-11, , , , 
DataValue, 1.44, 0.25, 2.2000000000000003E-12, 1.8070000000000002E-11, , , , 
DataValue, 1.48, 0.25, 2.18E-12, 1.8800000000000002E-11, , , , 
DataValue, 1.52, 0.25, 1.85E-12, 2.059E-11, , , , 
DataValue, 1.56, 0.25, 2.16E-12, 2.2040000000000002E-11, , , , 
DataValue, 1.6, 0.25, 2.7000000000000002E-12, 2.1590000000000003E-11, , , , 
DataValue, 1.6400000000000001, 0.25, 2.31E-12, 2.09E-11, , , , 
DataValue, 1.68, 0.25, 2.31E-12, 2.3570000000000002E-11, , , , 
DataValue, 1.72, 0.25, 2.0700000000000003E-12, 2.4720000000000003E-11, , , , 
DataValue, 1.76, 0.25, 2.42E-12, 2.562E-11, , , , 
DataValue, 1.8, 0.25, 2.21E-12, 2.629E-11, , , , 
DataValue, 1.84, 0.25, 2.39E-12, 2.8430000000000002E-11, , , , 
DataValue, 1.8800000000000001, 0.25, 2.03E-12, 3.1410000000000004E-11, , , , 
DataValue, 1.92, 0.25, 2.54E-12, 3.311E-11, , , , 
DataValue, 1.96, 0.25, 2.3500000000000003E-12, 3.5270000000000005E-11, , , , 
DataValue, 2, 0.25, 2.67E-12, 3.7060000000000006E-11, , , , 
DataValue, 2.04, 0.25, 2.47E-12, 4.2120000000000006E-11, , , , 
DataValue, 2.08, 0.25, 3.07E-12, 4.7540000000000005E-11, , , , 
DataValue, 2.12, 0.25, 3.46E-12, 5.095E-11, , , , 
DataValue, 2.16, 0.25, 3.0100000000000003E-12, 5.5810000000000006E-11, , , , 
DataValue, 2.2, 0.25, 2.5500000000000002E-12, 6.2540000000000011E-11, , , , 
DataValue, 2.24, 0.25, 2.9300000000000002E-12, 7.063E-11, , , , 
DataValue, 2.2800000000000002, 0.25, 2.8300000000000003E-12, 8.1040000000000012E-11, , , , 
DataValue, 2.32, 0.25, 3.1900000000000003E-12, 9.0660000000000013E-11, , , , 
DataValue, 2.36, 0.25, 2.87E-12, 1.0255000000000001E-10, , , , 
DataValue, 2.4, 0.25, 3.3700000000000004E-12, 1.1848000000000001E-10, , , , 
DataValue, 2.44, 0.25, 3.15E-12, 1.3649E-10, , , , 
DataValue, 2.48, 0.25, 3.5000000000000004E-12, 1.5715000000000002E-10, , , , 
DataValue, 2.52, 0.25, 2.97E-12, 1.8051E-10, , , , 
DataValue, 2.56, 0.25, 3.7E-12, 2.0922000000000003E-10, , , , 
DataValue, 2.6, 0.25, 3.4000000000000005E-12, 2.4529000000000004E-10, , , , 
DataValue, 2.64, 0.25, 3.51E-12, 2.8700000000000004E-10, , , , 
DataValue, 2.68, 0.25, 3.66E-12, 3.3419E-10, , , , 
DataValue, 2.72, 0.25, 3.66E-12, 3.9180000000000003E-10, , , , 
DataValue, 2.7600000000000002, 0.25, 3.7E-12, 4.6132E-10, , , , 
DataValue, 2.8000000000000003, 0.25, 3.35E-12, 5.4611000000000009E-10, , , , 
DataValue, 2.84, 0.25, 3.23E-12, 6.4522000000000007E-10, , , , 
DataValue, 2.88, 0.25, 4.3500000000000006E-12, 7.6202E-10, , , , 
DataValue, 2.92, 0.25, 3.2100000000000003E-12, 9.045800000000001E-10, , , , 
DataValue, 2.96, 0.25, 3.8800000000000004E-12, 1.07904E-09, , , , 
DataValue, 3, 0.25, 3.75E-12, 1.4717E-09, , , , 
DataValue, 3.04, 0.25, 4.1000000000000007E-12, 1.7422E-09, , , , 
DataValue, 3.08, 0.25, 3.76E-12, 2.0716E-09, , , , 
DataValue, 3.12, 0.25, 3.63E-12, 2.4791E-09, , , , 
DataValue, 3.16, 0.25, 3.76E-12, 2.9671E-09, , , , 
DataValue, 3.2, 0.25, 3.7400000000000006E-12, 3.5647E-09, , , , 
DataValue, 3.24, 0.25, 3.7900000000000006E-12, 4.293E-09, , , , 
DataValue, 3.2800000000000002, 0.25, 4.6500000000000006E-12, 5.1808E-09, , , , 
DataValue, 3.3200000000000003, 0.25, 3.5000000000000004E-12, 6.2923E-09, , , , 
DataValue, 3.36, 0.25, 4.87E-12, 7.6259E-09, , , , 
DataValue, 3.4, 0.25, 3.72E-12, 9.2664E-09, , , , 
DataValue, 3.44, 0.25, 4.2900000000000005E-12, 1.12915E-08, , , , 
DataValue, 3.48, 0.25, 4.2400000000000005E-12, 1.4386199999999998E-08, , , , 
DataValue, 3.52, 0.25, 4.3500000000000006E-12, 1.7788999999999998E-08, , , , 
DataValue, 3.56, 0.25, 4.3900000000000005E-12, 2.2016199999999998E-08, , , , 
DataValue, 3.6, 0.25, 5.1000000000000005E-12, 2.72826E-08, , , , 
DataValue, 3.64, 0.25, 4.67E-12, 3.38454E-08, , , , 
DataValue, 3.68, 0.25, 4.57E-12, 4.2251E-08, , , , 
DataValue, 3.72, 0.25, 4.13E-12, 5.23116E-08, , , , 
DataValue, 3.7600000000000002, 0.25, 4.99E-12, 6.5043199999999993E-08, , , , 
DataValue, 3.8000000000000003, 0.25, 4.77E-12, 8.08252E-08, , , , 
DataValue, 3.84, 0.25, 4.7500000000000006E-12, 1.0026559999999998E-07, , , , 
DataValue, 3.88, 0.25, 4.4400000000000005E-12, 1.2664E-07, , , , 
DataValue, 3.92, 0.25, 5.0500000000000005E-12, 1.5338E-07, , , , 
DataValue, 3.96, 0.25, 5.5600000000000005E-12, 1.8586E-07, , , , 
DataValue, 4, 0.25, 4.7000000000000006E-12, 2.2482E-07, , , , 
DataValue, 4.04, 0.25, 4.74E-12, 2.715E-07, , , , 
DataValue, 4.08, 0.25, 4.82E-12, 3.2742E-07, , , , 
DataValue, 4.12, 0.25, 5.0000000000000005E-12, 3.94E-07, , , , 
DataValue, 4.16, 0.25, 4.87E-12, 4.7264E-07, , , , 
DataValue, 4.2, 0.25, 5.3600000000000006E-12, 5.6588E-07, , , , 
DataValue, 4.24, 0.25, 6.04E-12, 6.7498E-07, , , , 
DataValue, 4.28, 0.25, 5.8300000000000008E-12, 8.0238E-07, , , , 
DataValue, 4.32, 0.25, 5.48E-12, 9.4909999999999994E-07, , , , 
DataValue, 4.36, 0.25, 5.4000000000000004E-12, 1.11722E-06, , , , 
DataValue, 4.4, 0.25, 5.34E-12, 1.4886000000000002E-06, , , , 
DataValue, 4.44, 0.25, 6.3700000000000005E-12, 1.7197000000000002E-06, , , , 
DataValue, 4.48, 0.25, 6.36E-12, 1.9794E-06, , , , 
DataValue, 4.5200000000000005, 0.25, 6E-12, 2.2713E-06, , , , 
DataValue, 4.5600000000000005, 0.25, 6.5300000000000007E-12, 2.5941000000000003E-06, , , , 
DataValue, 4.6000000000000005, 0.25, 6.2800000000000007E-12, 2.9442E-06, , , , 
DataValue, 4.64, 0.25, 6.6E-12, 3.3391000000000004E-06, , , , 
DataValue, 4.68, 0.25, 6.36E-12, 3.7617000000000003E-06, , , , 
DataValue, 4.72, 0.25, 6.1600000000000004E-12, 4.2251000000000004E-06, , , , 
DataValue, 4.76, 0.25, 7.0900000000000007E-12, 4.7424000000000005E-06, , , , 
DataValue, 4.8, 0.25, 6.7300000000000006E-12, 5.302E-06, , , , 
DataValue, 4.84, 0.25, 7.49E-12, 5.9068000000000008E-06, , , , 
DataValue, 4.88, 0.25, 6.3800000000000007E-12, 6.5612000000000008E-06, , , , 
DataValue, 4.92, 0.25, 6.7400000000000008E-12, 7.2548E-06, , , , 
DataValue, 4.96, 0.25, 7.2500000000000008E-12, 7.9957E-06, , , , 
DataValue, 5, 0.25, 7.21E-12, 8.7808E-06, , , , 
DataValue, 5.04, 0.25, 6.7700000000000004E-12, 9.6069000000000011E-06, , , , 
DataValue, 5.08, 0.25, 7.4600000000000009E-12, 1.04843E-05, , , , 
DataValue, 5.12, 0.25, 6.8000000000000009E-12, 1.1404800000000001E-05, , , , 
DataValue, 5.16, 0.25, 7.5700000000000011E-12, 1.2970000000000001E-05, , , , 
DataValue, 5.2, 0.25, 7.9E-12, 1.3948000000000001E-05, , , , 
DataValue, 5.24, 0.25, 7.71E-12, 1.4976E-05, , , , 
DataValue, 5.28, 0.25, 7.12E-12, 1.604E-05, , , , 
DataValue, 5.32, 0.25, 7.6800000000000012E-12, 1.7154000000000002E-05, , , , 
DataValue, 5.36, 0.25, 8.16E-12, 1.8296E-05, , , , 
DataValue, 5.4, 0.25, 8.25E-12, 1.9482E-05, , , , 
DataValue, 5.44, 0.25, 7.42E-12, 2.0698E-05, , , , 
DataValue, 5.48, 0.25, 7.870000000000001E-12, 2.1952E-05, , , , 
DataValue, 5.5200000000000005, 0.25, 8.3700000000000009E-12, 2.3238E-05, , , , 
DataValue, 5.5600000000000005, 0.25, 8.75E-12, 2.4566E-05, , , , 
DataValue, 5.6000000000000005, 0.25, 8.72E-12, 2.597E-05, , , , 
DataValue, 5.64, 0.25, 8.87E-12, 2.7348E-05, , , , 
DataValue, 5.68, 0.25, 8.3700000000000009E-12, 2.8752000000000002E-05, , , , 
DataValue, 5.72, 0.25, 8.52E-12, 3.0194000000000003E-05, , , , 
DataValue, 5.76, 0.25, 8.61E-12, 3.1652E-05, , , , 
DataValue, 5.8, 0.25, 8.9000000000000013E-12, 3.3114E-05, , , , 
DataValue, 5.84, 0.25, 9.2800000000000008E-12, 3.4636E-05, , , , 
DataValue, 5.88, 0.25, 9.12E-12, 3.6178E-05, , , , 
DataValue, 5.92, 0.25, 8.74E-12, 3.7744E-05, , , , 
DataValue, 5.96, 0.25, 9.5000000000000011E-12, 3.9322E-05, , , , 
DataValue, 6, 0.25, 9.43E-12, 4.0892E-05, , , , 
DataValue, 6, 0.25, 9.0800000000000009E-12, 4.1178000000000005E-05, , , , 
DataValue, 5.96, 0.25, 9.16E-12, 4.2514E-05, , , , 
DataValue, 5.92, 0.25, 7.9E-12, 4.3694E-05, , , , 
DataValue, 5.88, 0.25, 7.1000000000000008E-12, 4.4744000000000004E-05, , , , 
DataValue, 5.84, 0.25, 6.8200000000000004E-12, 4.567E-05, , , , 
DataValue, 5.8, 0.25, 5.9700000000000006E-12, 4.6484000000000004E-05, , , , 
DataValue, 5.76, 0.25, 5.65E-12, 4.7218E-05, , , , 
DataValue, 5.72, 0.25, 5.6E-12, 4.7852E-05, , , , 
DataValue, 5.68, 0.25, 5.6100000000000005E-12, 4.8412E-05, , , , 
DataValue, 5.64, 0.25, 4.0900000000000005E-12, 4.889E-05, , , , 
DataValue, 5.6000000000000005, 0.25, 4.48E-12, 4.9308E-05, , , , 
DataValue, 5.5600000000000005, 0.25, 4.17E-12, 4.966E-05, , , , 
