
SetupTitle, R-V
ApplicationTest, R-V, Public
TestParameter, Name, Port1, Port2, V1Start, V1Stop, V1Step, V2, I1Limit, IntegTime, HoldTime, DelayTime, Port1MinRng
TestParameter, Value, SMU1:MP	MPSMU, SMU2:MP	MPSMU, 0, 1, 0.05, 0, 0.01, MEDIUM, 0, 0, 1nA
DutParameter, Name, L, W, Temp
DutParameter, Value, 1E-05, 1E-06, 25
MetaData, TestRecord.EntryPoint, true
MetaData, TestRecord.RecordTime, 03/04/2023 16:38:54
MetaData, TestRecord.TestTarget, 
MetaData, TestRecord.IterationIndex, 57
MetaData, TestRecord.Preservation, true
MetaData, TestRecord.Flag, 
MetaData, TestRecord.Remarks, 
MetaData, TestRecord.LinkKey, 54a8b902-a684-463e-b82f-dd215bbf2022
Dimension1, 21, 21, 21, 21
Dimension2, 1, 1, 1, 1
DataName, V1, I1, R, Rsheet
DataValue, 0, 5.2000000000000006E-14, 0, 0
DataValue, 0.05, 6.1E-13, 81967213114.7541, 8196721311.47541
DataValue, 0.1, 6.640000000000001E-13, 150602409638.5542, 15060240963.855417
DataValue, 0.15, 8.26E-13, 181598062953.99515, 18159806295.399513
DataValue, 0.2, 1.024E-12, 195312500000, 19531250000
DataValue, 0.25, 9.0300000000000009E-13, 276854928017.71869, 27685492801.771862
DataValue, 0.3, 1.114E-12, 269299820466.78632, 26929982046.678631
DataValue, 0.35000000000000003, 1.3690000000000001E-12, 255661066471.87729, 25566106647.187725
DataValue, 0.4, 1.1440000000000002E-12, 349650349650.34961, 34965034965.034958
DataValue, 0.45, 1.3360000000000002E-12, 336826347305.38916, 33682634730.53891
DataValue, 0.5, 1.293E-12, 386697602474.86462, 38669760247.486458
DataValue, 0.55, 1.4280000000000002E-12, 385154061624.64984, 38515406162.464973
DataValue, 0.6, 1.4260000000000002E-12, 420757363253.85687, 42075736325.385681
DataValue, 0.65, 1.6240000000000002E-12, 400246305418.71918, 40024630541.87191
DataValue, 0.70000000000000007, 1.542E-12, 453955901426.71857, 45395590142.671852
DataValue, 0.75, 1.5970000000000002E-12, 469630557294.92792, 46963055729.492783
DataValue, 0.8, 1.6600000000000002E-12, 481927710843.37347, 48192771084.337341
DataValue, 0.85000000000000009, 1.767E-12, 481041312959.819, 48104131295.981888
DataValue, 0.9, 1.7050000000000001E-12, 527859237536.65686, 52785923753.665672
DataValue, 0.95000000000000007, 1.8530000000000003E-12, 512682137075.01343, 51268213707.501335
DataValue, 1, 1.9820000000000002E-12, 504540867810.2926, 50454086781.029251
SetupTitle, R-V
PrimitiveTest, I/V Sweep
TestParameter, Context.MainFrame, B1500A
TestParameter, Channel.UnitType, SMU, SMU
TestParameter, Channel.Unit, Port1, Port2
TestParameter, Channel.IName, I1, I2
TestParameter, Channel.VName, V1, V2
TestParameter, Channel.Mode, V, V
TestParameter, Channel.Func, VAR1, CONST
TestParameter, Channel.Index, 
TestParameter, Channel.Time, 
TestParameter, Measurement.Port.Unit, Port1, Port2
TestParameter, Measurement.Port.SeriesResistor, NONE, NONE
TestParameter, Measurement.Port.Filter, OFF, OFF
TestParameter, Measurement.Port.OutputVoltageComparison, 0, 0
TestParameter, Measurement.Primary.Locus, Single
TestParameter, Measurement.Primary.Scale, LINEAR
TestParameter, Measurement.Primary.Start, V1Start
TestParameter, Measurement.Primary.Stop, V1Stop
TestParameter, Measurement.Primary.Step, V1Step
TestParameter, Measurement.Primary.Compliance, I1Limit
TestParameter, Measurement.Primary.PowerCompliance, 0
TestParameter, Measurement.Aborting.Condition, CONTINUE AT ANY
TestParameter, Measurement.PostOutput.Value, START
TestParameter, Measurement.PostOutput.Retention, OFF
TestParameter, Measurement.Bias.Source, 0, V2
TestParameter, Measurement.Bias.Compliance, 0.01, I1Limit
TestParameter, Measurement.Monitor.Unit, SMU:=Port1, SMU:=Port2
TestParameter, Measurement.Monitor.Adc, HR ADC, HR ADC
TestParameter, Measurement.Monitor.Measurement, Compliance Side, Compliance Side
TestParameter, Measurement.Monitor.RangingMode, LIMITED, LIMITED
TestParameter, Measurement.Monitor.RangeBoundary, Port1MinRng, 1nA
TestParameter, Measurement.Monitor.RangeRating, BY FULL RANGE, BY FULL RANGE
TestParameter, Measurement.Monitor.RangeRatingCoeff, 50, 50
TestParameter, Measurement.Timing.Hold, HoldTime
TestParameter, Measurement.Timing.Delay, DelayTime
TestParameter, Measurement.Adc.HighSpeed.Mode, AUTO
TestParameter, Measurement.Adc.HighSpeed.Coeff, 1
TestParameter, Measurement.Adc.HighResolution.AutoZero, ON
TestParameter, Measurement.Adc.HighResolution.Mode, IntegMode
TestParameter, Measurement.Adc.HighResolution.Coeff, AdcFactor
TestParameter, Measurement.WaitTime.Source.Coeff, 1
TestParameter, Measurement.WaitTime.Source.Offset, 0
TestParameter, Measurement.WaitTime.Monitor.Coeff, 1
TestParameter, Measurement.WaitTime.Monitor.Offset, 0
TestParameter, Function.User.Name, R, Rsheet
TestParameter, Function.User.Unit, ohm, ohm/sheet
TestParameter, Function.User.Definition, V1/I1, R*W/L
TestParameter, Output.Graph.Enabled, true
TestParameter, Output.Graph.AutoScaling, false
TestParameter, Output.Graph.XAxis.Data, V1
TestParameter, Output.Graph.XAxis.Scale, Linear
TestParameter, Output.Graph.XAxis.Left, V1Start
TestParameter, Output.Graph.XAxis.Right, V1Stop
TestParameter, Output.Graph.XAxis.RunTimeAutoScale, false
TestParameter, Output.Graph.YAxis.Data, R, I1
TestParameter, Output.Graph.YAxis.Scale, Linear, Linear
TestParameter, Output.Graph.YAxis.Bottom, 0, 0
TestParameter, Output.Graph.YAxis.Top, V1Stop/I1Limit, I1Limit
TestParameter, Output.Graph.YAxis.Group, , 
TestParameter, Output.Graph.YAxis.RunTimeAutoScale, false, false
TestParameter, Output.List.Data, V1, I1, R, Rsheet
TestParameter, AutoAnalysis.Interpolation, false
TestParameter, AutoAnalysis.Line1.Enabled, false
TestParameter, AutoAnalysis.Line1.Type, 1
TestParameter, AutoAnalysis.Line1.Fix, False
TestParameter, AutoAnalysis.Line1.YAxis, 0
TestParameter, AutoAnalysis.Line1.Point1.Type, 0
TestParameter, AutoAnalysis.Line1.Point1.XY.X, 
TestParameter, AutoAnalysis.Line1.Point1.XY.Y, 
TestParameter, AutoAnalysis.Line1.Point1.Data.Var, 
TestParameter, AutoAnalysis.Line1.Point1.Data.Condition, 
TestParameter, AutoAnalysis.Line1.Point1.Data.Start, false
TestParameter, AutoAnalysis.Line1.Point1.Data.StartVar, 
TestParameter, AutoAnalysis.Line1.Point1.Data.StartCondition, 
TestParameter, AutoAnalysis.Line1.Point2.Type, 0
TestParameter, AutoAnalysis.Line1.Point2.XY.X, 
TestParameter, AutoAnalysis.Line1.Point2.XY.Y, 
TestParameter, AutoAnalysis.Line1.Point2.Data.Var, 
TestParameter, AutoAnalysis.Line1.Point2.Data.Condition, 
TestParameter, AutoAnalysis.Line1.Point2.Data.Start, false
TestParameter, AutoAnalysis.Line1.Point2.Data.StartVar, 
TestParameter, AutoAnalysis.Line1.Point2.Data.StartCondition, 
TestParameter, AutoAnalysis.Line1.GradientExpr, 0
TestParameter, AutoAnalysis.Line2.Enabled, false
TestParameter, AutoAnalysis.Line2.Type, 1
TestParameter, AutoAnalysis.Line2.Fix, False
TestParameter, AutoAnalysis.Line2.YAxis, 0
TestParameter, AutoAnalysis.Line2.Point1.Type, 0
TestParameter, AutoAnalysis.Line2.Point1.XY.X, 
TestParameter, AutoAnalysis.Line2.Point1.XY.Y, 
TestParameter, AutoAnalysis.Line2.Point1.Data.Var, 
TestParameter, AutoAnalysis.Line2.Point1.Data.Condition, 
TestParameter, AutoAnalysis.Line2.Point1.Data.Start, false
TestParameter, AutoAnalysis.Line2.Point1.Data.StartVar, 
TestParameter, AutoAnalysis.Line2.Point1.Data.StartCondition, 
TestParameter, AutoAnalysis.Line2.Point2.Type, 0
TestParameter, AutoAnalysis.Line2.Point2.XY.X, 
TestParameter, AutoAnalysis.Line2.Point2.XY.Y, 
TestParameter, AutoAnalysis.Line2.Point2.Data.Var, 
TestParameter, AutoAnalysis.Line2.Point2.Data.Condition, 
TestParameter, AutoAnalysis.Line2.Point2.Data.Start, false
TestParameter, AutoAnalysis.Line2.Point2.Data.StartVar, 
TestParameter, AutoAnalysis.Line2.Point2.Data.StartCondition, 
TestParameter, AutoAnalysis.Line2.GradientExpr, 0
TestParameter, AutoAnalysis.Marker.Enabled, false
TestParameter, AutoAnalysis.Marker.Data.Var, 
TestParameter, AutoAnalysis.Marker.Data.Condition, 
TestParameter, AutoAnalysis.Marker.Data.Start, false
TestParameter, AutoAnalysis.Marker.Data.StartVar, 
TestParameter, AutoAnalysis.Marker.Data.StartCondition, 
MetaData, TestRecord.EntryPoint, false
MetaData, TestRecord.RecordTime, 03/04/2023 16:38:54
MetaData, TestRecord.TestTarget, 
MetaData, TestRecord.IterationIndex, 57
MetaData, TestRecord.Preservation, true
MetaData, TestRecord.Flag, 
MetaData, TestRecord.Remarks, 
MetaData, TestRecord.LinkKey, 54a8b902-a684-463e-b82f-dd215bbf2022
Dimension1, 21, 21, 21, 21
Dimension2, 1, 1, 1, 1
DataName, V1, I1, R, Rsheet
DataValue, 0, 5.2000000000000006E-14, 0, 0
DataValue, 0.05, 6.1E-13, 81967213114.7541, 8196721311.47541
DataValue, 0.1, 6.640000000000001E-13, 150602409638.5542, 15060240963.855417
DataValue, 0.15, 8.26E-13, 181598062953.99515, 18159806295.399513
DataValue, 0.2, 1.024E-12, 195312500000, 19531250000
DataValue, 0.25, 9.0300000000000009E-13, 276854928017.71869, 27685492801.771862
DataValue, 0.3, 1.114E-12, 269299820466.78632, 26929982046.678631
DataValue, 0.35000000000000003, 1.3690000000000001E-12, 255661066471.87729, 25566106647.187725
DataValue, 0.4, 1.1440000000000002E-12, 349650349650.34961, 34965034965.034958
DataValue, 0.45, 1.3360000000000002E-12, 336826347305.38916, 33682634730.53891
DataValue, 0.5, 1.293E-12, 386697602474.86462, 38669760247.486458
DataValue, 0.55, 1.4280000000000002E-12, 385154061624.64984, 38515406162.464973
DataValue, 0.6, 1.4260000000000002E-12, 420757363253.85687, 42075736325.385681
DataValue, 0.65, 1.6240000000000002E-12, 400246305418.71918, 40024630541.87191
DataValue, 0.70000000000000007, 1.542E-12, 453955901426.71857, 45395590142.671852
DataValue, 0.75, 1.5970000000000002E-12, 469630557294.92792, 46963055729.492783
DataValue, 0.8, 1.6600000000000002E-12, 481927710843.37347, 48192771084.337341
DataValue, 0.85000000000000009, 1.767E-12, 481041312959.819, 48104131295.981888
DataValue, 0.9, 1.7050000000000001E-12, 527859237536.65686, 52785923753.665672
DataValue, 0.95000000000000007, 1.8530000000000003E-12, 512682137075.01343, 51268213707.501335
DataValue, 1, 1.9820000000000002E-12, 504540867810.2926, 50454086781.029251