
SetupTitle, R-V
ApplicationTest, R-V, Public
TestParameter, Name, Port1, Port2, V1Start, V1Stop, V1Step, V2, I1Limit, IntegTime, HoldTime, DelayTime, Port1MinRng
TestParameter, Value, SMU1:MP	MPSMU, SMU2:MP	MPSMU, 0, 1, 0.05, 0, 0.01, MEDIUM, 0, 0, 1nA
DutParameter, Name, L, W, Temp
DutParameter, Value, 1E-05, 1E-06, 25
MetaData, TestRecord.EntryPoint, true
MetaData, TestRecord.RecordTime, 03/04/2023 16:39:55
MetaData, TestRecord.TestTarget, 
MetaData, TestRecord.IterationIndex, 59
MetaData, TestRecord.Preservation, true
MetaData, TestRecord.Flag, 
MetaData, TestRecord.Remarks, 
MetaData, TestRecord.LinkKey, 6eb1ad56-2e94-44db-9bbe-d5e2ba592ea6
Dimension1, 21, 21, 21, 21
Dimension2, 1, 1, 1, 1
DataName, V1, I1, R, Rsheet
DataValue, 0, 1.2600000000000002E-13, 0, 0
DataValue, 0.05, 7.51E-13, 66577896138.482025, 6657789613.8482027
DataValue, 0.1, 9.5600000000000017E-13, 104602510460.25104, 10460251046.025103
DataValue, 0.15, 1.069E-12, 140318054256.3143, 14031805425.631428
DataValue, 0.2, 1.226E-12, 163132137030.99512, 16313213703.099508
DataValue, 0.25, 1.4440000000000001E-12, 173130193905.81717, 17313019390.581715
DataValue, 0.3, 1.4840000000000001E-12, 202156334231.80591, 20215633423.180588
DataValue, 0.35000000000000003, 1.349E-12, 259451445515.19647, 25945144551.519642
DataValue, 0.4, 1.6430000000000002E-12, 243457090687.76627, 24345709068.776623
DataValue, 0.45, 1.579E-12, 284990500316.65613, 28499050031.665611
DataValue, 0.5, 1.5280000000000002E-12, 327225130890.05231, 32722513089.005226
DataValue, 0.55, 1.7000000000000002E-12, 323529411764.70587, 32352941176.470581
DataValue, 0.6, 1.815E-12, 330578512396.69421, 33057851239.669418
DataValue, 0.65, 1.7850000000000002E-12, 364145658263.3053, 36414565826.330521
DataValue, 0.70000000000000007, 1.8230000000000002E-12, 383982446516.73065, 38398244651.673065
DataValue, 0.75, 2.219E-12, 337990085624.155, 33799008562.415497
DataValue, 0.8, 2.047E-12, 390815828041.03564, 39081582804.103561
DataValue, 0.85000000000000009, 1.9990000000000003E-12, 425212606303.15155, 42521260630.315147
DataValue, 0.9, 2.368E-12, 380067567567.56757, 38006756756.756752
DataValue, 0.95000000000000007, 2.2250000000000003E-12, 426966292134.83142, 42696629213.483139
DataValue, 1, 2.2660000000000002E-12, 441306266548.98492, 44130626654.898491
SetupTitle, R-V
PrimitiveTest, I/V Sweep
TestParameter, Context.MainFrame, B1500A
TestParameter, Channel.UnitType, SMU, SMU
TestParameter, Channel.Unit, Port1, Port2
TestParameter, Channel.IName, I1, I2
TestParameter, Channel.VName, V1, V2
TestParameter, Channel.Mode, V, V
TestParameter, Channel.Func, VAR1, CONST
TestParameter, Channel.Index, 
TestParameter, Channel.Time, 
TestParameter, Measurement.Port.Unit, Port1, Port2
TestParameter, Measurement.Port.SeriesResistor, NONE, NONE
TestParameter, Measurement.Port.Filter, OFF, OFF
TestParameter, Measurement.Port.OutputVoltageComparison, 0, 0
TestParameter, Measurement.Primary.Locus, Single
TestParameter, Measurement.Primary.Scale, LINEAR
TestParameter, Measurement.Primary.Start, V1Start
TestParameter, Measurement.Primary.Stop, V1Stop
TestParameter, Measurement.Primary.Step, V1Step
TestParameter, Measurement.Primary.Compliance, I1Limit
TestParameter, Measurement.Primary.PowerCompliance, 0
TestParameter, Measurement.Aborting.Condition, CONTINUE AT ANY
TestParameter, Measurement.PostOutput.Value, START
TestParameter, Measurement.PostOutput.Retention, OFF
TestParameter, Measurement.Bias.Source, 0, V2
TestParameter, Measurement.Bias.Compliance, 0.01, I1Limit
TestParameter, Measurement.Monitor.Unit, SMU:=Port1, SMU:=Port2
TestParameter, Measurement.Monitor.Adc, HR ADC, HR ADC
TestParameter, Measurement.Monitor.Measurement, Compliance Side, Compliance Side
TestParameter, Measurement.Monitor.RangingMode, LIMITED, LIMITED
TestParameter, Measurement.Monitor.RangeBoundary, Port1MinRng, 1nA
TestParameter, Measurement.Monitor.RangeRating, BY FULL RANGE, BY FULL RANGE
TestParameter, Measurement.Monitor.RangeRatingCoeff, 50, 50
TestParameter, Measurement.Timing.Hold, HoldTime
TestParameter, Measurement.Timing.Delay, DelayTime
TestParameter, Measurement.Adc.HighSpeed.Mode, AUTO
TestParameter, Measurement.Adc.HighSpeed.Coeff, 1
TestParameter, Measurement.Adc.HighResolution.AutoZero, ON
TestParameter, Measurement.Adc.HighResolution.Mode, IntegMode
TestParameter, Measurement.Adc.HighResolution.Coeff, AdcFactor
TestParameter, Measurement.WaitTime.Source.Coeff, 1
TestParameter, Measurement.WaitTime.Source.Offset, 0
TestParameter, Measurement.WaitTime.Monitor.Coeff, 1
TestParameter, Measurement.WaitTime.Monitor.Offset, 0
TestParameter, Function.User.Name, R, Rsheet
TestParameter, Function.User.Unit, ohm, ohm/sheet
TestParameter, Function.User.Definition, V1/I1, R*W/L
TestParameter, Output.Graph.Enabled, true
TestParameter, Output.Graph.AutoScaling, false
TestParameter, Output.Graph.XAxis.Data, V1
TestParameter, Output.Graph.XAxis.Scale, Linear
TestParameter, Output.Graph.XAxis.Left, V1Start
TestParameter, Output.Graph.XAxis.Right, V1Stop
TestParameter, Output.Graph.XAxis.RunTimeAutoScale, false
TestParameter, Output.Graph.YAxis.Data, R, I1
TestParameter, Output.Graph.YAxis.Scale, Linear, Linear
TestParameter, Output.Graph.YAxis.Bottom, 0, 0
TestParameter, Output.Graph.YAxis.Top, V1Stop/I1Limit, I1Limit
TestParameter, Output.Graph.YAxis.Group, , 
TestParameter, Output.Graph.YAxis.RunTimeAutoScale, false, false
TestParameter, Output.List.Data, V1, I1, R, Rsheet
TestParameter, AutoAnalysis.Interpolation, false
TestParameter, AutoAnalysis.Line1.Enabled, false
TestParameter, AutoAnalysis.Line1.Type, 1
TestParameter, AutoAnalysis.Line1.Fix, False
TestParameter, AutoAnalysis.Line1.YAxis, 0
TestParameter, AutoAnalysis.Line1.Point1.Type, 0
TestParameter, AutoAnalysis.Line1.Point1.XY.X, 
TestParameter, AutoAnalysis.Line1.Point1.XY.Y, 
TestParameter, AutoAnalysis.Line1.Point1.Data.Var, 
TestParameter, AutoAnalysis.Line1.Point1.Data.Condition, 
TestParameter, AutoAnalysis.Line1.Point1.Data.Start, false
TestParameter, AutoAnalysis.Line1.Point1.Data.StartVar, 
TestParameter, AutoAnalysis.Line1.Point1.Data.StartCondition, 
TestParameter, AutoAnalysis.Line1.Point2.Type, 0
TestParameter, AutoAnalysis.Line1.Point2.XY.X, 
TestParameter, AutoAnalysis.Line1.Point2.XY.Y, 
TestParameter, AutoAnalysis.Line1.Point2.Data.Var, 
TestParameter, AutoAnalysis.Line1.Point2.Data.Condition, 
TestParameter, AutoAnalysis.Line1.Point2.Data.Start, false
TestParameter, AutoAnalysis.Line1.Point2.Data.StartVar, 
TestParameter, AutoAnalysis.Line1.Point2.Data.StartCondition, 
TestParameter, AutoAnalysis.Line1.GradientExpr, 0
TestParameter, AutoAnalysis.Line2.Enabled, false
TestParameter, AutoAnalysis.Line2.Type, 1
TestParameter, AutoAnalysis.Line2.Fix, False
TestParameter, AutoAnalysis.Line2.YAxis, 0
TestParameter, AutoAnalysis.Line2.Point1.Type, 0
TestParameter, AutoAnalysis.Line2.Point1.XY.X, 
TestParameter, AutoAnalysis.Line2.Point1.XY.Y, 
TestParameter, AutoAnalysis.Line2.Point1.Data.Var, 
TestParameter, AutoAnalysis.Line2.Point1.Data.Condition, 
TestParameter, AutoAnalysis.Line2.Point1.Data.Start, false
TestParameter, AutoAnalysis.Line2.Point1.Data.StartVar, 
TestParameter, AutoAnalysis.Line2.Point1.Data.StartCondition, 
TestParameter, AutoAnalysis.Line2.Point2.Type, 0
TestParameter, AutoAnalysis.Line2.Point2.XY.X, 
TestParameter, AutoAnalysis.Line2.Point2.XY.Y, 
TestParameter, AutoAnalysis.Line2.Point2.Data.Var, 
TestParameter, AutoAnalysis.Line2.Point2.Data.Condition, 
TestParameter, AutoAnalysis.Line2.Point2.Data.Start, false
TestParameter, AutoAnalysis.Line2.Point2.Data.StartVar, 
TestParameter, AutoAnalysis.Line2.Point2.Data.StartCondition, 
TestParameter, AutoAnalysis.Line2.GradientExpr, 0
TestParameter, AutoAnalysis.Marker.Enabled, false
TestParameter, AutoAnalysis.Marker.Data.Var, 
TestParameter, AutoAnalysis.Marker.Data.Condition, 
TestParameter, AutoAnalysis.Marker.Data.Start, false
TestParameter, AutoAnalysis.Marker.Data.StartVar, 
TestParameter, AutoAnalysis.Marker.Data.StartCondition, 
MetaData, TestRecord.EntryPoint, false
MetaData, TestRecord.RecordTime, 03/04/2023 16:39:55
MetaData, TestRecord.TestTarget, 
MetaData, TestRecord.IterationIndex, 59
MetaData, TestRecord.Preservation, true
MetaData, TestRecord.Flag, 
MetaData, TestRecord.Remarks, 
MetaData, TestRecord.LinkKey, 6eb1ad56-2e94-44db-9bbe-d5e2ba592ea6
Dimension1, 21, 21, 21, 21
Dimension2, 1, 1, 1, 1
DataName, V1, I1, R, Rsheet
DataValue, 0, 1.2600000000000002E-13, 0, 0
DataValue, 0.05, 7.51E-13, 66577896138.482025, 6657789613.8482027
DataValue, 0.1, 9.5600000000000017E-13, 104602510460.25104, 10460251046.025103
DataValue, 0.15, 1.069E-12, 140318054256.3143, 14031805425.631428
DataValue, 0.2, 1.226E-12, 163132137030.99512, 16313213703.099508
DataValue, 0.25, 1.4440000000000001E-12, 173130193905.81717, 17313019390.581715
DataValue, 0.3, 1.4840000000000001E-12, 202156334231.80591, 20215633423.180588
DataValue, 0.35000000000000003, 1.349E-12, 259451445515.19647, 25945144551.519642
DataValue, 0.4, 1.6430000000000002E-12, 243457090687.76627, 24345709068.776623
DataValue, 0.45, 1.579E-12, 284990500316.65613, 28499050031.665611
DataValue, 0.5, 1.5280000000000002E-12, 327225130890.05231, 32722513089.005226
DataValue, 0.55, 1.7000000000000002E-12, 323529411764.70587, 32352941176.470581
DataValue, 0.6, 1.815E-12, 330578512396.69421, 33057851239.669418
DataValue, 0.65, 1.7850000000000002E-12, 364145658263.3053, 36414565826.330521
DataValue, 0.70000000000000007, 1.8230000000000002E-12, 383982446516.73065, 38398244651.673065
DataValue, 0.75, 2.219E-12, 337990085624.155, 33799008562.415497
DataValue, 0.8, 2.047E-12, 390815828041.03564, 39081582804.103561
DataValue, 0.85000000000000009, 1.9990000000000003E-12, 425212606303.15155, 42521260630.315147
DataValue, 0.9, 2.368E-12, 380067567567.56757, 38006756756.756752
DataValue, 0.95000000000000007, 2.2250000000000003E-12, 426966292134.83142, 42696629213.483139
DataValue, 1, 2.2660000000000002E-12, 441306266548.98492, 44130626654.898491