
SetupTitle, ID-VG Postbreak
PrimitiveTest, I/V Sweep
TestParameter, Context.MainFrame, B1500A
TestParameter, Channel.UnitType, SMU, SMU
TestParameter, Channel.Unit, SMU1:MP, SMU2:MP
TestParameter, Channel.IName, I1, I2
TestParameter, Channel.VName, V1, V2
TestParameter, Channel.Mode, V, V
TestParameter, Channel.Func, VAR1, CONST
TestParameter, Channel.Index, 
TestParameter, Channel.Time, 
TestParameter, Measurement.Port.Unit, SMU1:MP, SMU2:MP
TestParameter, Measurement.Port.SeriesResistor, NONE, NONE
TestParameter, Measurement.Port.Filter, ON, ON
TestParameter, Measurement.Port.OutputVoltageComparison, 0, 0
TestParameter, Measurement.Primary.Locus, Double
TestParameter, Measurement.Primary.Scale, LINEAR
TestParameter, Measurement.Primary.Start, -2
TestParameter, Measurement.Primary.Stop, 6
TestParameter, Measurement.Primary.Step, 0.04
TestParameter, Measurement.Primary.Compliance, 0.1
TestParameter, Measurement.Primary.PowerCompliance, 0
TestParameter, Measurement.Aborting.Condition, CONTINUE AT ANY
TestParameter, Measurement.PostOutput.Value, START
TestParameter, Measurement.PostOutput.Retention, OFF
TestParameter, Measurement.Bias.Source, -2, 0.25
TestParameter, Measurement.Bias.Compliance, 0.1, 0.1
TestParameter, Measurement.Monitor.Unit, SMU1:MP, SMU2:MP
TestParameter, Measurement.Monitor.Adc, HR ADC, HR ADC
TestParameter, Measurement.Monitor.Measurement, Compliance Side, Compliance Side
TestParameter, Measurement.Monitor.RangingMode, LIMITED, LIMITED
TestParameter, Measurement.Monitor.RangeBoundary, 1nA, 1nA
TestParameter, Measurement.Monitor.RangeRating, BY FULL RANGE, BY FULL RANGE
TestParameter, Measurement.Monitor.RangeRatingCoeff, 50, 50
TestParameter, Measurement.Timing.Hold, 0
TestParameter, Measurement.Timing.Delay, 0
TestParameter, Measurement.Adc.HighSpeed.Mode, AUTO
TestParameter, Measurement.Adc.HighSpeed.Coeff, 1
TestParameter, Measurement.Adc.HighResolution.AutoZero, OFF
TestParameter, Measurement.Adc.HighResolution.Mode, AUTO
TestParameter, Measurement.Adc.HighResolution.Coeff, 6
TestParameter, Measurement.WaitTime.Source.Coeff, 1
TestParameter, Measurement.WaitTime.Source.Offset, 0
TestParameter, Measurement.WaitTime.Monitor.Coeff, 1
TestParameter, Measurement.WaitTime.Monitor.Offset, 0
TestParameter, Output.Graph.Enabled, true
TestParameter, Output.Graph.AutoScaling, false
TestParameter, Output.Graph.XAxis.Data, V1
TestParameter, Output.Graph.XAxis.Scale, Linear
TestParameter, Output.Graph.XAxis.Left, -2
TestParameter, Output.Graph.XAxis.Right, 6
TestParameter, Output.Graph.XAxis.RunTimeAutoScale, true
TestParameter, Output.Graph.YAxis.Data, I2
TestParameter, Output.Graph.YAxis.Scale, Linear
TestParameter, Output.Graph.YAxis.Bottom, -0.1
TestParameter, Output.Graph.YAxis.Top, 0.1
TestParameter, Output.Graph.YAxis.Group, 
TestParameter, Output.Graph.YAxis.RunTimeAutoScale, true
TestParameter, Output.List.Data, V1, I1, V2, I2, V3, I3, V4, I4
TestParameter, AutoAnalysis.Interpolation, false
TestParameter, AutoAnalysis.Line1.Enabled, false
TestParameter, AutoAnalysis.Line1.Type, 1
TestParameter, AutoAnalysis.Line1.Fix, True
TestParameter, AutoAnalysis.Line1.YAxis, 0
TestParameter, AutoAnalysis.Line1.Point1.Type, 0
TestParameter, AutoAnalysis.Line1.Point1.XY.X, 
TestParameter, AutoAnalysis.Line1.Point1.XY.Y, 
TestParameter, AutoAnalysis.Line1.Point1.Data.Var, 
TestParameter, AutoAnalysis.Line1.Point1.Data.Condition, 
TestParameter, AutoAnalysis.Line1.Point1.Data.Start, false
TestParameter, AutoAnalysis.Line1.Point1.Data.StartVar, 
TestParameter, AutoAnalysis.Line1.Point1.Data.StartCondition, 
TestParameter, AutoAnalysis.Line1.Point2.Type, 0
TestParameter, AutoAnalysis.Line1.Point2.XY.X, 
TestParameter, AutoAnalysis.Line1.Point2.XY.Y, 
TestParameter, AutoAnalysis.Line1.Point2.Data.Var, 
TestParameter, AutoAnalysis.Line1.Point2.Data.Condition, 
TestParameter, AutoAnalysis.Line1.Point2.Data.Start, false
TestParameter, AutoAnalysis.Line1.Point2.Data.StartVar, 
TestParameter, AutoAnalysis.Line1.Point2.Data.StartCondition, 
TestParameter, AutoAnalysis.Line1.GradientExpr, 0
TestParameter, AutoAnalysis.Line2.Enabled, false
TestParameter, AutoAnalysis.Line2.Type, 1
TestParameter, AutoAnalysis.Line2.Fix, True
TestParameter, AutoAnalysis.Line2.YAxis, 0
TestParameter, AutoAnalysis.Line2.Point1.Type, 0
TestParameter, AutoAnalysis.Line2.Point1.XY.X, 
TestParameter, AutoAnalysis.Line2.Point1.XY.Y, 
TestParameter, AutoAnalysis.Line2.Point1.Data.Var, 
TestParameter, AutoAnalysis.Line2.Point1.Data.Condition, 
TestParameter, AutoAnalysis.Line2.Point1.Data.Start, false
TestParameter, AutoAnalysis.Line2.Point1.Data.StartVar, 
TestParameter, AutoAnalysis.Line2.Point1.Data.StartCondition, 
TestParameter, AutoAnalysis.Line2.Point2.Type, 0
TestParameter, AutoAnalysis.Line2.Point2.XY.X, 
TestParameter, AutoAnalysis.Line2.Point2.XY.Y, 
TestParameter, AutoAnalysis.Line2.Point2.Data.Var, 
TestParameter, AutoAnalysis.Line2.Point2.Data.Condition, 
TestParameter, AutoAnalysis.Line2.Point2.Data.Start, false
TestParameter, AutoAnalysis.Line2.Point2.Data.StartVar, 
TestParameter, AutoAnalysis.Line2.Point2.Data.StartCondition, 
TestParameter, AutoAnalysis.Line2.GradientExpr, 0
TestParameter, AutoAnalysis.Marker.Enabled, false
TestParameter, AutoAnalysis.Marker.Data.Var, 
TestParameter, AutoAnalysis.Marker.Data.Condition, 
TestParameter, AutoAnalysis.Marker.Data.Start, false
TestParameter, AutoAnalysis.Marker.Data.StartVar, 
TestParameter, AutoAnalysis.Marker.Data.StartCondition, 
MetaData, TestRecord.EntryPoint, true
MetaData, TestRecord.RecordTime, 03/10/2023 17:03:13
MetaData, TestRecord.TestTarget, 
MetaData, TestRecord.IterationIndex, 33
MetaData, TestRecord.Preservation, true
MetaData, TestRecord.Flag, 
MetaData, TestRecord.Remarks, 
MetaData, TestRecord.LinkKey, aebc0158-c122-4232-b905-90f2a5ae4581
Dimension1, 402, 402, 402, 402, 402, 402, 402, 402
Dimension2, 1, 1, 1, 1, 1, 1, 1, 1
DataName, V1, V2, I1, I2, V3, I3, V4, I4
DataValue, -2, 0.25, -3.1697000000000004E-10, 2.316E-10, , , , 
DataValue, -1.96, 0.25, -1.7949000000000002E-10, 1.9587000000000002E-10, , , , 
DataValue, -1.92, 0.25, -1.5107E-10, 1.6961000000000002E-10, , , , 
DataValue, -1.8800000000000001, 0.25, -1.3023E-10, 1.4895000000000001E-10, , , , 
DataValue, -1.84, 0.25, -1.1142000000000001E-10, 1.3078E-10, , , , 
DataValue, -1.8, 0.25, -9.639E-11, 1.1528000000000001E-10, , , , 
DataValue, -1.76, 0.25, -8.3440000000000011E-11, 1.0266000000000001E-10, , , , 
DataValue, -1.72, 0.25, -7.045E-11, 9.101E-11, , , , 
DataValue, -1.68, 0.25, -6.0390000000000011E-11, 8.0330000000000008E-11, , , , 
DataValue, -1.6400000000000001, 0.25, -5.0670000000000004E-11, 7.008E-11, , , , 
DataValue, -1.6, 0.25, -4.2700000000000005E-11, 6.093E-11, , , , 
DataValue, -1.56, 0.25, -3.4170000000000003E-11, 5.4640000000000005E-11, , , , 
DataValue, -1.52, 0.25, -2.7830000000000002E-11, 4.9190000000000007E-11, , , , 
DataValue, -1.48, 0.25, -2.1280000000000003E-11, 4.1860000000000005E-11, , , , 
DataValue, -1.44, 0.25, -1.602E-11, 3.5600000000000005E-11, , , , 
DataValue, -1.4000000000000001, 0.25, -1.1640000000000001E-11, 3.1450000000000005E-11, , , , 
DataValue, -1.36, 0.25, -6.5200000000000005E-12, 2.7590000000000002E-11, , , , 
DataValue, -1.32, 0.25, -3.3400000000000003E-12, 2.4230000000000003E-11, , , , 
DataValue, -1.28, 0.25, 7.4000000000000008E-13, 1.923E-11, , , , 
DataValue, -1.24, 0.25, 3.2E-12, 1.509E-11, , , , 
DataValue, -1.2, 0.25, 6.6300000000000006E-12, 1.383E-11, , , , 
DataValue, -1.16, 0.25, 9.15E-12, 1.2460000000000001E-11, , , , 
DataValue, -1.12, 0.25, 1.137E-11, 8.7900000000000011E-12, , , , 
DataValue, -1.08, 0.25, 1.4190000000000002E-11, 5.7800000000000008E-12, , , , 
DataValue, -1.04, 0.25, 1.5540000000000002E-11, 5.2600000000000006E-12, , , , 
DataValue, -1, 0.25, 1.715E-11, 3.82E-12, , , , 
DataValue, -0.96, 0.25, 1.9530000000000003E-11, 2.8600000000000003E-12, , , , 
DataValue, -0.92, 0.25, 2.0400000000000002E-11, 0, , , , 
DataValue, -0.88, 0.25, 2.1280000000000003E-11, -2.5600000000000004E-12, , , , 
DataValue, -0.84, 0.25, 2.336E-11, -1.3300000000000002E-12, , , , 
DataValue, -0.8, 0.25, 2.345E-11, -1.74E-12, , , , 
DataValue, -0.76, 0.25, 2.4240000000000002E-11, -3.86E-12, , , , 
DataValue, -0.72, 0.25, 2.6470000000000003E-11, -5.1500000000000005E-12, , , , 
DataValue, -0.68, 0.25, 2.5960000000000003E-11, -5.38E-12, , , , 
DataValue, -0.64, 0.25, 2.717E-11, -5.1200000000000008E-12, , , , 
DataValue, -0.6, 0.25, 2.7100000000000002E-11, -5.8700000000000006E-12, , , , 
DataValue, -0.56, 0.25, 2.8160000000000003E-11, -7.44E-12, , , , 
DataValue, -0.52, 0.25, 2.775E-11, -8.23E-12, , , , 
DataValue, -0.48, 0.25, 2.9110000000000003E-11, -7.5800000000000012E-12, , , , 
DataValue, -0.44, 0.25, 3.0020000000000003E-11, -7.4600000000000009E-12, , , , 
DataValue, -0.4, 0.25, 3.0280000000000004E-11, -8.4000000000000014E-12, , , , 
DataValue, -0.36, 0.25, 3.0420000000000003E-11, -9.46E-12, , , , 
DataValue, -0.32, 0.25, 3.0390000000000004E-11, -1.0320000000000001E-11, , , , 
DataValue, -0.28, 0.25, 3.1380000000000006E-11, -8.51E-12, , , , 
DataValue, -0.24, 0.25, 3.128E-11, -9.77E-12, , , , 
DataValue, -0.2, 0.25, 3.183E-11, -1.058E-11, , , , 
DataValue, -0.16, 0.25, 3.158E-11, -1.2160000000000002E-11, , , , 
DataValue, -0.12, 0.25, 3.154E-11, -1.1120000000000001E-11, , , , 
DataValue, -0.08, 0.25, 3.1960000000000005E-11, -1.0110000000000001E-11, , , , 
DataValue, -0.04, 0.25, 3.27E-11, -1.147E-11, , , , 
DataValue, 0, 0.25, 3.293E-11, -1.289E-11, , , , 
DataValue, 0.04, 0.25, 3.23E-11, -1.178E-11, , , , 
DataValue, 0.08, 0.25, 3.365E-11, -1.128E-11, , , , 
DataValue, 0.12, 0.25, 3.34E-11, -1.178E-11, , , , 
DataValue, 0.16, 0.25, 3.4540000000000004E-11, -1.2980000000000002E-11, , , , 
DataValue, 0.2, 0.25, 3.351E-11, -1.4460000000000001E-11, , , , 
DataValue, 0.24, 0.25, 3.408E-11, -1.3050000000000001E-11, , , , 
DataValue, 0.28, 0.25, 3.482E-11, -1.249E-11, , , , 
DataValue, 0.32, 0.25, 3.5450000000000004E-11, -1.3600000000000002E-11, , , , 
DataValue, 0.36, 0.25, 3.4830000000000004E-11, -1.5120000000000002E-11, , , , 
DataValue, 0.4, 0.25, 3.477E-11, -1.4350000000000001E-11, , , , 
DataValue, 0.44, 0.25, 3.6470000000000004E-11, -1.351E-11, , , , 
DataValue, 0.48, 0.25, 3.5850000000000004E-11, -1.313E-11, , , , 
DataValue, 0.52, 0.25, 3.6760000000000004E-11, -1.454E-11, , , , 
DataValue, 0.56, 0.25, 3.646E-11, -1.6030000000000002E-11, , , , 
DataValue, 0.6, 0.25, 3.707E-11, -1.573E-11, , , , 
DataValue, 0.64, 0.25, 3.726E-11, -1.4940000000000002E-11, , , , 
DataValue, 0.68, 0.25, 3.776E-11, -1.6180000000000003E-11, , , , 
DataValue, 0.72, 0.25, 3.806E-11, -1.801E-11, , , , 
DataValue, 0.76, 0.25, 3.8140000000000003E-11, -1.724E-11, , , , 
DataValue, 0.8, 0.25, 3.914E-11, -1.633E-11, , , , 
DataValue, 0.84, 0.25, 3.9500000000000006E-11, -1.639E-11, , , , 
DataValue, 0.88, 0.25, 4.0290000000000004E-11, -1.808E-11, , , , 
DataValue, 0.92, 0.25, 3.995E-11, -1.988E-11, , , , 
DataValue, 0.96, 0.25, 4.0220000000000004E-11, -1.8600000000000002E-11, , , , 
DataValue, 1, 0.25, 4.151E-11, -1.857E-11, , , , 
DataValue, 1.04, 0.25, 4.144E-11, -1.9690000000000002E-11, , , , 
DataValue, 1.08, 0.25, 4.297E-11, -2.1090000000000002E-11, , , , 
DataValue, 1.12, 0.25, 4.2730000000000004E-11, -2.2150000000000002E-11, , , , 
DataValue, 1.16, 0.25, 4.4010000000000005E-11, -2.1730000000000002E-11, , , , 
DataValue, 1.2, 0.25, 4.475E-11, -2.1390000000000003E-11, , , , 
DataValue, 1.24, 0.25, 4.5330000000000007E-11, -2.316E-11, , , , 
DataValue, 1.28, 0.25, 4.5210000000000005E-11, -2.4850000000000003E-11, , , , 
DataValue, 1.32, 0.25, 4.6120000000000005E-11, -2.4190000000000003E-11, , , , 
DataValue, 1.36, 0.25, 4.6780000000000005E-11, -2.5010000000000003E-11, , , , 
DataValue, 1.4000000000000001, 0.25, 4.8280000000000007E-11, -2.611E-11, , , , 
DataValue, 1.44, 0.25, 4.895E-11, -2.7590000000000002E-11, , , , 
DataValue, 1.48, 0.25, 4.974E-11, -2.8780000000000003E-11, , , , 
DataValue, 1.52, 0.25, 5.146E-11, -2.8340000000000002E-11, , , , 
DataValue, 1.56, 0.25, 5.1910000000000005E-11, -2.9630000000000005E-11, , , , 
DataValue, 1.6, 0.25, 5.339E-11, -3.121E-11, , , , 
DataValue, 1.6400000000000001, 0.25, 5.3810000000000006E-11, -3.376E-11, , , , 
DataValue, 1.68, 0.25, 5.4940000000000006E-11, -3.2680000000000004E-11, , , , 
DataValue, 1.72, 0.25, 5.6580000000000006E-11, -3.3520000000000004E-11, , , , 
DataValue, 1.76, 0.25, 5.7770000000000004E-11, -3.532E-11, , , , 
DataValue, 1.8, 0.25, 5.8040000000000007E-11, -3.758E-11, , , , 
DataValue, 1.84, 0.25, 5.9700000000000011E-11, -3.77E-11, , , , 
DataValue, 1.8800000000000001, 0.25, 6.143E-11, -3.896E-11, , , , 
DataValue, 1.92, 0.25, 6.226E-11, -4.0300000000000006E-11, , , , 
DataValue, 1.96, 0.25, 6.422E-11, -4.3E-11, , , , 
DataValue, 2, 0.25, 6.484E-11, -4.512E-11, , , , 
DataValue, 2.04, 0.25, 6.6790000000000009E-11, -4.5110000000000006E-11, , , , 
DataValue, 2.08, 0.25, 6.915E-11, -4.531E-11, , , , 
DataValue, 2.12, 0.25, 7.108E-11, -4.898E-11, , , , 
DataValue, 2.16, 0.25, 7.2660000000000011E-11, -5.1950000000000005E-11, , , , 
DataValue, 2.2, 0.25, 7.382000000000001E-11, -5.2740000000000003E-11, , , , 
DataValue, 2.24, 0.25, 7.664E-11, -5.386E-11, , , , 
DataValue, 2.2800000000000002, 0.25, 7.848000000000001E-11, -5.6030000000000006E-11, , , , 
DataValue, 2.32, 0.25, 8.0820000000000011E-11, -5.8960000000000009E-11, , , , 
DataValue, 2.36, 0.25, 8.277E-11, -6.2820000000000009E-11, , , , 
DataValue, 2.4, 0.25, 8.594E-11, -6.311E-11, , , , 
DataValue, 2.44, 0.25, 8.8330000000000007E-11, -6.585000000000001E-11, , , , 
DataValue, 2.48, 0.25, 9.214E-11, -7.005E-11, , , , 
DataValue, 2.52, 0.25, 9.4450000000000007E-11, -7.3490000000000009E-11, , , , 
DataValue, 2.56, 0.25, 9.7250000000000013E-11, -7.5720000000000011E-11, , , , 
DataValue, 2.6, 0.25, 1.0124E-10, -7.8620000000000009E-11, , , , 
DataValue, 2.64, 0.25, 1.0534000000000001E-10, -8.288E-11, , , , 
DataValue, 2.68, 0.25, 1.0999000000000001E-10, -8.8160000000000009E-11, , , , 
DataValue, 2.72, 0.25, 1.1376E-10, -9.3870000000000008E-11, , , , 
DataValue, 2.7600000000000002, 0.25, 1.1924000000000002E-10, -9.722E-11, , , , 
DataValue, 2.8000000000000003, 0.25, 1.2623E-10, -1.0302000000000001E-10, , , , 
DataValue, 2.84, 0.25, 1.3211000000000002E-10, -1.1033000000000001E-10, , , , 
DataValue, 2.88, 0.25, 1.3994E-10, -1.1908000000000002E-10, , , , 
DataValue, 2.92, 0.25, 1.4789000000000002E-10, -1.271E-10, , , , 
DataValue, 2.96, 0.25, 1.5785E-10, -1.3465000000000002E-10, , , , 
DataValue, 3, 0.25, 1.6744000000000002E-10, -1.4510000000000002E-10, , , , 
DataValue, 3.04, 0.25, 1.7908000000000002E-10, -1.5752000000000002E-10, , , , 
DataValue, 3.08, 0.25, 1.8936E-10, -1.6895000000000002E-10, , , , 
DataValue, 3.12, 0.25, 2.0044E-10, -1.7887000000000002E-10, , , , 
DataValue, 3.16, 0.25, 2.1293E-10, -1.9148000000000002E-10, , , , 
DataValue, 3.2, 0.25, 2.2557000000000003E-10, -2.0400000000000002E-10, , , , 
DataValue, 3.24, 0.25, 2.3863000000000003E-10, -2.1824000000000001E-10, , , , 
DataValue, 3.2800000000000002, 0.25, 2.5171E-10, -2.3176E-10, , , , 
DataValue, 3.3200000000000003, 0.25, 2.6697E-10, -2.4349E-10, , , , 
DataValue, 3.36, 0.25, 2.8031000000000004E-10, -2.5763E-10, , , , 
DataValue, 3.4, 0.25, 2.958E-10, -2.7321000000000003E-10, , , , 
DataValue, 3.44, 0.25, 3.1038E-10, -2.8966E-10, , , , 
DataValue, 3.48, 0.25, 3.2605000000000003E-10, -3.0326000000000005E-10, , , , 
DataValue, 3.52, 0.25, 3.4114E-10, -3.1846E-10, , , , 
DataValue, 3.56, 0.25, 3.5649000000000003E-10, -3.3449000000000005E-10, , , , 
DataValue, 3.6, 0.25, 3.7205E-10, -3.5045E-10, , , , 
DataValue, 3.64, 0.25, 3.8722000000000003E-10, -3.6703E-10, , , , 
DataValue, 3.68, 0.25, 4.0437E-10, -3.8173000000000004E-10, , , , 
DataValue, 3.72, 0.25, 4.2080000000000004E-10, -3.9891E-10, , , , 
DataValue, 3.7600000000000002, 0.25, 4.3824000000000003E-10, -4.1660000000000004E-10, , , , 
DataValue, 3.8000000000000003, 0.25, 4.5425000000000006E-10, -4.3475E-10, , , , 
DataValue, 3.84, 0.25, 4.713E-10, -4.5006000000000005E-10, , , , 
DataValue, 3.88, 0.25, 4.8895000000000005E-10, -4.6658000000000006E-10, , , , 
DataValue, 3.92, 0.25, 5.0612E-10, -4.8438E-10, , , , 
DataValue, 3.96, 0.25, 5.2453E-10, -5.0312E-10, , , , 
DataValue, 4, 0.25, 5.417E-10, -5.2108E-10, , , , 
DataValue, 4.04, 0.25, 5.5965E-10, -5.3709000000000006E-10, , , , 
DataValue, 4.08, 0.25, 5.7696E-10, -5.5582E-10, , , , 
DataValue, 4.12, 0.25, 5.9606E-10, -5.7493E-10, , , , 
DataValue, 4.16, 0.25, 6.1339000000000009E-10, -5.9365E-10, , , , 
DataValue, 4.2, 0.25, 6.331E-10, -6.1103E-10, , , , 
DataValue, 4.24, 0.25, 6.5189E-10, -6.2868E-10, , , , 
DataValue, 4.28, 0.25, 6.6974E-10, -6.4821000000000008E-10, , , , 
DataValue, 4.32, 0.25, 6.8931000000000007E-10, -6.6783000000000006E-10, , , , 
DataValue, 4.36, 0.25, 7.0745000000000007E-10, -6.8673000000000007E-10, , , , 
DataValue, 4.4, 0.25, 7.2632E-10, -7.035600000000001E-10, , , , 
DataValue, 4.44, 0.25, 7.445400000000001E-10, -7.2219000000000007E-10, , , , 
DataValue, 4.48, 0.25, 7.6379000000000011E-10, -7.431E-10, , , , 
DataValue, 4.5200000000000005, 0.25, 7.8356E-10, -7.6359E-10, , , , 
DataValue, 4.5600000000000005, 0.25, 8.0284000000000009E-10, -7.8024000000000009E-10, , , , 
DataValue, 4.6000000000000005, 0.25, 8.2196E-10, -8.000200000000001E-10, , , , 
DataValue, 4.64, 0.25, 8.4143000000000006E-10, -8.1915000000000011E-10, , , , 
DataValue, 4.68, 0.25, 8.6130000000000012E-10, -8.3975E-10, , , , 
DataValue, 4.72, 0.25, 8.809E-10, -8.5881000000000006E-10, , , , 
DataValue, 4.76, 0.25, 9.0051E-10, -8.7768000000000012E-10, , , , 
DataValue, 4.8, 0.25, 9.2071000000000012E-10, -8.977700000000001E-10, , , , 
DataValue, 4.84, 0.25, 9.402700000000001E-10, -9.1834000000000006E-10, , , , 
DataValue, 4.88, 0.25, 9.6052000000000011E-10, -9.4019E-10, , , , 
DataValue, 4.92, 0.25, 9.8169000000000015E-10, -9.5942E-10, , , , 
DataValue, 4.96, 0.25, 1.0034800000000001E-09, -9.7979E-10, , , , 
DataValue, 5, 0.25, 1.0239200000000001E-09, -1.00185E-09, , , , 
DataValue, 5.04, 0.25, 1.04537E-09, -1.02471E-09, , , , 
DataValue, 5.08, 0.25, 1.06699E-09, -1.04513E-09, , , , 
DataValue, 5.12, 0.25, 1.0887900000000001E-09, -1.06581E-09, , , , 
DataValue, 5.16, 0.25, 1.102E-09, -1.0819200000000001E-09, , , , 
DataValue, 5.2, 0.25, 1.1273E-09, -1.0979E-09, , , , 
DataValue, 5.24, 0.25, 1.1446E-09, -1.1215E-09, , , , 
DataValue, 5.28, 0.25, 1.1673E-09, -1.1448E-09, , , , 
DataValue, 5.32, 0.25, 1.1912E-09, -1.1676E-09, , , , 
DataValue, 5.36, 0.25, 1.2139E-09, -1.1903E-09, , , , 
DataValue, 5.4, 0.25, 1.237E-09, -1.2132E-09, , , , 
DataValue, 5.44, 0.25, 1.259E-09, -1.2365E-09, , , , 
DataValue, 5.48, 0.25, 1.2833E-09, -1.2593E-09, , , , 
DataValue, 5.5200000000000005, 0.25, 1.3067E-09, -1.2831E-09, , , , 
DataValue, 5.5600000000000005, 0.25, 1.3278E-09, -1.3041E-09, , , , 
DataValue, 5.6000000000000005, 0.25, 1.3508E-09, -1.3278E-09, , , , 
DataValue, 5.64, 0.25, 1.3732E-09, -1.3496E-09, , , , 
DataValue, 5.68, 0.25, 1.3946E-09, -1.372E-09, , , , 
DataValue, 5.72, 0.25, 1.4182E-09, -1.3924E-09, , , , 
DataValue, 5.76, 0.25, 1.4393E-09, -1.4149E-09, , , , 
DataValue, 5.8, 0.25, 1.4608E-09, -1.4365E-09, , , , 
DataValue, 5.84, 0.25, 1.4826E-09, -1.4576E-09, , , , 
DataValue, 5.88, 0.25, 1.5018E-09, -1.4783E-09, , , , 
DataValue, 5.92, 0.25, 1.5232E-09, -1.5003E-09, , , , 
DataValue, 5.96, 0.25, 1.5438E-09, -1.5198E-09, , , , 
DataValue, 6, 0.25, 1.5677E-09, -1.5437E-09, , , , 
DataValue, 6, 0.25, 1.562E-09, -1.5373E-09, , , , 
DataValue, 5.96, 0.25, 1.5079E-09, -1.4855E-09, , , , 
DataValue, 5.92, 0.25, 1.4584E-09, -1.4354E-09, , , , 
DataValue, 5.88, 0.25, 1.4171E-09, -1.3962E-09, , , , 
