
SetupTitle, ID-VG Postbreak
PrimitiveTest, I/V Sweep
TestParameter, Context.MainFrame, B1500A
TestParameter, Channel.UnitType, SMU, SMU
TestParameter, Channel.Unit, SMU1:MP, SMU2:MP
TestParameter, Channel.IName, I1, I2
TestParameter, Channel.VName, V1, V2
TestParameter, Channel.Mode, V, V
TestParameter, Channel.Func, VAR1, CONST
TestParameter, Channel.Index, 
TestParameter, Channel.Time, 
TestParameter, Measurement.Port.Unit, SMU1:MP, SMU2:MP
TestParameter, Measurement.Port.SeriesResistor, NONE, NONE
TestParameter, Measurement.Port.Filter, ON, ON
TestParameter, Measurement.Port.OutputVoltageComparison, 0, 0
TestParameter, Measurement.Primary.Locus, Double
TestParameter, Measurement.Primary.Scale, LINEAR
TestParameter, Measurement.Primary.Start, -2
TestParameter, Measurement.Primary.Stop, 20
TestParameter, Measurement.Primary.Step, 0.11
TestParameter, Measurement.Primary.Compliance, 0.1
TestParameter, Measurement.Primary.PowerCompliance, 0
TestParameter, Measurement.Aborting.Condition, CONTINUE AT ANY
TestParameter, Measurement.PostOutput.Value, START
TestParameter, Measurement.PostOutput.Retention, OFF
TestParameter, Measurement.Bias.Source, -2, 0.25
TestParameter, Measurement.Bias.Compliance, 0.1, 0.1
TestParameter, Measurement.Monitor.Unit, SMU1:MP, SMU2:MP
TestParameter, Measurement.Monitor.Adc, HR ADC, HR ADC
TestParameter, Measurement.Monitor.Measurement, Compliance Side, Compliance Side
TestParameter, Measurement.Monitor.RangingMode, LIMITED, LIMITED
TestParameter, Measurement.Monitor.RangeBoundary, 1nA, 1nA
TestParameter, Measurement.Monitor.RangeRating, BY FULL RANGE, BY FULL RANGE
TestParameter, Measurement.Monitor.RangeRatingCoeff, 50, 50
TestParameter, Measurement.Timing.Hold, 0
TestParameter, Measurement.Timing.Delay, 0
TestParameter, Measurement.Adc.HighSpeed.Mode, AUTO
TestParameter, Measurement.Adc.HighSpeed.Coeff, 1
TestParameter, Measurement.Adc.HighResolution.AutoZero, OFF
TestParameter, Measurement.Adc.HighResolution.Mode, AUTO
TestParameter, Measurement.Adc.HighResolution.Coeff, 6
TestParameter, Measurement.WaitTime.Source.Coeff, 1
TestParameter, Measurement.WaitTime.Source.Offset, 0
TestParameter, Measurement.WaitTime.Monitor.Coeff, 1
TestParameter, Measurement.WaitTime.Monitor.Offset, 0
TestParameter, Output.Graph.Enabled, true
TestParameter, Output.Graph.AutoScaling, false
TestParameter, Output.Graph.XAxis.Data, V1
TestParameter, Output.Graph.XAxis.Scale, Linear
TestParameter, Output.Graph.XAxis.Left, -2
TestParameter, Output.Graph.XAxis.Right, 6
TestParameter, Output.Graph.XAxis.RunTimeAutoScale, true
TestParameter, Output.Graph.YAxis.Data, I2
TestParameter, Output.Graph.YAxis.Scale, Linear
TestParameter, Output.Graph.YAxis.Bottom, -0.1
TestParameter, Output.Graph.YAxis.Top, 0.1
TestParameter, Output.Graph.YAxis.Group, 
TestParameter, Output.Graph.YAxis.RunTimeAutoScale, true
TestParameter, Output.List.Data, V1, I1, V2, I2, V3, I3, V4, I4
TestParameter, AutoAnalysis.Interpolation, false
TestParameter, AutoAnalysis.Line1.Enabled, false
TestParameter, AutoAnalysis.Line1.Type, 1
TestParameter, AutoAnalysis.Line1.Fix, True
TestParameter, AutoAnalysis.Line1.YAxis, 0
TestParameter, AutoAnalysis.Line1.Point1.Type, 0
TestParameter, AutoAnalysis.Line1.Point1.XY.X, 
TestParameter, AutoAnalysis.Line1.Point1.XY.Y, 
TestParameter, AutoAnalysis.Line1.Point1.Data.Var, 
TestParameter, AutoAnalysis.Line1.Point1.Data.Condition, 
TestParameter, AutoAnalysis.Line1.Point1.Data.Start, false
TestParameter, AutoAnalysis.Line1.Point1.Data.StartVar, 
TestParameter, AutoAnalysis.Line1.Point1.Data.StartCondition, 
TestParameter, AutoAnalysis.Line1.Point2.Type, 0
TestParameter, AutoAnalysis.Line1.Point2.XY.X, 
TestParameter, AutoAnalysis.Line1.Point2.XY.Y, 
TestParameter, AutoAnalysis.Line1.Point2.Data.Var, 
TestParameter, AutoAnalysis.Line1.Point2.Data.Condition, 
TestParameter, AutoAnalysis.Line1.Point2.Data.Start, false
TestParameter, AutoAnalysis.Line1.Point2.Data.StartVar, 
TestParameter, AutoAnalysis.Line1.Point2.Data.StartCondition, 
TestParameter, AutoAnalysis.Line1.GradientExpr, 0
TestParameter, AutoAnalysis.Line2.Enabled, false
TestParameter, AutoAnalysis.Line2.Type, 1
TestParameter, AutoAnalysis.Line2.Fix, True
TestParameter, AutoAnalysis.Line2.YAxis, 0
TestParameter, AutoAnalysis.Line2.Point1.Type, 0
TestParameter, AutoAnalysis.Line2.Point1.XY.X, 
TestParameter, AutoAnalysis.Line2.Point1.XY.Y, 
TestParameter, AutoAnalysis.Line2.Point1.Data.Var, 
TestParameter, AutoAnalysis.Line2.Point1.Data.Condition, 
TestParameter, AutoAnalysis.Line2.Point1.Data.Start, false
TestParameter, AutoAnalysis.Line2.Point1.Data.StartVar, 
TestParameter, AutoAnalysis.Line2.Point1.Data.StartCondition, 
TestParameter, AutoAnalysis.Line2.Point2.Type, 0
TestParameter, AutoAnalysis.Line2.Point2.XY.X, 
TestParameter, AutoAnalysis.Line2.Point2.XY.Y, 
TestParameter, AutoAnalysis.Line2.Point2.Data.Var, 
TestParameter, AutoAnalysis.Line2.Point2.Data.Condition, 
TestParameter, AutoAnalysis.Line2.Point2.Data.Start, false
TestParameter, AutoAnalysis.Line2.Point2.Data.StartVar, 
TestParameter, AutoAnalysis.Line2.Point2.Data.StartCondition, 
TestParameter, AutoAnalysis.Line2.GradientExpr, 0
TestParameter, AutoAnalysis.Marker.Enabled, false
TestParameter, AutoAnalysis.Marker.Data.Var, 
TestParameter, AutoAnalysis.Marker.Data.Condition, 
TestParameter, AutoAnalysis.Marker.Data.Start, false
TestParameter, AutoAnalysis.Marker.Data.StartVar, 
TestParameter, AutoAnalysis.Marker.Data.StartCondition, 
MetaData, TestRecord.EntryPoint, true
MetaData, TestRecord.RecordTime, 03/10/2023 17:07:43
MetaData, TestRecord.TestTarget, 
MetaData, TestRecord.IterationIndex, 38
MetaData, TestRecord.Preservation, true
MetaData, TestRecord.Flag, 
MetaData, TestRecord.Remarks, 
MetaData, TestRecord.LinkKey, 036d1969-f553-46f9-bc42-d3fba8eac0a7
Dimension1, 402, 402, 402, 402, 402, 402, 402, 402
Dimension2, 1, 1, 1, 1, 1, 1, 1, 1
DataName, V1, V2, I1, I2, V3, I3, V4, I4
DataValue, -2, 0.25, -6E-12, 2.5350000000000002E-11, , , , 
DataValue, -1.8900000000000001, 0.25, -1.59E-12, 2.6570000000000002E-11, , , , 
DataValue, -1.78, 0.25, -2.03E-12, 2.529E-11, , , , 
DataValue, -1.67, 0.25, -1.5400000000000001E-12, 2.5610000000000003E-11, , , , 
DataValue, -1.56, 0.25, -1.8000000000000002E-12, 2.542E-11, , , , 
DataValue, -1.45, 0.25, -2.4000000000000004E-13, 2.631E-11, , , , 
DataValue, -1.34, 0.25, -1.0000000000000002E-14, 2.6590000000000002E-11, , , , 
DataValue, -1.23, 0.25, 3.9000000000000005E-13, 2.4950000000000002E-11, , , , 
DataValue, -1.12, 0.25, 4.9E-13, 2.431E-11, , , , 
DataValue, -1.01, 0.25, 7.3E-13, 2.553E-11, , , , 
DataValue, -0.9, 0.25, 1.0500000000000002E-12, 2.5850000000000003E-11, , , , 
DataValue, -0.79, 0.25, 1.6E-12, 2.4770000000000002E-11, , , , 
DataValue, -0.68, 0.25, 1.64E-12, 2.351E-11, , , , 
DataValue, -0.57000000000000006, 0.25, 1.4300000000000002E-12, 2.56E-11, , , , 
DataValue, -0.46, 0.25, 1.1000000000000002E-12, 2.64E-11, , , , 
DataValue, -0.35000000000000003, 0.25, 1.73E-12, 2.5450000000000003E-11, , , , 
DataValue, -0.24, 0.25, 1.5700000000000002E-12, 2.387E-11, , , , 
DataValue, -0.13, 0.25, 1.8400000000000002E-12, 2.6180000000000004E-11, , , , 
DataValue, -0.02, 0.25, 2.44E-12, 2.629E-11, , , , 
DataValue, 0.09, 0.25, 2.28E-12, 2.467E-11, , , , 
DataValue, 0.2, 0.25, 2.0700000000000003E-12, 2.3430000000000003E-11, , , , 
DataValue, 0.31, 0.25, 2.6300000000000003E-12, 2.5830000000000003E-11, , , , 
DataValue, 0.42, 0.25, 2.7100000000000004E-12, 2.5520000000000003E-11, , , , 
DataValue, 0.53, 0.25, 2.82E-12, 2.5030000000000003E-11, , , , 
DataValue, 0.64, 0.25, 3.4500000000000004E-12, 2.3640000000000002E-11, , , , 
DataValue, 0.75, 0.25, 2.69E-12, 2.5160000000000003E-11, , , , 
DataValue, 0.86, 0.25, 2.8900000000000004E-12, 2.5680000000000002E-11, , , , 
DataValue, 0.97, 0.25, 2.82E-12, 2.476E-11, , , , 
DataValue, 1.08, 0.25, 3.95E-12, 2.4340000000000003E-11, , , , 
DataValue, 1.19, 0.25, 4.02E-12, 2.385E-11, , , , 
DataValue, 1.3, 0.25, 3.58E-12, 2.6050000000000003E-11, , , , 
DataValue, 1.41, 0.25, 4.8500000000000005E-12, 2.7540000000000003E-11, , , , 
DataValue, 1.52, 0.25, 4.2000000000000007E-12, 2.6050000000000003E-11, , , , 
DataValue, 1.6300000000000001, 0.25, 4.68E-12, 2.64E-11, , , , 
DataValue, 1.74, 0.25, 4.1500000000000007E-12, 2.8920000000000002E-11, , , , 
DataValue, 1.85, 0.25, 5.07E-12, 3.262E-11, , , , 
DataValue, 1.96, 0.25, 4.5900000000000004E-12, 3.703E-11, , , , 
DataValue, 2.07, 0.25, 5.2100000000000006E-12, 4.3310000000000003E-11, , , , 
DataValue, 2.18, 0.25, 5.2500000000000004E-12, 6.093E-11, , , , 
DataValue, 2.29, 0.25, 5.63E-12, 9.1570000000000013E-11, , , , 
DataValue, 2.4, 0.25, 5.28E-12, 1.5202E-10, , , , 
DataValue, 2.5100000000000002, 0.25, 6.7200000000000004E-12, 2.7474E-10, , , , 
DataValue, 2.62, 0.25, 6.65E-12, 5.3135E-10, , , , 
DataValue, 2.73, 0.25, 7.44E-12, 1.08034E-09, , , , 
DataValue, 2.84, 0.25, 6.8900000000000007E-12, 3.5187E-09, , , , 
DataValue, 2.95, 0.25, 7.0000000000000009E-12, 7.0517E-09, , , , 
DataValue, 3.06, 0.25, 7.55E-12, 1.8553799999999998E-08, , , , 
DataValue, 3.17, 0.25, 7.6900000000000014E-12, 3.78178E-08, , , , 
DataValue, 3.2800000000000002, 0.25, 7.6800000000000012E-12, 7.60402E-08, , , , 
DataValue, 3.39, 0.25, 8.1900000000000013E-12, 1.49E-07, , , , 
DataValue, 3.5, 0.25, 8.75E-12, 2.6378E-07, , , , 
DataValue, 3.61, 0.25, 9.78E-12, 4.4942E-07, , , , 
DataValue, 3.72, 0.25, 1.0020000000000001E-11, 7.356E-07, , , , 
DataValue, 3.83, 0.25, 1.0100000000000001E-11, 1.14776E-06, , , , 
DataValue, 3.94, 0.25, 1.067E-11, 2.4957E-06, , , , 
DataValue, 4.05, 0.25, 9.75E-12, 3.3562E-06, , , , 
DataValue, 4.16, 0.25, 1.107E-11, 4.4585000000000006E-06, , , , 
DataValue, 4.2700000000000005, 0.25, 1.1440000000000001E-11, 5.836200000000001E-06, , , , 
DataValue, 4.38, 0.25, 1.228E-11, 7.502300000000001E-06, , , , 
DataValue, 4.49, 0.25, 1.312E-11, 9.4665000000000016E-06, , , , 
DataValue, 4.6000000000000005, 0.25, 1.249E-11, 1.2532E-05, , , , 
DataValue, 4.71, 0.25, 1.3760000000000001E-11, 1.4948E-05, , , , 
DataValue, 4.82, 0.25, 1.4180000000000001E-11, 1.7594E-05, , , , 
DataValue, 4.93, 0.25, 1.4260000000000001E-11, 2.0462E-05, , , , 
DataValue, 5.04, 0.25, 1.549E-11, 2.3538E-05, , , , 
DataValue, 5.15, 0.25, 1.6760000000000002E-11, 2.678E-05, , , , 
DataValue, 5.26, 0.25, 1.6450000000000002E-11, 3.0208E-05, , , , 
DataValue, 5.37, 0.25, 1.803E-11, 3.3782E-05, , , , 
DataValue, 5.48, 0.25, 1.7620000000000003E-11, 3.749E-05, , , , 
DataValue, 5.59, 0.25, 1.8180000000000002E-11, 4.1288E-05, , , , 
DataValue, 5.7, 0.25, 1.979E-11, 4.5202E-05, , , , 
DataValue, 5.8100000000000005, 0.25, 2.0640000000000003E-11, 4.9208E-05, , , , 
DataValue, 5.92, 0.25, 2.0880000000000003E-11, 5.3286000000000004E-05, , , , 
DataValue, 6.03, 0.25, 2.174E-11, 5.742E-05, , , , 
DataValue, 6.1400000000000006, 0.25, 2.207E-11, 6.1634E-05, , , , 
DataValue, 6.25, 0.25, 2.311E-11, 6.5784E-05, , , , 
DataValue, 6.36, 0.25, 2.385E-11, 6.996E-05, , , , 
DataValue, 6.47, 0.25, 2.442E-11, 7.4146E-05, , , , 
DataValue, 6.58, 0.25, 2.4970000000000002E-11, 7.8408E-05, , , , 
DataValue, 6.69, 0.25, 2.6480000000000002E-11, 8.262E-05, , , , 
DataValue, 6.8, 0.25, 2.6940000000000003E-11, 8.6766E-05, , , , 
DataValue, 6.91, 0.25, 2.735E-11, 9.0844E-05, , , , 
DataValue, 7.0200000000000005, 0.25, 2.8620000000000004E-11, 9.4834000000000007E-05, , , , 
DataValue, 7.13, 0.25, 3.023E-11, 9.8656E-05, , , , 
DataValue, 7.24, 0.25, 3.037E-11, 0.00010247400000000001, , , , 
DataValue, 7.3500000000000005, 0.25, 3.165E-11, 0.00010618800000000001, , , , 
DataValue, 7.46, 0.25, 3.3380000000000005E-11, 0.000109772, , , , 
DataValue, 7.57, 0.25, 3.329E-11, 0.000113196, , , , 
DataValue, 7.68, 0.25, 3.4830000000000004E-11, 0.00011818000000000001, , , , 
DataValue, 7.79, 0.25, 3.551E-11, 0.00012088000000000001, , , , 
DataValue, 7.9, 0.25, 3.74E-11, 0.00012358, , , , 
DataValue, 8.01, 0.25, 3.9860000000000005E-11, 0.00012618000000000002, , , , 
DataValue, 8.120000000000001, 0.25, 4.0520000000000006E-11, 0.00012874000000000002, , , , 
DataValue, 8.23, 0.25, 4.2670000000000006E-11, 0.00013128, , , , 
DataValue, 8.34, 0.25, 4.4600000000000006E-11, 0.00013374, , , , 
DataValue, 8.45, 0.25, 4.661E-11, 0.00013612000000000002, , , , 
DataValue, 8.56, 0.25, 4.8880000000000003E-11, 0.00013842000000000002, , , , 
DataValue, 8.67, 0.25, 5.1370000000000006E-11, 0.00014064, , , , 
DataValue, 8.78, 0.25, 5.3470000000000004E-11, 0.0001428, , , , 
DataValue, 8.89, 0.25, 5.648E-11, 0.00014494, , , , 
DataValue, 9, 0.25, 5.887E-11, 0.00014698, , , , 
DataValue, 9.11, 0.25, 6.121E-11, 0.00014898, , , , 
DataValue, 9.22, 0.25, 6.3980000000000008E-11, 0.00015088000000000002, , , , 
DataValue, 9.33, 0.25, 6.7620000000000008E-11, 0.00015284, , , , 
DataValue, 9.44, 0.25, 6.987E-11, 0.00015472, , , , 
DataValue, 9.55, 0.25, 7.3490000000000009E-11, 0.00015656, , , , 
DataValue, 9.66, 0.25, 7.7070000000000011E-11, 0.0001583, , , , 
DataValue, 9.77, 0.25, 7.976E-11, 0.00016, , , , 
DataValue, 9.88, 0.25, 8.358000000000001E-11, 0.00016174, , , , 
DataValue, 9.99, 0.25, 8.7690000000000009E-11, 0.00016338, , , , 
DataValue, 10.1, 0.25, 9.1050000000000011E-11, 0.00016492, , , , 
DataValue, 10.21, 0.25, 9.542E-11, 0.0001665, , , , 
DataValue, 10.32, 0.25, 9.9180000000000013E-11, 0.00016804, , , , 
DataValue, 10.43, 0.25, 1.0303E-10, 0.00016946000000000002, , , , 
DataValue, 10.540000000000001, 0.25, 1.0800000000000002E-10, 0.00017094, , , , 
DataValue, 10.65, 0.25, 1.1208E-10, 0.00017236, , , , 
DataValue, 10.76, 0.25, 1.1707000000000002E-10, 0.00017374, , , , 
DataValue, 10.870000000000001, 0.25, 1.2165000000000001E-10, 0.00017506000000000002, , , , 
DataValue, 10.98, 0.25, 1.2686000000000002E-10, 0.00017636, , , , 
DataValue, 11.09, 0.25, 1.3173000000000002E-10, 0.00017764000000000001, , , , 
DataValue, 11.200000000000001, 0.25, 1.3681000000000002E-10, 0.00017886, , , , 
DataValue, 11.31, 0.25, 1.4199000000000002E-10, 0.00018010000000000001, , , , 
DataValue, 11.42, 0.25, 1.4713000000000001E-10, 0.00018130000000000002, , , , 
DataValue, 11.53, 0.25, 1.5238000000000002E-10, 0.00018244000000000002, , , , 
DataValue, 11.64, 0.25, 1.5802000000000001E-10, 0.00018354000000000002, , , , 
DataValue, 11.75, 0.25, 1.6314000000000002E-10, 0.00018464000000000002, , , , 
DataValue, 11.86, 0.25, 1.6897E-10, 0.00018566, , , , 
DataValue, 11.97, 0.25, 1.7451000000000003E-10, 0.0001867, , , , 
DataValue, 12.08, 0.25, 1.8139E-10, 0.00018772, , , , 
DataValue, 12.19, 0.25, 1.8699000000000002E-10, 0.0001887, , , , 
DataValue, 12.3, 0.25, 1.9253E-10, 0.00018972000000000002, , , , 
DataValue, 12.41, 0.25, 1.9909E-10, 0.0001907, , , , 
DataValue, 12.52, 0.25, 2.0684E-10, 0.00019164, , , , 
DataValue, 12.63, 0.25, 2.1212000000000001E-10, 0.00019250000000000002, , , , 
DataValue, 12.74, 0.25, 2.1856000000000002E-10, 0.00019338000000000002, , , , 
DataValue, 12.85, 0.25, 2.2468000000000002E-10, 0.0001942, , , , 
DataValue, 12.96, 0.25, 2.3130000000000002E-10, 0.00019504, , , , 
DataValue, 13.07, 0.25, 2.3822000000000003E-10, 0.00019582, , , , 
DataValue, 13.18, 0.25, 2.4429000000000004E-10, 0.00019664000000000002, , , , 
DataValue, 13.290000000000001, 0.25, 2.5140000000000003E-10, 0.00019738, , , , 
DataValue, 13.4, 0.25, 2.5988000000000004E-10, 0.00019818, , , , 
DataValue, 13.51, 0.25, 2.6527E-10, 0.00019894000000000002, , , , 
DataValue, 13.620000000000001, 0.25, 2.7088E-10, 0.00019958, , , , 
DataValue, 13.73, 0.25, 2.7982E-10, 0.00020028, , , , 
DataValue, 13.84, 0.25, 2.8674000000000004E-10, 0.000201, , , , 
DataValue, 13.950000000000001, 0.25, 2.9342E-10, 0.00020164, , , , 
DataValue, 14.06, 0.25, 3.0061E-10, 0.0002023, , , , 
DataValue, 14.17, 0.25, 3.0787000000000004E-10, 0.00020292000000000002, , , , 
DataValue, 14.280000000000001, 0.25, 3.1487E-10, 0.00020356, , , , 
DataValue, 14.39, 0.25, 3.221E-10, 0.00020418000000000001, , , , 
DataValue, 14.5, 0.25, 3.2912000000000005E-10, 0.00020478, , , , 
DataValue, 14.61, 0.25, 3.3698E-10, 0.0002053, , , , 
DataValue, 14.72, 0.25, 3.4366000000000003E-10, 0.00020586, , , , 
DataValue, 14.83, 0.25, 3.5143000000000005E-10, 0.00020644, , , , 
DataValue, 14.94, 0.25, 3.5856000000000005E-10, 0.00020696, , , , 
DataValue, 15.05, 0.25, 3.6731000000000005E-10, 0.00020754, , , , 
DataValue, 15.16, 0.25, 3.744E-10, 0.00020804000000000002, , , , 
DataValue, 15.27, 0.25, 3.8155000000000004E-10, 0.00020854, , , , 
DataValue, 15.38, 0.25, 3.8908E-10, 0.00020902, , , , 
DataValue, 15.49, 0.25, 3.9471E-10, 0.00020950000000000002, , , , 
DataValue, 15.6, 0.25, 4.0311E-10, 0.00020994, , , , 
DataValue, 15.71, 0.25, 4.0985000000000004E-10, 0.00021038, , , , 
DataValue, 15.82, 0.25, 4.1991000000000005E-10, 0.00021086000000000002, , , , 
DataValue, 15.93, 0.25, 4.2667000000000004E-10, 0.00021132, , , , 
DataValue, 16.04, 0.25, 4.3401000000000003E-10, 0.00021174, , , , 
DataValue, 16.15, 0.25, 4.4213000000000005E-10, 0.0002122, , , , 
DataValue, 16.26, 0.25, 4.4999E-10, 0.00021262, , , , 
DataValue, 16.37, 0.25, 4.5681000000000005E-10, 0.000213, , , , 
DataValue, 16.48, 0.25, 4.6427000000000004E-10, 0.00021344000000000002, , , , 
DataValue, 16.59, 0.25, 4.7168000000000007E-10, 0.00021380000000000002, , , , 
DataValue, 16.7, 0.25, 4.7998E-10, 0.00021418, , , , 
DataValue, 16.81, 0.25, 4.8808E-10, 0.00021458000000000002, , , , 
DataValue, 16.92, 0.25, 4.9613E-10, 0.00021500000000000002, , , , 
DataValue, 17.03, 0.25, 5.0326000000000008E-10, 0.00021534, , , , 
DataValue, 17.14, 0.25, 5.1120000000000005E-10, 0.00021572, , , , 
DataValue, 17.25, 0.25, 5.1858000000000008E-10, 0.00021608, , , , 
DataValue, 17.36, 0.25, 5.2601E-10, 0.0002164, , , , 
DataValue, 17.47, 0.25, 5.3499E-10, 0.00021678000000000002, , , , 
DataValue, 17.580000000000002, 0.25, 5.4123E-10, 0.00021714000000000003, , , , 
DataValue, 17.69, 0.25, 5.5043E-10, 0.00021746000000000002, , , , 
DataValue, 17.8, 0.25, 5.5837E-10, 0.00021776, , , , 
DataValue, 17.91, 0.25, 5.6477E-10, 0.00021810000000000002, , , , 
DataValue, 18.02, 0.25, 5.7423000000000009E-10, 0.00021846000000000002, , , , 
DataValue, 18.13, 0.25, 5.8286000000000009E-10, 0.00021874, , , , 
DataValue, 18.240000000000002, 0.25, 5.9029E-10, 0.000219, , , , 
DataValue, 18.35, 0.25, 5.977700000000001E-10, 0.00021936000000000001, , , , 
DataValue, 18.46, 0.25, 6.0591E-10, 0.00021966000000000002, , , , 
DataValue, 18.57, 0.25, 6.1285E-10, 0.00021996, , , , 
DataValue, 18.68, 0.25, 6.2199E-10, 0.00022028000000000003, , , , 
DataValue, 18.79, 0.25, 6.2920000000000006E-10, 0.00022054000000000003, , , , 
DataValue, 18.900000000000002, 0.25, 6.3792E-10, 0.00022080000000000003, , , , 
DataValue, 19.01, 0.25, 6.4534000000000007E-10, 0.00022104, , , , 
DataValue, 19.12, 0.25, 6.5333000000000006E-10, 0.00022138000000000003, , , , 
DataValue, 19.23, 0.25, 6.6138E-10, 0.00022162, , , , 
DataValue, 19.34, 0.25, 6.6952000000000008E-10, 0.00022190000000000003, , , , 
DataValue, 19.45, 0.25, 6.7777E-10, 0.00022218000000000002, , , , 
DataValue, 19.56, 0.25, 6.8594E-10, 0.00022244000000000002, , , , 
DataValue, 19.67, 0.25, 6.9555E-10, 0.00022270000000000002, , , , 
DataValue, 19.78, 0.25, 7.033E-10, 0.00022296000000000002, , , , 
DataValue, 19.89, 0.25, 7.1185000000000008E-10, 0.00022324, , , , 
DataValue, 20, 0.25, 7.1951E-10, 0.00022346, , , , 
DataValue, 20, 0.25, 7.1705E-10, 0.0002234, , , , 
DataValue, 19.89, 0.25, 6.8861000000000007E-10, 0.00022264000000000002, , , , 
DataValue, 19.78, 0.25, 6.590600000000001E-10, 0.00022180000000000002, , , , 
DataValue, 19.67, 0.25, 6.322E-10, 0.00022096000000000003, , , , 
DataValue, 19.56, 0.25, 6.0893000000000009E-10, 0.0002201, , , , 
DataValue, 19.45, 0.25, 5.8442E-10, 0.00021926, , , , 
