
SetupTitle, ID-VG Postbreak
PrimitiveTest, I/V Sweep
TestParameter, Context.MainFrame, B1500A
TestParameter, Channel.UnitType, SMU, SMU
TestParameter, Channel.Unit, SMU1:MP, SMU2:MP
TestParameter, Channel.IName, I1, I2
TestParameter, Channel.VName, V1, V2
TestParameter, Channel.Mode, V, V
TestParameter, Channel.Func, VAR1, CONST
TestParameter, Channel.Index, 
TestParameter, Channel.Time, 
TestParameter, Measurement.Port.Unit, SMU1:MP, SMU2:MP
TestParameter, Measurement.Port.SeriesResistor, NONE, NONE
TestParameter, Measurement.Port.Filter, ON, ON
TestParameter, Measurement.Port.OutputVoltageComparison, 0, 0
TestParameter, Measurement.Primary.Locus, Double
TestParameter, Measurement.Primary.Scale, LINEAR
TestParameter, Measurement.Primary.Start, -2
TestParameter, Measurement.Primary.Stop, 20
TestParameter, Measurement.Primary.Step, 0.11
TestParameter, Measurement.Primary.Compliance, 0.1
TestParameter, Measurement.Primary.PowerCompliance, 0
TestParameter, Measurement.Aborting.Condition, CONTINUE AT ANY
TestParameter, Measurement.PostOutput.Value, START
TestParameter, Measurement.PostOutput.Retention, OFF
TestParameter, Measurement.Bias.Source, -2, 0.25
TestParameter, Measurement.Bias.Compliance, 0.1, 0.1
TestParameter, Measurement.Monitor.Unit, SMU1:MP, SMU2:MP
TestParameter, Measurement.Monitor.Adc, HR ADC, HR ADC
TestParameter, Measurement.Monitor.Measurement, Compliance Side, Compliance Side
TestParameter, Measurement.Monitor.RangingMode, LIMITED, LIMITED
TestParameter, Measurement.Monitor.RangeBoundary, 1nA, 1nA
TestParameter, Measurement.Monitor.RangeRating, BY FULL RANGE, BY FULL RANGE
TestParameter, Measurement.Monitor.RangeRatingCoeff, 50, 50
TestParameter, Measurement.Timing.Hold, 0
TestParameter, Measurement.Timing.Delay, 0
TestParameter, Measurement.Adc.HighSpeed.Mode, AUTO
TestParameter, Measurement.Adc.HighSpeed.Coeff, 1
TestParameter, Measurement.Adc.HighResolution.AutoZero, OFF
TestParameter, Measurement.Adc.HighResolution.Mode, AUTO
TestParameter, Measurement.Adc.HighResolution.Coeff, 6
TestParameter, Measurement.WaitTime.Source.Coeff, 1
TestParameter, Measurement.WaitTime.Source.Offset, 0
TestParameter, Measurement.WaitTime.Monitor.Coeff, 1
TestParameter, Measurement.WaitTime.Monitor.Offset, 0
TestParameter, Output.Graph.Enabled, true
TestParameter, Output.Graph.AutoScaling, false
TestParameter, Output.Graph.XAxis.Data, V1
TestParameter, Output.Graph.XAxis.Scale, Linear
TestParameter, Output.Graph.XAxis.Left, -2
TestParameter, Output.Graph.XAxis.Right, 6
TestParameter, Output.Graph.XAxis.RunTimeAutoScale, true
TestParameter, Output.Graph.YAxis.Data, I2
TestParameter, Output.Graph.YAxis.Scale, Linear
TestParameter, Output.Graph.YAxis.Bottom, -0.1
TestParameter, Output.Graph.YAxis.Top, 0.1
TestParameter, Output.Graph.YAxis.Group, 
TestParameter, Output.Graph.YAxis.RunTimeAutoScale, true
TestParameter, Output.List.Data, V1, I1, V2, I2, V3, I3, V4, I4
TestParameter, AutoAnalysis.Interpolation, false
TestParameter, AutoAnalysis.Line1.Enabled, false
TestParameter, AutoAnalysis.Line1.Type, 1
TestParameter, AutoAnalysis.Line1.Fix, True
TestParameter, AutoAnalysis.Line1.YAxis, 0
TestParameter, AutoAnalysis.Line1.Point1.Type, 0
TestParameter, AutoAnalysis.Line1.Point1.XY.X, 
TestParameter, AutoAnalysis.Line1.Point1.XY.Y, 
TestParameter, AutoAnalysis.Line1.Point1.Data.Var, 
TestParameter, AutoAnalysis.Line1.Point1.Data.Condition, 
TestParameter, AutoAnalysis.Line1.Point1.Data.Start, false
TestParameter, AutoAnalysis.Line1.Point1.Data.StartVar, 
TestParameter, AutoAnalysis.Line1.Point1.Data.StartCondition, 
TestParameter, AutoAnalysis.Line1.Point2.Type, 0
TestParameter, AutoAnalysis.Line1.Point2.XY.X, 
TestParameter, AutoAnalysis.Line1.Point2.XY.Y, 
TestParameter, AutoAnalysis.Line1.Point2.Data.Var, 
TestParameter, AutoAnalysis.Line1.Point2.Data.Condition, 
TestParameter, AutoAnalysis.Line1.Point2.Data.Start, false
TestParameter, AutoAnalysis.Line1.Point2.Data.StartVar, 
TestParameter, AutoAnalysis.Line1.Point2.Data.StartCondition, 
TestParameter, AutoAnalysis.Line1.GradientExpr, 0
TestParameter, AutoAnalysis.Line2.Enabled, false
TestParameter, AutoAnalysis.Line2.Type, 1
TestParameter, AutoAnalysis.Line2.Fix, True
TestParameter, AutoAnalysis.Line2.YAxis, 0
TestParameter, AutoAnalysis.Line2.Point1.Type, 0
TestParameter, AutoAnalysis.Line2.Point1.XY.X, 
TestParameter, AutoAnalysis.Line2.Point1.XY.Y, 
TestParameter, AutoAnalysis.Line2.Point1.Data.Var, 
TestParameter, AutoAnalysis.Line2.Point1.Data.Condition, 
TestParameter, AutoAnalysis.Line2.Point1.Data.Start, false
TestParameter, AutoAnalysis.Line2.Point1.Data.StartVar, 
TestParameter, AutoAnalysis.Line2.Point1.Data.StartCondition, 
TestParameter, AutoAnalysis.Line2.Point2.Type, 0
TestParameter, AutoAnalysis.Line2.Point2.XY.X, 
TestParameter, AutoAnalysis.Line2.Point2.XY.Y, 
TestParameter, AutoAnalysis.Line2.Point2.Data.Var, 
TestParameter, AutoAnalysis.Line2.Point2.Data.Condition, 
TestParameter, AutoAnalysis.Line2.Point2.Data.Start, false
TestParameter, AutoAnalysis.Line2.Point2.Data.StartVar, 
TestParameter, AutoAnalysis.Line2.Point2.Data.StartCondition, 
TestParameter, AutoAnalysis.Line2.GradientExpr, 0
TestParameter, AutoAnalysis.Marker.Enabled, false
TestParameter, AutoAnalysis.Marker.Data.Var, 
TestParameter, AutoAnalysis.Marker.Data.Condition, 
TestParameter, AutoAnalysis.Marker.Data.Start, false
TestParameter, AutoAnalysis.Marker.Data.StartVar, 
TestParameter, AutoAnalysis.Marker.Data.StartCondition, 
MetaData, TestRecord.EntryPoint, true
MetaData, TestRecord.RecordTime, 03/10/2023 17:10:32
MetaData, TestRecord.TestTarget, 
MetaData, TestRecord.IterationIndex, 42
MetaData, TestRecord.Preservation, true
MetaData, TestRecord.Flag, 
MetaData, TestRecord.Remarks, 
MetaData, TestRecord.LinkKey, ea1c2a22-9155-4142-bba5-34d4b81025f1
Dimension1, 402, 402, 402, 402, 402, 402, 402, 402
Dimension2, 1, 1, 1, 1, 1, 1, 1, 1
DataName, V1, V2, I1, I2, V3, I3, V4, I4
DataValue, -2, 0.25, -4.2000000000000007E-12, 2.2680000000000003E-11, , , , 
DataValue, -1.8900000000000001, 0.25, -2.6000000000000002E-12, 2.4040000000000002E-11, , , , 
DataValue, -1.78, 0.25, -1.6100000000000002E-12, 2.4390000000000002E-11, , , , 
DataValue, -1.67, 0.25, -1.2800000000000002E-12, 2.2620000000000002E-11, , , , 
DataValue, -1.56, 0.25, -1.5300000000000001E-12, 2.1880000000000003E-11, , , , 
DataValue, -1.45, 0.25, -9.7000000000000011E-13, 2.325E-11, , , , 
DataValue, -1.34, 0.25, -6.5000000000000006E-13, 2.3970000000000002E-11, , , , 
DataValue, -1.23, 0.25, 1E-13, 2.298E-11, , , , 
DataValue, -1.12, 0.25, 2E-13, 2.178E-11, , , , 
DataValue, -1.01, 0.25, -1E-13, 2.3280000000000003E-11, , , , 
DataValue, -0.9, 0.25, 1.0600000000000001E-12, 2.349E-11, , , , 
DataValue, -0.79, 0.25, 1.0500000000000002E-12, 2.291E-11, , , , 
DataValue, -0.68, 0.25, 6.1E-13, 2.2170000000000003E-11, , , , 
DataValue, -0.57000000000000006, 0.25, 2.7E-13, 2.329E-11, , , , 
DataValue, -0.46, 0.25, 1.4200000000000002E-12, 2.4340000000000003E-11, , , , 
DataValue, -0.35000000000000003, 0.25, 9.1000000000000016E-13, 2.2220000000000002E-11, , , , 
DataValue, -0.24, 0.25, 9.7000000000000011E-13, 2.209E-11, , , , 
DataValue, -0.13, 0.25, 1.0600000000000001E-12, 2.2810000000000003E-11, , , , 
DataValue, -0.02, 0.25, 1.6200000000000002E-12, 2.4040000000000002E-11, , , , 
DataValue, 0.09, 0.25, 1.7600000000000002E-12, 2.283E-11, , , , 
DataValue, 0.2, 0.25, 2.4300000000000003E-12, 2.1150000000000003E-11, , , , 
DataValue, 0.31, 0.25, 1.78E-12, 2.2680000000000003E-11, , , , 
DataValue, 0.42, 0.25, 2.0200000000000003E-12, 2.325E-11, , , , 
DataValue, 0.53, 0.25, 2.1700000000000002E-12, 2.254E-11, , , , 
DataValue, 0.64, 0.25, 2.59E-12, 2.172E-11, , , , 
DataValue, 0.75, 0.25, 1.9900000000000002E-12, 2.2240000000000002E-11, , , , 
DataValue, 0.86, 0.25, 2.29E-12, 2.3810000000000003E-11, , , , 
DataValue, 0.97, 0.25, 1.6800000000000001E-12, 2.307E-11, , , , 
DataValue, 1.08, 0.25, 2.39E-12, 2.243E-11, , , , 
DataValue, 1.19, 0.25, 2.51E-12, 2.094E-11, , , , 
DataValue, 1.3, 0.25, 2.97E-12, 2.316E-11, , , , 
DataValue, 1.41, 0.25, 2.92E-12, 2.2700000000000003E-11, , , , 
DataValue, 1.52, 0.25, 3.1900000000000003E-12, 2.1990000000000003E-11, , , , 
DataValue, 1.6300000000000001, 0.25, 2.41E-12, 2.1480000000000003E-11, , , , 
DataValue, 1.74, 0.25, 2.9600000000000003E-12, 2.2990000000000003E-11, , , , 
DataValue, 1.85, 0.25, 2.9400000000000004E-12, 2.345E-11, , , , 
DataValue, 1.96, 0.25, 3.6800000000000005E-12, 2.2640000000000002E-11, , , , 
DataValue, 2.07, 0.25, 3.4700000000000004E-12, 2.125E-11, , , , 
DataValue, 2.18, 0.25, 3.2700000000000004E-12, 2.2240000000000002E-11, , , , 
DataValue, 2.29, 0.25, 4.27E-12, 2.371E-11, , , , 
DataValue, 2.4, 0.25, 3.33E-12, 2.3190000000000003E-11, , , , 
DataValue, 2.5100000000000002, 0.25, 3.82E-12, 2.081E-11, , , , 
DataValue, 2.62, 0.25, 3.82E-12, 2.2330000000000002E-11, , , , 
DataValue, 2.73, 0.25, 4.28E-12, 2.3460000000000002E-11, , , , 
DataValue, 2.84, 0.25, 3.91E-12, 2.1700000000000003E-11, , , , 
DataValue, 2.95, 0.25, 3.9E-12, 2.1350000000000003E-11, , , , 
DataValue, 3.06, 0.25, 4.32E-12, 2.2550000000000002E-11, , , , 
DataValue, 3.17, 0.25, 4E-12, 2.362E-11, , , , 
DataValue, 3.2800000000000002, 0.25, 4.5400000000000004E-12, 2.278E-11, , , , 
DataValue, 3.39, 0.25, 4.88E-12, 2.052E-11, , , , 
DataValue, 3.5, 0.25, 4.33E-12, 2.2170000000000003E-11, , , , 
DataValue, 3.61, 0.25, 4.89E-12, 2.3370000000000002E-11, , , , 
DataValue, 3.72, 0.25, 4.8500000000000005E-12, 2.216E-11, , , , 
DataValue, 3.83, 0.25, 5.24E-12, 2.172E-11, , , , 
DataValue, 3.94, 0.25, 4.62E-12, 2.15E-11, , , , 
DataValue, 4.05, 0.25, 5.8200000000000006E-12, 2.2300000000000003E-11, , , , 
DataValue, 4.16, 0.25, 5.1000000000000005E-12, 2.172E-11, , , , 
DataValue, 4.2700000000000005, 0.25, 5.38E-12, 2.1510000000000002E-11, , , , 
DataValue, 4.38, 0.25, 5.79E-12, 2.1090000000000002E-11, , , , 
DataValue, 4.49, 0.25, 6.45E-12, 2.176E-11, , , , 
DataValue, 4.6000000000000005, 0.25, 6.2400000000000009E-12, 2.207E-11, , , , 
DataValue, 4.71, 0.25, 5.99E-12, 2.112E-11, , , , 
DataValue, 4.82, 0.25, 5.8800000000000008E-12, 2.1910000000000002E-11, , , , 
DataValue, 4.93, 0.25, 6.3300000000000007E-12, 2.2750000000000002E-11, , , , 
DataValue, 5.04, 0.25, 7.01E-12, 2.172E-11, , , , 
DataValue, 5.15, 0.25, 6.8700000000000004E-12, 2.07E-11, , , , 
DataValue, 5.26, 0.25, 6.3200000000000005E-12, 2.174E-11, , , , 
DataValue, 5.37, 0.25, 7.12E-12, 2.2570000000000003E-11, , , , 
DataValue, 5.48, 0.25, 6.9900000000000007E-12, 2.185E-11, , , , 
DataValue, 5.59, 0.25, 7.2800000000000013E-12, 2.079E-11, , , , 
DataValue, 5.7, 0.25, 7.02E-12, 2.147E-11, , , , 
DataValue, 5.8100000000000005, 0.25, 6.9900000000000007E-12, 2.216E-11, , , , 
DataValue, 5.92, 0.25, 7.06E-12, 2.123E-11, , , , 
DataValue, 6.03, 0.25, 8E-12, 2.052E-11, , , , 
DataValue, 6.1400000000000006, 0.25, 7.5600000000000009E-12, 2.1440000000000002E-11, , , , 
DataValue, 6.25, 0.25, 7.74E-12, 2.1680000000000003E-11, , , , 
DataValue, 6.36, 0.25, 7.83E-12, 2.194E-11, , , , 
DataValue, 6.47, 0.25, 8.4900000000000012E-12, 2.012E-11, , , , 
DataValue, 6.58, 0.25, 7.9600000000000008E-12, 2.0350000000000003E-11, , , , 
DataValue, 6.69, 0.25, 9.0900000000000011E-12, 2.167E-11, , , , 
DataValue, 6.8, 0.25, 8.52E-12, 2.027E-11, , , , 
DataValue, 6.91, 0.25, 8.52E-12, 1.992E-11, , , , 
DataValue, 7.0200000000000005, 0.25, 8.52E-12, 2.0690000000000002E-11, , , , 
DataValue, 7.13, 0.25, 9.74E-12, 2.189E-11, , , , 
DataValue, 7.24, 0.25, 9.55E-12, 2.127E-11, , , , 
DataValue, 7.3500000000000005, 0.25, 9.7200000000000014E-12, 1.903E-11, , , , 
DataValue, 7.46, 0.25, 9.5200000000000014E-12, 2.0130000000000002E-11, , , , 
DataValue, 7.57, 0.25, 9.34E-12, 2.147E-11, , , , 
DataValue, 7.68, 0.25, 9.55E-12, 2.0840000000000002E-11, , , , 
DataValue, 7.79, 0.25, 1.036E-11, 2.0330000000000002E-11, , , , 
DataValue, 7.9, 0.25, 9.85E-12, 1.985E-11, , , , 
DataValue, 8.01, 0.25, 1.1040000000000001E-11, 2.1220000000000002E-11, , , , 
DataValue, 8.120000000000001, 0.25, 1.0120000000000001E-11, 2.1200000000000002E-11, , , , 
DataValue, 8.23, 0.25, 1.068E-11, 2.0200000000000002E-11, , , , 
DataValue, 8.34, 0.25, 1.0850000000000002E-11, 1.97E-11, , , , 
DataValue, 8.45, 0.25, 1.199E-11, 2.143E-11, , , , 
DataValue, 8.56, 0.25, 1.1410000000000001E-11, 2.098E-11, , , , 
DataValue, 8.67, 0.25, 1.19E-11, 1.9460000000000003E-11, , , , 
DataValue, 8.78, 0.25, 1.147E-11, 1.9620000000000002E-11, , , , 
DataValue, 8.89, 0.25, 1.201E-11, 2.094E-11, , , , 
DataValue, 9, 0.25, 1.2050000000000001E-11, 2.0260000000000003E-11, , , , 
DataValue, 9.11, 0.25, 1.3150000000000001E-11, 1.901E-11, , , , 
DataValue, 9.22, 0.25, 1.2260000000000002E-11, 1.8800000000000002E-11, , , , 
DataValue, 9.33, 0.25, 1.2560000000000001E-11, 2.0750000000000003E-11, , , , 
DataValue, 9.44, 0.25, 1.2760000000000001E-11, 2.083E-11, , , , 
DataValue, 9.55, 0.25, 1.3440000000000001E-11, 1.937E-11, , , , 
DataValue, 9.66, 0.25, 1.2650000000000001E-11, 1.859E-11, , , , 
DataValue, 9.77, 0.25, 1.352E-11, 1.9750000000000003E-11, , , , 
DataValue, 9.88, 0.25, 1.4210000000000002E-11, 2.0890000000000002E-11, , , , 
DataValue, 9.99, 0.25, 1.414E-11, 1.9350000000000003E-11, , , , 
DataValue, 10.1, 0.25, 1.413E-11, 1.8620000000000003E-11, , , , 
DataValue, 10.21, 0.25, 1.5560000000000002E-11, 2.0200000000000002E-11, , , , 
DataValue, 10.32, 0.25, 1.478E-11, 2.0110000000000002E-11, , , , 
DataValue, 10.43, 0.25, 1.5650000000000002E-11, 1.977E-11, , , , 
DataValue, 10.540000000000001, 0.25, 1.535E-11, 1.8330000000000003E-11, , , , 
DataValue, 10.65, 0.25, 1.61E-11, 1.985E-11, , , , 
DataValue, 10.76, 0.25, 1.63E-11, 2.078E-11, , , , 
DataValue, 10.870000000000001, 0.25, 1.672E-11, 1.939E-11, , , , 
DataValue, 10.98, 0.25, 1.6490000000000003E-11, 1.826E-11, , , , 
DataValue, 11.09, 0.25, 1.7160000000000002E-11, 1.9930000000000003E-11, , , , 
DataValue, 11.200000000000001, 0.25, 1.772E-11, 2.056E-11, , , , 
DataValue, 11.31, 0.25, 1.819E-11, 1.928E-11, , , , 
DataValue, 11.42, 0.25, 1.8890000000000002E-11, 1.8780000000000002E-11, , , , 
DataValue, 11.53, 0.25, 1.93E-11, 1.934E-11, , , , 
DataValue, 11.64, 0.25, 1.9930000000000003E-11, 2.041E-11, , , , 
DataValue, 11.75, 0.25, 2.03E-11, 1.926E-11, , , , 
DataValue, 11.86, 0.25, 1.979E-11, 1.85E-11, , , , 
DataValue, 11.97, 0.25, 2.0750000000000003E-11, 1.952E-11, , , , 
DataValue, 12.08, 0.25, 2.1170000000000003E-11, 1.979E-11, , , , 
DataValue, 12.19, 0.25, 2.2310000000000002E-11, 1.839E-11, , , , 
DataValue, 12.3, 0.25, 2.2260000000000002E-11, 1.79E-11, , , , 
DataValue, 12.41, 0.25, 2.3190000000000003E-11, 1.8310000000000003E-11, , , , 
DataValue, 12.52, 0.25, 2.3240000000000002E-11, 1.937E-11, , , , 
DataValue, 12.63, 0.25, 2.462E-11, 1.8360000000000002E-11, , , , 
DataValue, 12.74, 0.25, 2.416E-11, 1.69E-11, , , , 
DataValue, 12.85, 0.25, 2.4960000000000004E-11, 1.885E-11, , , , 
DataValue, 12.96, 0.25, 2.5610000000000003E-11, 1.9200000000000002E-11, , , , 
DataValue, 13.07, 0.25, 2.711E-11, 1.7930000000000003E-11, , , , 
DataValue, 13.18, 0.25, 2.684E-11, 1.639E-11, , , , 
DataValue, 13.290000000000001, 0.25, 2.744E-11, 1.7980000000000002E-11, , , , 
DataValue, 13.4, 0.25, 2.8730000000000004E-11, 1.8380000000000002E-11, , , , 
DataValue, 13.51, 0.25, 2.9000000000000003E-11, 1.81E-11, , , , 
DataValue, 13.620000000000001, 0.25, 2.9810000000000005E-11, 1.6380000000000003E-11, , , , 
DataValue, 13.73, 0.25, 3.044E-11, 1.7490000000000002E-11, , , , 
DataValue, 13.84, 0.25, 3.089E-11, 1.7870000000000002E-11, , , , 
DataValue, 13.950000000000001, 0.25, 3.266E-11, 1.717E-11, , , , 
DataValue, 14.06, 0.25, 3.274E-11, 1.593E-11, , , , 
DataValue, 14.17, 0.25, 3.3160000000000005E-11, 1.6140000000000002E-11, , , , 
DataValue, 14.280000000000001, 0.25, 3.477E-11, 1.732E-11, , , , 
DataValue, 14.39, 0.25, 3.438E-11, 1.7620000000000003E-11, , , , 
DataValue, 14.5, 0.25, 3.663E-11, 1.65E-11, , , , 
DataValue, 14.61, 0.25, 3.656E-11, 1.541E-11, , , , 
DataValue, 14.72, 0.25, 3.737E-11, 1.6870000000000002E-11, , , , 
DataValue, 14.83, 0.25, 3.8140000000000003E-11, 1.677E-11, , , , 
DataValue, 14.94, 0.25, 3.974E-11, 1.5850000000000002E-11, , , , 
DataValue, 15.05, 0.25, 3.954E-11, 1.4940000000000002E-11, , , , 
DataValue, 15.16, 0.25, 4.1100000000000005E-11, 1.6430000000000002E-11, , , , 
DataValue, 15.27, 0.25, 4.0880000000000005E-11, 1.743E-11, , , , 
DataValue, 15.38, 0.25, 4.323E-11, 1.5050000000000002E-11, , , , 
DataValue, 15.49, 0.25, 4.2510000000000004E-11, 1.462E-11, , , , 
DataValue, 15.6, 0.25, 4.4330000000000004E-11, 1.54E-11, , , , 
DataValue, 15.71, 0.25, 4.501E-11, 1.506E-11, , , , 
DataValue, 15.82, 0.25, 4.5650000000000005E-11, 1.381E-11, , , , 
DataValue, 15.93, 0.25, 4.6740000000000005E-11, 1.442E-11, , , , 
DataValue, 16.04, 0.25, 4.7220000000000006E-11, 1.528E-11, , , , 
DataValue, 16.15, 0.25, 4.826E-11, 1.469E-11, , , , 
DataValue, 16.26, 0.25, 5.008E-11, 1.3150000000000001E-11, , , , 
DataValue, 16.37, 0.25, 4.975E-11, 1.3250000000000001E-11, , , , 
DataValue, 16.48, 0.25, 5.164E-11, 1.391E-11, , , , 
DataValue, 16.59, 0.25, 5.193E-11, 1.4870000000000003E-11, , , , 
DataValue, 16.7, 0.25, 5.2640000000000005E-11, 1.32E-11, , , , 
DataValue, 16.81, 0.25, 5.4380000000000004E-11, 1.251E-11, , , , 
DataValue, 16.92, 0.25, 5.4870000000000007E-11, 1.343E-11, , , , 
DataValue, 17.03, 0.25, 5.5530000000000008E-11, 1.4960000000000002E-11, , , , 
DataValue, 17.14, 0.25, 5.6790000000000005E-11, 1.27E-11, , , , 
DataValue, 17.25, 0.25, 5.7750000000000007E-11, 1.239E-11, , , , 
DataValue, 17.36, 0.25, 5.85E-11, 1.3E-11, , , , 
DataValue, 17.47, 0.25, 5.939E-11, 1.333E-11, , , , 
DataValue, 17.580000000000002, 0.25, 6.058E-11, 1.127E-11, , , , 
DataValue, 17.69, 0.25, 6.115E-11, 1.228E-11, , , , 
DataValue, 17.8, 0.25, 6.268000000000001E-11, 1.2450000000000001E-11, , , , 
DataValue, 17.91, 0.25, 6.2770000000000007E-11, 1.178E-11, , , , 
DataValue, 18.02, 0.25, 6.348000000000001E-11, 1.0810000000000001E-11, , , , 
DataValue, 18.13, 0.25, 6.4450000000000008E-11, 1.0900000000000001E-11, , , , 
DataValue, 18.240000000000002, 0.25, 6.559E-11, 1.119E-11, , , , 
DataValue, 18.35, 0.25, 6.661E-11, 1.1360000000000002E-11, , , , 
DataValue, 18.46, 0.25, 6.777E-11, 1.036E-11, , , , 
DataValue, 18.57, 0.25, 6.8670000000000007E-11, 9.48E-12, , , , 
DataValue, 18.68, 0.25, 6.9740000000000009E-11, 1.1310000000000001E-11, , , , 
DataValue, 18.79, 0.25, 7.056E-11, 1.1230000000000001E-11, , , , 
DataValue, 18.900000000000002, 0.25, 7.178000000000001E-11, 9.6900000000000009E-12, , , , 
DataValue, 19.01, 0.25, 7.223E-11, 9.45E-12, , , , 
DataValue, 19.12, 0.25, 7.32E-11, 1.025E-11, , , , 
DataValue, 19.23, 0.25, 7.4590000000000011E-11, 1.017E-11, , , , 
DataValue, 19.34, 0.25, 7.496E-11, 9.0800000000000009E-12, , , , 
DataValue, 19.45, 0.25, 7.588E-11, 9.16E-12, , , , 
DataValue, 19.56, 0.25, 7.772E-11, 9.24E-12, , , , 
DataValue, 19.67, 0.25, 7.849E-11, 9.36E-12, , , , 
DataValue, 19.78, 0.25, 7.939000000000001E-11, 8.05E-12, , , , 
DataValue, 19.89, 0.25, 8.0190000000000009E-11, 7.6900000000000014E-12, , , , 
DataValue, 20, 0.25, 8.139E-11, 9.76E-12, , , , 
DataValue, 20, 0.25, 8.1160000000000007E-11, 7.74E-12, , , , 
DataValue, 19.89, 0.25, 7.664E-11, 8.380000000000001E-12, , , , 
DataValue, 19.78, 0.25, 7.348E-11, 1.0220000000000001E-11, , , , 
DataValue, 19.67, 0.25, 6.985000000000001E-11, 1.077E-11, , , , 
DataValue, 19.56, 0.25, 6.724E-11, 1.017E-11, , , , 
DataValue, 19.45, 0.25, 6.394E-11, 1.056E-11, , , , 
DataValue, 19.34, 0.25, 6.1800000000000009E-11, 1.1940000000000001E-11, , , , 
DataValue, 19.23, 0.25, 6.0120000000000008E-11, 1.28E-11, , , , 
