
SetupTitle, ID-VG Postbreak
PrimitiveTest, I/V Sweep
TestParameter, Context.MainFrame, B1500A
TestParameter, Channel.UnitType, SMU, SMU
TestParameter, Channel.Unit, SMU1:MP, SMU2:MP
TestParameter, Channel.IName, I1, I2
TestParameter, Channel.VName, V1, V2
TestParameter, Channel.Mode, V, V
TestParameter, Channel.Func, VAR1, CONST
TestParameter, Channel.Index, 
TestParameter, Channel.Time, 
TestParameter, Measurement.Port.Unit, SMU1:MP, SMU2:MP
TestParameter, Measurement.Port.SeriesResistor, NONE, NONE
TestParameter, Measurement.Port.Filter, ON, ON
TestParameter, Measurement.Port.OutputVoltageComparison, 0, 0
TestParameter, Measurement.Primary.Locus, Double
TestParameter, Measurement.Primary.Scale, LINEAR
TestParameter, Measurement.Primary.Start, -2
TestParameter, Measurement.Primary.Stop, 20
TestParameter, Measurement.Primary.Step, 0.11
TestParameter, Measurement.Primary.Compliance, 0.1
TestParameter, Measurement.Primary.PowerCompliance, 0
TestParameter, Measurement.Aborting.Condition, CONTINUE AT ANY
TestParameter, Measurement.PostOutput.Value, START
TestParameter, Measurement.PostOutput.Retention, OFF
TestParameter, Measurement.Bias.Source, -2, 0.25
TestParameter, Measurement.Bias.Compliance, 0.1, 0.1
TestParameter, Measurement.Monitor.Unit, SMU1:MP, SMU2:MP
TestParameter, Measurement.Monitor.Adc, HR ADC, HR ADC
TestParameter, Measurement.Monitor.Measurement, Compliance Side, Compliance Side
TestParameter, Measurement.Monitor.RangingMode, LIMITED, LIMITED
TestParameter, Measurement.Monitor.RangeBoundary, 1nA, 1nA
TestParameter, Measurement.Monitor.RangeRating, BY FULL RANGE, BY FULL RANGE
TestParameter, Measurement.Monitor.RangeRatingCoeff, 50, 50
TestParameter, Measurement.Timing.Hold, 0
TestParameter, Measurement.Timing.Delay, 0
TestParameter, Measurement.Adc.HighSpeed.Mode, AUTO
TestParameter, Measurement.Adc.HighSpeed.Coeff, 1
TestParameter, Measurement.Adc.HighResolution.AutoZero, OFF
TestParameter, Measurement.Adc.HighResolution.Mode, AUTO
TestParameter, Measurement.Adc.HighResolution.Coeff, 6
TestParameter, Measurement.WaitTime.Source.Coeff, 1
TestParameter, Measurement.WaitTime.Source.Offset, 0
TestParameter, Measurement.WaitTime.Monitor.Coeff, 1
TestParameter, Measurement.WaitTime.Monitor.Offset, 0
TestParameter, Output.Graph.Enabled, true
TestParameter, Output.Graph.AutoScaling, false
TestParameter, Output.Graph.XAxis.Data, V1
TestParameter, Output.Graph.XAxis.Scale, Linear
TestParameter, Output.Graph.XAxis.Left, -2
TestParameter, Output.Graph.XAxis.Right, 6
TestParameter, Output.Graph.XAxis.RunTimeAutoScale, true
TestParameter, Output.Graph.YAxis.Data, I2
TestParameter, Output.Graph.YAxis.Scale, Linear
TestParameter, Output.Graph.YAxis.Bottom, -0.1
TestParameter, Output.Graph.YAxis.Top, 0.1
TestParameter, Output.Graph.YAxis.Group, 
TestParameter, Output.Graph.YAxis.RunTimeAutoScale, true
TestParameter, Output.List.Data, V1, I1, V2, I2, V3, I3, V4, I4
TestParameter, AutoAnalysis.Interpolation, false
TestParameter, AutoAnalysis.Line1.Enabled, false
TestParameter, AutoAnalysis.Line1.Type, 1
TestParameter, AutoAnalysis.Line1.Fix, True
TestParameter, AutoAnalysis.Line1.YAxis, 0
TestParameter, AutoAnalysis.Line1.Point1.Type, 0
TestParameter, AutoAnalysis.Line1.Point1.XY.X, 
TestParameter, AutoAnalysis.Line1.Point1.XY.Y, 
TestParameter, AutoAnalysis.Line1.Point1.Data.Var, 
TestParameter, AutoAnalysis.Line1.Point1.Data.Condition, 
TestParameter, AutoAnalysis.Line1.Point1.Data.Start, false
TestParameter, AutoAnalysis.Line1.Point1.Data.StartVar, 
TestParameter, AutoAnalysis.Line1.Point1.Data.StartCondition, 
TestParameter, AutoAnalysis.Line1.Point2.Type, 0
TestParameter, AutoAnalysis.Line1.Point2.XY.X, 
TestParameter, AutoAnalysis.Line1.Point2.XY.Y, 
TestParameter, AutoAnalysis.Line1.Point2.Data.Var, 
TestParameter, AutoAnalysis.Line1.Point2.Data.Condition, 
TestParameter, AutoAnalysis.Line1.Point2.Data.Start, false
TestParameter, AutoAnalysis.Line1.Point2.Data.StartVar, 
TestParameter, AutoAnalysis.Line1.Point2.Data.StartCondition, 
TestParameter, AutoAnalysis.Line1.GradientExpr, 0
TestParameter, AutoAnalysis.Line2.Enabled, false
TestParameter, AutoAnalysis.Line2.Type, 1
TestParameter, AutoAnalysis.Line2.Fix, True
TestParameter, AutoAnalysis.Line2.YAxis, 0
TestParameter, AutoAnalysis.Line2.Point1.Type, 0
TestParameter, AutoAnalysis.Line2.Point1.XY.X, 
TestParameter, AutoAnalysis.Line2.Point1.XY.Y, 
TestParameter, AutoAnalysis.Line2.Point1.Data.Var, 
TestParameter, AutoAnalysis.Line2.Point1.Data.Condition, 
TestParameter, AutoAnalysis.Line2.Point1.Data.Start, false
TestParameter, AutoAnalysis.Line2.Point1.Data.StartVar, 
TestParameter, AutoAnalysis.Line2.Point1.Data.StartCondition, 
TestParameter, AutoAnalysis.Line2.Point2.Type, 0
TestParameter, AutoAnalysis.Line2.Point2.XY.X, 
TestParameter, AutoAnalysis.Line2.Point2.XY.Y, 
TestParameter, AutoAnalysis.Line2.Point2.Data.Var, 
TestParameter, AutoAnalysis.Line2.Point2.Data.Condition, 
TestParameter, AutoAnalysis.Line2.Point2.Data.Start, false
TestParameter, AutoAnalysis.Line2.Point2.Data.StartVar, 
TestParameter, AutoAnalysis.Line2.Point2.Data.StartCondition, 
TestParameter, AutoAnalysis.Line2.GradientExpr, 0
TestParameter, AutoAnalysis.Marker.Enabled, false
TestParameter, AutoAnalysis.Marker.Data.Var, 
TestParameter, AutoAnalysis.Marker.Data.Condition, 
TestParameter, AutoAnalysis.Marker.Data.Start, false
TestParameter, AutoAnalysis.Marker.Data.StartVar, 
TestParameter, AutoAnalysis.Marker.Data.StartCondition, 
MetaData, TestRecord.EntryPoint, true
MetaData, TestRecord.RecordTime, 03/10/2023 17:06:53
MetaData, TestRecord.TestTarget, 
MetaData, TestRecord.IterationIndex, 37
MetaData, TestRecord.Preservation, true
MetaData, TestRecord.Flag, 
MetaData, TestRecord.Remarks, 
MetaData, TestRecord.LinkKey, f6208558-44d1-442b-98ef-f875fc361603
Dimension1, 402, 402, 402, 402, 402, 402, 402, 402
Dimension2, 1, 1, 1, 1, 1, 1, 1, 1
DataName, V1, V2, I1, I2, V3, I3, V4, I4
DataValue, -2, 0.25, -7.61E-12, 6.7510000000000008E-11, , , , 
DataValue, -1.8900000000000001, 0.25, -3.58E-12, 6.272E-11, , , , 
DataValue, -1.78, 0.25, -2.9E-12, 5.938E-11, , , , 
DataValue, -1.67, 0.25, -2.04E-12, 5.5260000000000005E-11, , , , 
DataValue, -1.56, 0.25, -8.1000000000000008E-13, 4.8640000000000006E-11, , , , 
DataValue, -1.45, 0.25, -1.1100000000000001E-12, 4.4450000000000005E-11, , , , 
DataValue, -1.34, 0.25, -6.3E-13, 4.1600000000000004E-11, , , , 
DataValue, -1.23, 0.25, 3.0000000000000003E-13, 3.853E-11, , , , 
DataValue, -1.12, 0.25, 2.4000000000000004E-13, 3.467E-11, , , , 
DataValue, -1.01, 0.25, -8.0000000000000013E-14, 3.1770000000000004E-11, , , , 
DataValue, -0.9, 0.25, 2E-13, 3.082E-11, , , , 
DataValue, -0.79, 0.25, 1.4700000000000002E-12, 2.899E-11, , , , 
DataValue, -0.68, 0.25, 1.23E-12, 2.6500000000000002E-11, , , , 
DataValue, -0.57000000000000006, 0.25, 1.3400000000000002E-12, 2.507E-11, , , , 
DataValue, -0.46, 0.25, 1.5300000000000001E-12, 2.6610000000000002E-11, , , , 
DataValue, -0.35000000000000003, 0.25, 2.62E-12, 2.429E-11, , , , 
DataValue, -0.24, 0.25, 2.2200000000000002E-12, 2.285E-11, , , , 
DataValue, -0.13, 0.25, 2.4000000000000003E-12, 2.209E-11, , , , 
DataValue, -0.02, 0.25, 1.93E-12, 2.3990000000000003E-11, , , , 
DataValue, 0.09, 0.25, 2.54E-12, 2.351E-11, , , , 
DataValue, 0.2, 0.25, 2.1500000000000003E-12, 2.161E-11, , , , 
DataValue, 0.31, 0.25, 3.3400000000000003E-12, 2.0800000000000002E-11, , , , 
DataValue, 0.42, 0.25, 2.7800000000000003E-12, 2.258E-11, , , , 
DataValue, 0.53, 0.25, 3.48E-12, 2.2570000000000003E-11, , , , 
DataValue, 0.64, 0.25, 3.4200000000000004E-12, 2.129E-11, , , , 
DataValue, 0.75, 0.25, 2.8100000000000003E-12, 2.107E-11, , , , 
DataValue, 0.86, 0.25, 3.61E-12, 2.201E-11, , , , 
DataValue, 0.97, 0.25, 3.96E-12, 2.198E-11, , , , 
DataValue, 1.08, 0.25, 3.1700000000000004E-12, 2.116E-11, , , , 
DataValue, 1.19, 0.25, 3.38E-12, 2.0800000000000002E-11, , , , 
DataValue, 1.3, 0.25, 3.58E-12, 2.22E-11, , , , 
DataValue, 1.41, 0.25, 4.28E-12, 2.1330000000000002E-11, , , , 
DataValue, 1.52, 0.25, 4.07E-12, 2.0550000000000003E-11, , , , 
DataValue, 1.6300000000000001, 0.25, 4.18E-12, 2.074E-11, , , , 
DataValue, 1.74, 0.25, 4.18E-12, 2.203E-11, , , , 
DataValue, 1.85, 0.25, 4.16E-12, 2.1570000000000003E-11, , , , 
DataValue, 1.96, 0.25, 4.5000000000000006E-12, 2.0480000000000003E-11, , , , 
DataValue, 2.07, 0.25, 4.6600000000000007E-12, 2.0800000000000002E-11, , , , 
DataValue, 2.18, 0.25, 4.41E-12, 2.129E-11, , , , 
DataValue, 2.29, 0.25, 5.5200000000000007E-12, 2.1460000000000003E-11, , , , 
DataValue, 2.4, 0.25, 4.5500000000000006E-12, 2.063E-11, , , , 
DataValue, 2.5100000000000002, 0.25, 5.0000000000000005E-12, 2.0910000000000002E-11, , , , 
DataValue, 2.62, 0.25, 5.3100000000000006E-12, 2.1480000000000003E-11, , , , 
DataValue, 2.73, 0.25, 5.7700000000000007E-12, 2.1240000000000002E-11, , , , 
DataValue, 2.84, 0.25, 5.08E-12, 1.9800000000000002E-11, , , , 
DataValue, 2.95, 0.25, 5.5200000000000007E-12, 2.003E-11, , , , 
DataValue, 3.06, 0.25, 5.7300000000000008E-12, 2.1770000000000003E-11, , , , 
DataValue, 3.17, 0.25, 6.7900000000000008E-12, 2.0690000000000002E-11, , , , 
DataValue, 3.2800000000000002, 0.25, 6.2700000000000005E-12, 1.9530000000000003E-11, , , , 
DataValue, 3.39, 0.25, 6.9400000000000007E-12, 1.948E-11, , , , 
DataValue, 3.5, 0.25, 6.51E-12, 2.1590000000000003E-11, , , , 
DataValue, 3.61, 0.25, 7.0500000000000009E-12, 2.114E-11, , , , 
DataValue, 3.72, 0.25, 6.81E-12, 2.0060000000000003E-11, , , , 
DataValue, 3.83, 0.25, 6.86E-12, 2.0000000000000002E-11, , , , 
DataValue, 3.94, 0.25, 7.0800000000000005E-12, 2.1330000000000002E-11, , , , 
DataValue, 4.05, 0.25, 8.7100000000000015E-12, 2.038E-11, , , , 
DataValue, 4.16, 0.25, 7.42E-12, 1.977E-11, , , , 
DataValue, 4.2700000000000005, 0.25, 8.22E-12, 1.897E-11, , , , 
DataValue, 4.38, 0.25, 8.54E-12, 2.0750000000000003E-11, , , , 
DataValue, 4.49, 0.25, 9.24E-12, 2.0510000000000002E-11, , , , 
DataValue, 4.6000000000000005, 0.25, 8.680000000000001E-12, 1.9130000000000003E-11, , , , 
DataValue, 4.71, 0.25, 9.58E-12, 1.9860000000000003E-11, , , , 
DataValue, 4.82, 0.25, 9.25E-12, 2.1190000000000003E-11, , , , 
DataValue, 4.93, 0.25, 1.015E-11, 2.0530000000000002E-11, , , , 
DataValue, 5.04, 0.25, 1.0730000000000001E-11, 1.908E-11, , , , 
DataValue, 5.15, 0.25, 1.0600000000000001E-11, 2.0060000000000003E-11, , , , 
DataValue, 5.26, 0.25, 1.079E-11, 2.0000000000000002E-11, , , , 
DataValue, 5.37, 0.25, 1.251E-11, 2.038E-11, , , , 
DataValue, 5.48, 0.25, 1.229E-11, 1.7980000000000002E-11, , , , 
DataValue, 5.59, 0.25, 1.302E-11, 1.8870000000000002E-11, , , , 
DataValue, 5.7, 0.25, 1.353E-11, 2.0310000000000002E-11, , , , 
DataValue, 5.8100000000000005, 0.25, 1.412E-11, 1.963E-11, , , , 
DataValue, 5.92, 0.25, 1.458E-11, 1.7930000000000003E-11, , , , 
DataValue, 6.03, 0.25, 1.537E-11, 1.7890000000000002E-11, , , , 
DataValue, 6.1400000000000006, 0.25, 1.58E-11, 1.9020000000000003E-11, , , , 
DataValue, 6.25, 0.25, 1.581E-11, 1.835E-11, , , , 
DataValue, 6.36, 0.25, 1.624E-11, 1.7070000000000002E-11, , , , 
DataValue, 6.47, 0.25, 1.821E-11, 1.7470000000000002E-11, , , , 
DataValue, 6.58, 0.25, 1.815E-11, 1.8510000000000003E-11, , , , 
DataValue, 6.69, 0.25, 1.9860000000000003E-11, 1.713E-11, , , , 
DataValue, 6.8, 0.25, 2.096E-11, 1.661E-11, , , , 
DataValue, 6.91, 0.25, 2.161E-11, 1.612E-11, , , , 
DataValue, 7.0200000000000005, 0.25, 2.2880000000000003E-11, 1.753E-11, , , , 
DataValue, 7.13, 0.25, 2.502E-11, 1.695E-11, , , , 
DataValue, 7.24, 0.25, 2.6250000000000003E-11, 1.5140000000000002E-11, , , , 
DataValue, 7.3500000000000005, 0.25, 2.7800000000000004E-11, 1.4650000000000002E-11, , , , 
DataValue, 7.46, 0.25, 2.9730000000000004E-11, 1.5560000000000002E-11, , , , 
DataValue, 7.57, 0.25, 3.2E-11, 1.5120000000000002E-11, , , , 
DataValue, 7.68, 0.25, 3.401E-11, 1.3740000000000001E-11, , , , 
DataValue, 7.79, 0.25, 3.6940000000000004E-11, 1.2350000000000001E-11, , , , 
DataValue, 7.9, 0.25, 3.85E-11, 1.2850000000000001E-11, , , , 
DataValue, 8.01, 0.25, 4.2330000000000004E-11, 1.229E-11, , , , 
DataValue, 8.120000000000001, 0.25, 4.414E-11, 1.006E-11, , , , 
DataValue, 8.23, 0.25, 4.804E-11, 9.8100000000000012E-12, , , , 
DataValue, 8.34, 0.25, 5.1620000000000005E-11, 9.74E-12, , , , 
DataValue, 8.45, 0.25, 5.6790000000000005E-11, 8.14E-12, , , , 
DataValue, 8.56, 0.25, 6.011E-11, 6.26E-12, , , , 
DataValue, 8.67, 0.25, 6.461000000000001E-11, 4.98E-12, , , , 
DataValue, 8.78, 0.25, 6.893E-11, 5.53E-12, , , , 
DataValue, 8.89, 0.25, 7.549E-11, 3.71E-12, , , , 
DataValue, 9, 0.25, 8.045E-11, 1.5600000000000002E-12, , , , 
DataValue, 9.11, 0.25, 8.58E-11, -1.8000000000000002E-13, , , , 
DataValue, 9.22, 0.25, 9.3400000000000008E-11, -1.4300000000000002E-12, , , , 
DataValue, 9.33, 0.25, 9.97E-11, -2.5300000000000003E-12, , , , 
DataValue, 9.44, 0.25, 1.0726000000000001E-10, -6.2400000000000009E-12, , , , 
DataValue, 9.55, 0.25, 1.1425E-10, -8.36E-12, , , , 
DataValue, 9.66, 0.25, 1.2288000000000002E-10, -8.82E-12, , , , 
DataValue, 9.77, 0.25, 1.3160000000000002E-10, -1.117E-11, , , , 
DataValue, 9.88, 0.25, 1.3991E-10, -1.462E-11, , , , 
DataValue, 9.99, 0.25, 1.496E-10, -1.754E-11, , , , 
DataValue, 10.1, 0.25, 1.5932000000000003E-10, -1.855E-11, , , , 
DataValue, 10.21, 0.25, 1.7003E-10, -2.181E-11, , , , 
DataValue, 10.32, 0.25, 1.8041000000000003E-10, -2.5250000000000003E-11, , , , 
DataValue, 10.43, 0.25, 1.9076000000000002E-10, -2.8820000000000004E-11, , , , 
DataValue, 10.540000000000001, 0.25, 2.0217E-10, -3.026E-11, , , , 
DataValue, 10.65, 0.25, 2.1454000000000002E-10, -3.335E-11, , , , 
DataValue, 10.76, 0.25, 2.2617E-10, -3.835E-11, , , , 
DataValue, 10.870000000000001, 0.25, 2.3903E-10, -4.196E-11, , , , 
DataValue, 10.98, 0.25, 2.5108000000000003E-10, -4.45E-11, , , , 
DataValue, 11.09, 0.25, 2.6534000000000004E-10, -4.7860000000000003E-11, , , , 
DataValue, 11.200000000000001, 0.25, 2.7805000000000004E-10, -5.3140000000000003E-11, , , , 
DataValue, 11.31, 0.25, 2.9264000000000004E-10, -5.7010000000000005E-11, , , , 
DataValue, 11.42, 0.25, 3.0639E-10, -5.98E-11, , , , 
DataValue, 11.53, 0.25, 3.2157E-10, -6.3780000000000011E-11, , , , 
DataValue, 11.64, 0.25, 3.3492E-10, -6.943E-11, , , , 
DataValue, 11.75, 0.25, 3.5172000000000005E-10, -7.351E-11, , , , 
DataValue, 11.86, 0.25, 3.6804E-10, -7.678E-11, , , , 
DataValue, 11.97, 0.25, 3.8484000000000004E-10, -8.103E-11, , , , 
DataValue, 12.08, 0.25, 4.0128000000000003E-10, -8.7280000000000008E-11, , , , 
DataValue, 12.19, 0.25, 4.1614E-10, -9.210000000000001E-11, , , , 
DataValue, 12.3, 0.25, 4.3339000000000004E-10, -9.4910000000000011E-11, , , , 
DataValue, 12.41, 0.25, 4.5101000000000003E-10, -9.9960000000000009E-11, , , , 
DataValue, 12.52, 0.25, 4.6781000000000006E-10, -1.0619000000000001E-10, , , , 
DataValue, 12.63, 0.25, 4.8487E-10, -1.1181000000000001E-10, , , , 
DataValue, 12.74, 0.25, 5.0229E-10, -1.1539000000000002E-10, , , , 
DataValue, 12.85, 0.25, 5.2003E-10, -1.1927000000000002E-10, , , , 
DataValue, 12.96, 0.25, 5.3793E-10, -1.2537E-10, , , , 
DataValue, 13.07, 0.25, 5.5548E-10, -1.3126000000000002E-10, , , , 
DataValue, 13.18, 0.25, 5.7389000000000007E-10, -1.356E-10, , , , 
DataValue, 13.290000000000001, 0.25, 5.9133000000000007E-10, -1.3954000000000002E-10, , , , 
DataValue, 13.4, 0.25, 6.1076000000000007E-10, -1.4632000000000002E-10, , , , 
DataValue, 13.51, 0.25, 6.2851E-10, -1.5253000000000002E-10, , , , 
DataValue, 13.620000000000001, 0.25, 6.4664000000000005E-10, -1.5629E-10, , , , 
DataValue, 13.73, 0.25, 6.6548000000000006E-10, -1.6095000000000002E-10, , , , 
DataValue, 13.84, 0.25, 6.8404E-10, -1.6685000000000002E-10, , , , 
DataValue, 13.950000000000001, 0.25, 7.0307E-10, -1.733E-10, , , , 
DataValue, 14.06, 0.25, 7.2161000000000005E-10, -1.7636000000000003E-10, , , , 
DataValue, 14.17, 0.25, 7.4098000000000006E-10, -1.8191000000000002E-10, , , , 
DataValue, 14.280000000000001, 0.25, 7.5862E-10, -1.8784000000000002E-10, , , , 
DataValue, 14.39, 0.25, 7.777100000000001E-10, -1.9401E-10, , , , 
DataValue, 14.5, 0.25, 7.9596000000000011E-10, -1.9859E-10, , , , 
DataValue, 14.61, 0.25, 8.1519000000000006E-10, -2.0252000000000002E-10, , , , 
DataValue, 14.72, 0.25, 8.3516E-10, -2.0941E-10, , , , 
DataValue, 14.83, 0.25, 8.5212000000000005E-10, -2.1487000000000003E-10, , , , 
DataValue, 14.94, 0.25, 8.7286E-10, -2.2125E-10, , , , 
DataValue, 15.05, 0.25, 8.9183000000000011E-10, -2.247E-10, , , , 
DataValue, 15.16, 0.25, 9.1135000000000006E-10, -2.3120000000000001E-10, , , , 
DataValue, 15.27, 0.25, 9.302900000000001E-10, -2.3805E-10, , , , 
DataValue, 15.38, 0.25, 9.4945E-10, -2.4376E-10, , , , 
DataValue, 15.49, 0.25, 9.6800000000000017E-10, -2.4796000000000004E-10, , , , 
DataValue, 15.6, 0.25, 9.8834000000000013E-10, -2.5309E-10, , , , 
DataValue, 15.71, 0.25, 1.0083000000000001E-09, -2.5984E-10, , , , 
DataValue, 15.82, 0.25, 1.0269600000000001E-09, -2.6669000000000004E-10, , , , 
DataValue, 15.93, 0.25, 1.04536E-09, -2.7047E-10, , , , 
DataValue, 16.04, 0.25, 1.06497E-09, -2.7520000000000004E-10, , , , 
DataValue, 16.15, 0.25, 1.08458E-09, -2.8166000000000004E-10, , , , 
DataValue, 16.26, 0.25, 1.0854E-09, -2.8195000000000004E-10, , , , 
DataValue, 16.37, 0.25, 1.1068E-09, -2.8859000000000003E-10, , , , 
DataValue, 16.48, 0.25, 1.129E-09, -2.9552000000000003E-10, , , , 
DataValue, 16.59, 0.25, 1.1507E-09, -3.0068000000000004E-10, , , , 
DataValue, 16.7, 0.25, 1.1721E-09, -3.0764000000000004E-10, , , , 
DataValue, 16.81, 0.25, 1.1932E-09, -3.1402E-10, , , , 
DataValue, 16.92, 0.25, 1.2157E-09, -3.2117000000000004E-10, , , , 
DataValue, 17.03, 0.25, 1.2391E-09, -3.2717E-10, , , , 
DataValue, 17.14, 0.25, 1.2604E-09, -3.3383E-10, , , , 
DataValue, 17.25, 0.25, 1.283E-09, -3.4019000000000004E-10, , , , 
DataValue, 17.36, 0.25, 1.305E-09, -3.4686000000000003E-10, , , , 
DataValue, 17.47, 0.25, 1.3268E-09, -3.5303E-10, , , , 
DataValue, 17.580000000000002, 0.25, 1.3496E-09, -3.6004000000000003E-10, , , , 
DataValue, 17.69, 0.25, 1.3707E-09, -3.6620000000000004E-10, , , , 
DataValue, 17.8, 0.25, 1.3944E-09, -3.7368000000000005E-10, , , , 
DataValue, 17.91, 0.25, 1.4155E-09, -3.7915000000000003E-10, , , , 
DataValue, 18.02, 0.25, 1.4385E-09, -3.8585E-10, , , , 
DataValue, 18.13, 0.25, 1.461E-09, -3.9202E-10, , , , 
DataValue, 18.240000000000002, 0.25, 1.4828E-09, -3.9872000000000005E-10, , , , 
DataValue, 18.35, 0.25, 1.5032E-09, -4.0447000000000005E-10, , , , 
DataValue, 18.46, 0.25, 1.5268E-09, -4.1181000000000005E-10, , , , 
DataValue, 18.57, 0.25, 1.549E-09, -4.1735E-10, , , , 
DataValue, 18.68, 0.25, 1.5714E-09, -4.2398E-10, , , , 
DataValue, 18.79, 0.25, 1.5945E-09, -4.3012E-10, , , , 
DataValue, 18.900000000000002, 0.25, 1.6167E-09, -4.3714000000000005E-10, , , , 
DataValue, 19.01, 0.25, 1.6373E-09, -4.4349000000000004E-10, , , , 
DataValue, 19.12, 0.25, 1.6609E-09, -4.4972E-10, , , , 
DataValue, 19.23, 0.25, 1.6825E-09, -4.5651000000000006E-10, , , , 
DataValue, 19.34, 0.25, 1.7043E-09, -4.6325000000000003E-10, , , , 
DataValue, 19.45, 0.25, 1.7272E-09, -4.6972E-10, , , , 
DataValue, 19.56, 0.25, 1.7494E-09, -4.7682E-10, , , , 
DataValue, 19.67, 0.25, 1.7699E-09, -4.8207000000000007E-10, , , , 
DataValue, 19.78, 0.25, 1.7933E-09, -4.8809E-10, , , , 
DataValue, 19.89, 0.25, 1.8166E-09, -4.9588E-10, , , , 
DataValue, 20, 0.25, 1.8362E-09, -5.0169000000000005E-10, , , , 
DataValue, 20, 0.25, 1.8298E-09, -4.9821000000000008E-10, , , , 
DataValue, 19.89, 0.25, 1.7535E-09, -4.7709000000000006E-10, , , , 
DataValue, 19.78, 0.25, 1.6803E-09, -4.5628000000000005E-10, , , , 
DataValue, 19.67, 0.25, 1.6129E-09, -4.3592000000000003E-10, , , , 
