
SetupTitle, ID-VG Postbreak
PrimitiveTest, I/V Sweep
TestParameter, Context.MainFrame, B1500A
TestParameter, Channel.UnitType, SMU, SMU
TestParameter, Channel.Unit, SMU1:MP, SMU2:MP
TestParameter, Channel.IName, I1, I2
TestParameter, Channel.VName, V1, V2
TestParameter, Channel.Mode, V, V
TestParameter, Channel.Func, VAR1, CONST
TestParameter, Channel.Index, 
TestParameter, Channel.Time, 
TestParameter, Measurement.Port.Unit, SMU1:MP, SMU2:MP
TestParameter, Measurement.Port.SeriesResistor, NONE, NONE
TestParameter, Measurement.Port.Filter, ON, ON
TestParameter, Measurement.Port.OutputVoltageComparison, 0, 0
TestParameter, Measurement.Primary.Locus, Double
TestParameter, Measurement.Primary.Scale, LINEAR
TestParameter, Measurement.Primary.Start, -2
TestParameter, Measurement.Primary.Stop, 20
TestParameter, Measurement.Primary.Step, 0.11
TestParameter, Measurement.Primary.Compliance, 0.1
TestParameter, Measurement.Primary.PowerCompliance, 0
TestParameter, Measurement.Aborting.Condition, CONTINUE AT ANY
TestParameter, Measurement.PostOutput.Value, START
TestParameter, Measurement.PostOutput.Retention, OFF
TestParameter, Measurement.Bias.Source, -2, 0.25
TestParameter, Measurement.Bias.Compliance, 0.1, 0.1
TestParameter, Measurement.Monitor.Unit, SMU1:MP, SMU2:MP
TestParameter, Measurement.Monitor.Adc, HR ADC, HR ADC
TestParameter, Measurement.Monitor.Measurement, Compliance Side, Compliance Side
TestParameter, Measurement.Monitor.RangingMode, LIMITED, LIMITED
TestParameter, Measurement.Monitor.RangeBoundary, 1nA, 1nA
TestParameter, Measurement.Monitor.RangeRating, BY FULL RANGE, BY FULL RANGE
TestParameter, Measurement.Monitor.RangeRatingCoeff, 50, 50
TestParameter, Measurement.Timing.Hold, 0
TestParameter, Measurement.Timing.Delay, 0
TestParameter, Measurement.Adc.HighSpeed.Mode, AUTO
TestParameter, Measurement.Adc.HighSpeed.Coeff, 1
TestParameter, Measurement.Adc.HighResolution.AutoZero, OFF
TestParameter, Measurement.Adc.HighResolution.Mode, AUTO
TestParameter, Measurement.Adc.HighResolution.Coeff, 6
TestParameter, Measurement.WaitTime.Source.Coeff, 1
TestParameter, Measurement.WaitTime.Source.Offset, 0
TestParameter, Measurement.WaitTime.Monitor.Coeff, 1
TestParameter, Measurement.WaitTime.Monitor.Offset, 0
TestParameter, Output.Graph.Enabled, true
TestParameter, Output.Graph.AutoScaling, false
TestParameter, Output.Graph.XAxis.Data, V1
TestParameter, Output.Graph.XAxis.Scale, Linear
TestParameter, Output.Graph.XAxis.Left, -2
TestParameter, Output.Graph.XAxis.Right, 6
TestParameter, Output.Graph.XAxis.RunTimeAutoScale, true
TestParameter, Output.Graph.YAxis.Data, I2
TestParameter, Output.Graph.YAxis.Scale, Linear
TestParameter, Output.Graph.YAxis.Bottom, -0.1
TestParameter, Output.Graph.YAxis.Top, 0.1
TestParameter, Output.Graph.YAxis.Group, 
TestParameter, Output.Graph.YAxis.RunTimeAutoScale, true
TestParameter, Output.List.Data, V1, I1, V2, I2, V3, I3, V4, I4
TestParameter, AutoAnalysis.Interpolation, false
TestParameter, AutoAnalysis.Line1.Enabled, false
TestParameter, AutoAnalysis.Line1.Type, 1
TestParameter, AutoAnalysis.Line1.Fix, True
TestParameter, AutoAnalysis.Line1.YAxis, 0
TestParameter, AutoAnalysis.Line1.Point1.Type, 0
TestParameter, AutoAnalysis.Line1.Point1.XY.X, 
TestParameter, AutoAnalysis.Line1.Point1.XY.Y, 
TestParameter, AutoAnalysis.Line1.Point1.Data.Var, 
TestParameter, AutoAnalysis.Line1.Point1.Data.Condition, 
TestParameter, AutoAnalysis.Line1.Point1.Data.Start, false
TestParameter, AutoAnalysis.Line1.Point1.Data.StartVar, 
TestParameter, AutoAnalysis.Line1.Point1.Data.StartCondition, 
TestParameter, AutoAnalysis.Line1.Point2.Type, 0
TestParameter, AutoAnalysis.Line1.Point2.XY.X, 
TestParameter, AutoAnalysis.Line1.Point2.XY.Y, 
TestParameter, AutoAnalysis.Line1.Point2.Data.Var, 
TestParameter, AutoAnalysis.Line1.Point2.Data.Condition, 
TestParameter, AutoAnalysis.Line1.Point2.Data.Start, false
TestParameter, AutoAnalysis.Line1.Point2.Data.StartVar, 
TestParameter, AutoAnalysis.Line1.Point2.Data.StartCondition, 
TestParameter, AutoAnalysis.Line1.GradientExpr, 0
TestParameter, AutoAnalysis.Line2.Enabled, false
TestParameter, AutoAnalysis.Line2.Type, 1
TestParameter, AutoAnalysis.Line2.Fix, True
TestParameter, AutoAnalysis.Line2.YAxis, 0
TestParameter, AutoAnalysis.Line2.Point1.Type, 0
TestParameter, AutoAnalysis.Line2.Point1.XY.X, 
TestParameter, AutoAnalysis.Line2.Point1.XY.Y, 
TestParameter, AutoAnalysis.Line2.Point1.Data.Var, 
TestParameter, AutoAnalysis.Line2.Point1.Data.Condition, 
TestParameter, AutoAnalysis.Line2.Point1.Data.Start, false
TestParameter, AutoAnalysis.Line2.Point1.Data.StartVar, 
TestParameter, AutoAnalysis.Line2.Point1.Data.StartCondition, 
TestParameter, AutoAnalysis.Line2.Point2.Type, 0
TestParameter, AutoAnalysis.Line2.Point2.XY.X, 
TestParameter, AutoAnalysis.Line2.Point2.XY.Y, 
TestParameter, AutoAnalysis.Line2.Point2.Data.Var, 
TestParameter, AutoAnalysis.Line2.Point2.Data.Condition, 
TestParameter, AutoAnalysis.Line2.Point2.Data.Start, false
TestParameter, AutoAnalysis.Line2.Point2.Data.StartVar, 
TestParameter, AutoAnalysis.Line2.Point2.Data.StartCondition, 
TestParameter, AutoAnalysis.Line2.GradientExpr, 0
TestParameter, AutoAnalysis.Marker.Enabled, false
TestParameter, AutoAnalysis.Marker.Data.Var, 
TestParameter, AutoAnalysis.Marker.Data.Condition, 
TestParameter, AutoAnalysis.Marker.Data.Start, false
TestParameter, AutoAnalysis.Marker.Data.StartVar, 
TestParameter, AutoAnalysis.Marker.Data.StartCondition, 
MetaData, TestRecord.EntryPoint, true
MetaData, TestRecord.RecordTime, 03/10/2023 17:09:57
MetaData, TestRecord.TestTarget, 
MetaData, TestRecord.IterationIndex, 41
MetaData, TestRecord.Preservation, true
MetaData, TestRecord.Flag, 
MetaData, TestRecord.Remarks, 
MetaData, TestRecord.LinkKey, f553960d-8ffa-471c-9e61-f1f44b4270cd
Dimension1, 402, 402, 402, 402, 402, 402, 402, 402
Dimension2, 1, 1, 1, 1, 1, 1, 1, 1
DataName, V1, V2, I1, I2, V3, I3, V4, I4
DataValue, -2, 0.25, -3.9300000000000004E-12, 2.4280000000000002E-11, , , , 
DataValue, -1.8900000000000001, 0.25, -2.3200000000000002E-12, 2.5610000000000003E-11, , , , 
DataValue, -1.78, 0.25, -1.6300000000000001E-12, 2.578E-11, , , , 
DataValue, -1.67, 0.25, -1.14E-12, 2.5340000000000003E-11, , , , 
DataValue, -1.56, 0.25, -7.2000000000000006E-13, 2.378E-11, , , , 
DataValue, -1.45, 0.25, -6.1E-13, 2.5120000000000003E-11, , , , 
DataValue, -1.34, 0.25, -6.2000000000000008E-13, 2.6230000000000003E-11, , , , 
DataValue, -1.23, 0.25, 1.0000000000000002E-14, 2.4370000000000002E-11, , , , 
DataValue, -1.12, 0.25, -1.2000000000000002E-13, 2.3730000000000002E-11, , , , 
DataValue, -1.01, 0.25, 4.1E-13, 2.4570000000000002E-11, , , , 
DataValue, -0.9, 0.25, 4.9E-13, 2.604E-11, , , , 
DataValue, -0.79, 0.25, 1.13E-12, 2.4300000000000003E-11, , , , 
DataValue, -0.68, 0.25, 8.2E-13, 2.365E-11, , , , 
DataValue, -0.57000000000000006, 0.25, 1.3500000000000001E-12, 2.5300000000000002E-11, , , , 
DataValue, -0.46, 0.25, 2.4000000000000004E-13, 2.642E-11, , , , 
DataValue, -0.35000000000000003, 0.25, 9.2000000000000012E-13, 2.436E-11, , , , 
DataValue, -0.24, 0.25, 6.1E-13, 2.365E-11, , , , 
DataValue, -0.13, 0.25, 1.96E-12, 2.531E-11, , , , 
DataValue, -0.02, 0.25, 1.27E-12, 2.5450000000000003E-11, , , , 
DataValue, 0.09, 0.25, 1.86E-12, 2.4650000000000003E-11, , , , 
DataValue, 0.2, 0.25, 1.36E-12, 2.402E-11, , , , 
DataValue, 0.31, 0.25, 2.26E-12, 2.5350000000000002E-11, , , , 
DataValue, 0.42, 0.25, 1.4200000000000002E-12, 2.553E-11, , , , 
DataValue, 0.53, 0.25, 2.62E-12, 2.449E-11, , , , 
DataValue, 0.64, 0.25, 2.5600000000000004E-12, 2.4260000000000002E-11, , , , 
DataValue, 0.75, 0.25, 1.79E-12, 2.3230000000000003E-11, , , , 
DataValue, 0.86, 0.25, 2.0700000000000003E-12, 2.4960000000000004E-11, , , , 
DataValue, 0.97, 0.25, 2.2500000000000003E-12, 2.5700000000000002E-11, , , , 
DataValue, 1.08, 0.25, 2.6500000000000002E-12, 2.4040000000000002E-11, , , , 
DataValue, 1.19, 0.25, 2.11E-12, 2.34E-11, , , , 
DataValue, 1.3, 0.25, 2.4500000000000003E-12, 2.473E-11, , , , 
DataValue, 1.41, 0.25, 2.9400000000000004E-12, 2.509E-11, , , , 
DataValue, 1.52, 0.25, 2.9900000000000004E-12, 2.5120000000000003E-11, , , , 
DataValue, 1.6300000000000001, 0.25, 2.8300000000000003E-12, 2.336E-11, , , , 
DataValue, 1.74, 0.25, 2.3200000000000002E-12, 2.4440000000000002E-11, , , , 
DataValue, 1.85, 0.25, 3.6400000000000006E-12, 2.5520000000000003E-11, , , , 
DataValue, 1.96, 0.25, 3.8900000000000006E-12, 2.453E-11, , , , 
DataValue, 2.07, 0.25, 3.71E-12, 2.3440000000000002E-11, , , , 
DataValue, 2.18, 0.25, 3.1200000000000004E-12, 2.431E-11, , , , 
DataValue, 2.29, 0.25, 3.6800000000000005E-12, 2.555E-11, , , , 
DataValue, 2.4, 0.25, 3.5500000000000004E-12, 2.4430000000000003E-11, , , , 
DataValue, 2.5100000000000002, 0.25, 3.2900000000000003E-12, 2.3370000000000002E-11, , , , 
DataValue, 2.62, 0.25, 4.53E-12, 2.4640000000000002E-11, , , , 
DataValue, 2.73, 0.25, 4.16E-12, 2.4480000000000002E-11, , , , 
DataValue, 2.84, 0.25, 4.52E-12, 2.4850000000000003E-11, , , , 
DataValue, 2.95, 0.25, 3.92E-12, 2.385E-11, , , , 
DataValue, 3.06, 0.25, 4.42E-12, 2.396E-11, , , , 
DataValue, 3.17, 0.25, 4.2500000000000007E-12, 2.487E-11, , , , 
DataValue, 3.2800000000000002, 0.25, 4.6000000000000006E-12, 2.4570000000000002E-11, , , , 
DataValue, 3.39, 0.25, 4.9500000000000005E-12, 2.3700000000000003E-11, , , , 
DataValue, 3.5, 0.25, 4.46E-12, 2.3680000000000002E-11, , , , 
DataValue, 3.61, 0.25, 4.8100000000000007E-12, 2.4960000000000004E-11, , , , 
DataValue, 3.72, 0.25, 4.74E-12, 2.4970000000000002E-11, , , , 
DataValue, 3.83, 0.25, 5.13E-12, 2.2480000000000003E-11, , , , 
DataValue, 3.94, 0.25, 4.9500000000000005E-12, 2.338E-11, , , , 
DataValue, 4.05, 0.25, 5.5E-12, 2.4460000000000002E-11, , , , 
DataValue, 4.16, 0.25, 5.28E-12, 2.44E-11, , , , 
DataValue, 4.2700000000000005, 0.25, 5.19E-12, 2.258E-11, , , , 
DataValue, 4.38, 0.25, 5.2100000000000006E-12, 2.3920000000000003E-11, , , , 
DataValue, 4.49, 0.25, 5.8700000000000006E-12, 2.4430000000000003E-11, , , , 
DataValue, 4.6000000000000005, 0.25, 6.2E-12, 2.3720000000000003E-11, , , , 
DataValue, 4.71, 0.25, 6.3400000000000009E-12, 2.3520000000000003E-11, , , , 
DataValue, 4.82, 0.25, 5.55E-12, 2.3940000000000003E-11, , , , 
DataValue, 4.93, 0.25, 5.94E-12, 2.367E-11, , , , 
DataValue, 5.04, 0.25, 7.12E-12, 2.416E-11, , , , 
DataValue, 5.15, 0.25, 6.8000000000000009E-12, 2.3390000000000003E-11, , , , 
DataValue, 5.26, 0.25, 5.99E-12, 2.38E-11, , , , 
DataValue, 5.37, 0.25, 6.5300000000000007E-12, 2.4720000000000003E-11, , , , 
DataValue, 5.48, 0.25, 6.7700000000000004E-12, 2.3480000000000003E-11, , , , 
DataValue, 5.59, 0.25, 7.670000000000001E-12, 2.2590000000000003E-11, , , , 
DataValue, 5.7, 0.25, 6.35E-12, 2.265E-11, , , , 
DataValue, 5.8100000000000005, 0.25, 7.33E-12, 2.3730000000000002E-11, , , , 
DataValue, 5.92, 0.25, 7.01E-12, 2.402E-11, , , , 
DataValue, 6.03, 0.25, 7.6900000000000014E-12, 2.2130000000000002E-11, , , , 
DataValue, 6.1400000000000006, 0.25, 7.95E-12, 2.249E-11, , , , 
DataValue, 6.25, 0.25, 7.2300000000000005E-12, 2.4150000000000002E-11, , , , 
DataValue, 6.36, 0.25, 8.21E-12, 2.2730000000000002E-11, , , , 
DataValue, 6.47, 0.25, 8.23E-12, 2.212E-11, , , , 
DataValue, 6.58, 0.25, 8.73E-12, 2.305E-11, , , , 
DataValue, 6.69, 0.25, 8.63E-12, 2.4230000000000003E-11, , , , 
DataValue, 6.8, 0.25, 8.6900000000000011E-12, 2.28E-11, , , , 
DataValue, 6.91, 0.25, 8.65E-12, 2.218E-11, , , , 
DataValue, 7.0200000000000005, 0.25, 8.55E-12, 2.3020000000000002E-11, , , , 
DataValue, 7.13, 0.25, 9.55E-12, 2.342E-11, , , , 
DataValue, 7.24, 0.25, 9.74E-12, 2.311E-11, , , , 
DataValue, 7.3500000000000005, 0.25, 9.4000000000000011E-12, 2.1950000000000002E-11, , , , 
DataValue, 7.46, 0.25, 9.9300000000000015E-12, 2.2640000000000002E-11, , , , 
DataValue, 7.57, 0.25, 9.25E-12, 2.3640000000000002E-11, , , , 
DataValue, 7.68, 0.25, 1.0330000000000001E-11, 2.2790000000000003E-11, , , , 
DataValue, 7.79, 0.25, 9.7900000000000009E-12, 2.1110000000000002E-11, , , , 
DataValue, 7.9, 0.25, 1.075E-11, 2.2210000000000003E-11, , , , 
DataValue, 8.01, 0.25, 1.057E-11, 2.267E-11, , , , 
DataValue, 8.120000000000001, 0.25, 1.1040000000000001E-11, 2.289E-11, , , , 
DataValue, 8.23, 0.25, 1.0730000000000001E-11, 2.194E-11, , , , 
DataValue, 8.34, 0.25, 1.046E-11, 2.1990000000000003E-11, , , , 
DataValue, 8.45, 0.25, 1.109E-11, 2.2510000000000002E-11, , , , 
DataValue, 8.56, 0.25, 1.198E-11, 2.2220000000000002E-11, , , , 
DataValue, 8.67, 0.25, 1.1630000000000001E-11, 2.156E-11, , , , 
DataValue, 8.78, 0.25, 1.2740000000000001E-11, 2.149E-11, , , , 
DataValue, 8.89, 0.25, 1.2250000000000001E-11, 2.236E-11, , , , 
DataValue, 9, 0.25, 1.2660000000000001E-11, 2.187E-11, , , , 
DataValue, 9.11, 0.25, 1.3780000000000002E-11, 2.147E-11, , , , 
DataValue, 9.22, 0.25, 1.2670000000000002E-11, 2.039E-11, , , , 
DataValue, 9.33, 0.25, 1.422E-11, 2.265E-11, , , , 
DataValue, 9.44, 0.25, 1.471E-11, 2.298E-11, , , , 
DataValue, 9.55, 0.25, 1.4760000000000003E-11, 2.0840000000000002E-11, , , , 
DataValue, 9.66, 0.25, 1.4960000000000002E-11, 2.065E-11, , , , 
DataValue, 9.77, 0.25, 1.517E-11, 2.1350000000000003E-11, , , , 
DataValue, 9.88, 0.25, 1.571E-11, 2.2410000000000003E-11, , , , 
DataValue, 9.99, 0.25, 1.626E-11, 2.156E-11, , , , 
DataValue, 10.1, 0.25, 1.58E-11, 2.0750000000000003E-11, , , , 
DataValue, 10.21, 0.25, 1.6940000000000002E-11, 2.103E-11, , , , 
DataValue, 10.32, 0.25, 1.766E-11, 2.154E-11, , , , 
DataValue, 10.43, 0.25, 1.8360000000000002E-11, 2.078E-11, , , , 
DataValue, 10.540000000000001, 0.25, 1.85E-11, 1.916E-11, , , , 
DataValue, 10.65, 0.25, 1.9180000000000002E-11, 2.101E-11, , , , 
DataValue, 10.76, 0.25, 1.9380000000000002E-11, 2.1680000000000003E-11, , , , 
DataValue, 10.870000000000001, 0.25, 2.094E-11, 2.0350000000000003E-11, , , , 
DataValue, 10.98, 0.25, 2.1090000000000002E-11, 1.9440000000000003E-11, , , , 
DataValue, 11.09, 0.25, 2.2E-11, 1.9600000000000002E-11, , , , 
DataValue, 11.200000000000001, 0.25, 2.1950000000000002E-11, 2.025E-11, , , , 
DataValue, 11.31, 0.25, 2.3010000000000003E-11, 1.9660000000000003E-11, , , , 
DataValue, 11.42, 0.25, 2.3530000000000002E-11, 1.8870000000000002E-11, , , , 
DataValue, 11.53, 0.25, 2.4170000000000002E-11, 1.959E-11, , , , 
DataValue, 11.64, 0.25, 2.469E-11, 2.1090000000000002E-11, , , , 
DataValue, 11.75, 0.25, 2.5630000000000003E-11, 1.9640000000000003E-11, , , , 
DataValue, 11.86, 0.25, 2.611E-11, 1.8690000000000002E-11, , , , 
DataValue, 11.97, 0.25, 2.7480000000000002E-11, 1.9460000000000003E-11, , , , 
DataValue, 12.08, 0.25, 2.7520000000000002E-11, 2.007E-11, , , , 
DataValue, 12.19, 0.25, 2.931E-11, 1.9020000000000003E-11, , , , 
DataValue, 12.3, 0.25, 3.001E-11, 1.764E-11, , , , 
DataValue, 12.41, 0.25, 3.06E-11, 1.861E-11, , , , 
DataValue, 12.52, 0.25, 3.171E-11, 1.894E-11, , , , 
DataValue, 12.63, 0.25, 3.2980000000000005E-11, 1.775E-11, , , , 
DataValue, 12.74, 0.25, 3.365E-11, 1.6940000000000002E-11, , , , 
DataValue, 12.85, 0.25, 3.4210000000000004E-11, 1.7470000000000002E-11, , , , 
DataValue, 12.96, 0.25, 3.5300000000000003E-11, 1.781E-11, , , , 
DataValue, 13.07, 0.25, 3.681E-11, 1.7250000000000002E-11, , , , 
DataValue, 13.18, 0.25, 3.7240000000000005E-11, 1.6780000000000002E-11, , , , 
DataValue, 13.290000000000001, 0.25, 3.857E-11, 1.5560000000000002E-11, , , , 
DataValue, 13.4, 0.25, 3.944E-11, 1.635E-11, , , , 
DataValue, 13.51, 0.25, 4.027E-11, 1.672E-11, , , , 
DataValue, 13.620000000000001, 0.25, 4.1940000000000006E-11, 1.5520000000000002E-11, , , , 
DataValue, 13.73, 0.25, 4.134E-11, 1.5650000000000002E-11, , , , 
DataValue, 13.84, 0.25, 4.2890000000000006E-11, 1.5890000000000003E-11, , , , 
DataValue, 13.950000000000001, 0.25, 4.381E-11, 1.5940000000000002E-11, , , , 
DataValue, 14.06, 0.25, 4.519E-11, 1.531E-11, , , , 
DataValue, 14.17, 0.25, 4.6190000000000004E-11, 1.484E-11, , , , 
DataValue, 14.280000000000001, 0.25, 4.8E-11, 1.595E-11, , , , 
DataValue, 14.39, 0.25, 4.872E-11, 1.4960000000000002E-11, , , , 
DataValue, 14.5, 0.25, 5.04E-11, 1.3470000000000001E-11, , , , 
DataValue, 14.61, 0.25, 5.1440000000000005E-11, 1.2670000000000002E-11, , , , 
DataValue, 14.72, 0.25, 5.2780000000000004E-11, 1.4150000000000001E-11, , , , 
DataValue, 14.83, 0.25, 5.3070000000000004E-11, 1.3860000000000001E-11, , , , 
DataValue, 14.94, 0.25, 5.4500000000000006E-11, 1.251E-11, , , , 
DataValue, 15.05, 0.25, 5.5370000000000005E-11, 1.2840000000000001E-11, , , , 
DataValue, 15.16, 0.25, 5.6820000000000004E-11, 1.3090000000000002E-11, , , , 
DataValue, 15.27, 0.25, 5.7840000000000004E-11, 1.282E-11, , , , 
DataValue, 15.38, 0.25, 5.8960000000000009E-11, 1.1150000000000002E-11, , , , 
DataValue, 15.49, 0.25, 5.9680000000000007E-11, 1.1750000000000001E-11, , , , 
DataValue, 15.6, 0.25, 6.1520000000000011E-11, 1.1850000000000001E-11, , , , 
DataValue, 15.71, 0.25, 6.327E-11, 1.2250000000000001E-11, , , , 
DataValue, 15.82, 0.25, 6.4640000000000009E-11, 1.049E-11, , , , 
DataValue, 15.93, 0.25, 6.441E-11, 9.98E-12, , , , 
DataValue, 16.04, 0.25, 6.625E-11, 1.1040000000000001E-11, , , , 
DataValue, 16.15, 0.25, 6.739E-11, 1.048E-11, , , , 
DataValue, 16.26, 0.25, 6.9680000000000012E-11, 8.9100000000000014E-12, , , , 
DataValue, 16.37, 0.25, 6.934E-11, 8.2800000000000011E-12, , , , 
DataValue, 16.48, 0.25, 7.152E-11, 9.86E-12, , , , 
DataValue, 16.59, 0.25, 7.318E-11, 9.35E-12, , , , 
DataValue, 16.7, 0.25, 7.4020000000000006E-11, 8.070000000000001E-12, , , , 
DataValue, 16.81, 0.25, 7.5370000000000007E-11, 7.8600000000000008E-12, , , , 
DataValue, 16.92, 0.25, 7.665E-11, 8.070000000000001E-12, , , , 
DataValue, 17.03, 0.25, 7.802E-11, 8.16E-12, , , , 
DataValue, 17.14, 0.25, 7.959E-11, 7.74E-12, , , , 
DataValue, 17.25, 0.25, 7.9310000000000008E-11, 6.1E-12, , , , 
DataValue, 17.36, 0.25, 8.108E-11, 6.9500000000000009E-12, , , , 
DataValue, 17.47, 0.25, 8.2860000000000012E-11, 7.6900000000000014E-12, , , , 
DataValue, 17.580000000000002, 0.25, 8.507000000000001E-11, 6.6200000000000005E-12, , , , 
DataValue, 17.69, 0.25, 8.5590000000000012E-11, 5.19E-12, , , , 
DataValue, 17.8, 0.25, 8.6940000000000012E-11, 5.9300000000000008E-12, , , , 
DataValue, 17.91, 0.25, 8.7710000000000013E-11, 7.06E-12, , , , 
DataValue, 18.02, 0.25, 8.9180000000000009E-11, 5.4000000000000004E-12, , , , 
DataValue, 18.13, 0.25, 9.0420000000000009E-11, 3.5900000000000003E-12, , , , 
DataValue, 18.240000000000002, 0.25, 9.1610000000000007E-11, 4.72E-12, , , , 
DataValue, 18.35, 0.25, 9.3510000000000008E-11, 4.5900000000000004E-12, , , , 
DataValue, 18.46, 0.25, 9.449E-11, 4.33E-12, , , , 
DataValue, 18.57, 0.25, 9.5820000000000011E-11, 3.13E-12, , , , 
DataValue, 18.68, 0.25, 9.6490000000000007E-11, 3.3200000000000004E-12, , , , 
DataValue, 18.79, 0.25, 9.87E-11, 3.85E-12, , , , 
DataValue, 18.900000000000002, 0.25, 1.0011E-10, 3.6200000000000003E-12, , , , 
DataValue, 19.01, 0.25, 1.0128000000000001E-10, 1.37E-12, , , , 
DataValue, 19.12, 0.25, 1.0262E-10, 1.5800000000000001E-12, , , , 
DataValue, 19.23, 0.25, 1.043E-10, 2.26E-12, , , , 
DataValue, 19.34, 0.25, 1.0524E-10, 1.7700000000000001E-12, , , , 
DataValue, 19.45, 0.25, 1.0703E-10, 6.400000000000001E-13, , , , 
DataValue, 19.56, 0.25, 1.0853000000000001E-10, -3.8000000000000005E-13, , , , 
DataValue, 19.67, 0.25, 1.0889000000000001E-10, 1.18E-12, , , , 
DataValue, 19.78, 0.25, 1.1060000000000001E-10, 1.3E-13, , , , 
DataValue, 19.89, 0.25, 1.1177E-10, -5E-14, , , , 
DataValue, 20, 0.25, 1.1358000000000001E-10, -1.1600000000000001E-12, , , , 
DataValue, 20, 0.25, 1.1291000000000001E-10, 6.2000000000000008E-13, , , , 
