
SetupTitle, ID-VG Postbreak
PrimitiveTest, I/V Sweep
TestParameter, Context.MainFrame, B1500A
TestParameter, Channel.UnitType, SMU, SMU
TestParameter, Channel.Unit, SMU1:MP, SMU2:MP
TestParameter, Channel.IName, I1, I2
TestParameter, Channel.VName, V1, V2
TestParameter, Channel.Mode, V, V
TestParameter, Channel.Func, VAR1, CONST
TestParameter, Channel.Index, 
TestParameter, Channel.Time, 
TestParameter, Measurement.Port.Unit, SMU1:MP, SMU2:MP
TestParameter, Measurement.Port.SeriesResistor, NONE, NONE
TestParameter, Measurement.Port.Filter, ON, ON
TestParameter, Measurement.Port.OutputVoltageComparison, 0, 0
TestParameter, Measurement.Primary.Locus, Double
TestParameter, Measurement.Primary.Scale, LINEAR
TestParameter, Measurement.Primary.Start, -2
TestParameter, Measurement.Primary.Stop, 20
TestParameter, Measurement.Primary.Step, 0.11
TestParameter, Measurement.Primary.Compliance, 0.1
TestParameter, Measurement.Primary.PowerCompliance, 0
TestParameter, Measurement.Aborting.Condition, CONTINUE AT ANY
TestParameter, Measurement.PostOutput.Value, START
TestParameter, Measurement.PostOutput.Retention, OFF
TestParameter, Measurement.Bias.Source, -2, 0.25
TestParameter, Measurement.Bias.Compliance, 0.1, 0.1
TestParameter, Measurement.Monitor.Unit, SMU1:MP, SMU2:MP
TestParameter, Measurement.Monitor.Adc, HR ADC, HR ADC
TestParameter, Measurement.Monitor.Measurement, Compliance Side, Compliance Side
TestParameter, Measurement.Monitor.RangingMode, LIMITED, LIMITED
TestParameter, Measurement.Monitor.RangeBoundary, 1nA, 1nA
TestParameter, Measurement.Monitor.RangeRating, BY FULL RANGE, BY FULL RANGE
TestParameter, Measurement.Monitor.RangeRatingCoeff, 50, 50
TestParameter, Measurement.Timing.Hold, 0
TestParameter, Measurement.Timing.Delay, 0
TestParameter, Measurement.Adc.HighSpeed.Mode, AUTO
TestParameter, Measurement.Adc.HighSpeed.Coeff, 1
TestParameter, Measurement.Adc.HighResolution.AutoZero, OFF
TestParameter, Measurement.Adc.HighResolution.Mode, AUTO
TestParameter, Measurement.Adc.HighResolution.Coeff, 6
TestParameter, Measurement.WaitTime.Source.Coeff, 1
TestParameter, Measurement.WaitTime.Source.Offset, 0
TestParameter, Measurement.WaitTime.Monitor.Coeff, 1
TestParameter, Measurement.WaitTime.Monitor.Offset, 0
TestParameter, Output.Graph.Enabled, true
TestParameter, Output.Graph.AutoScaling, false
TestParameter, Output.Graph.XAxis.Data, V1
TestParameter, Output.Graph.XAxis.Scale, Linear
TestParameter, Output.Graph.XAxis.Left, -2
TestParameter, Output.Graph.XAxis.Right, 6
TestParameter, Output.Graph.XAxis.RunTimeAutoScale, true
TestParameter, Output.Graph.YAxis.Data, I2
TestParameter, Output.Graph.YAxis.Scale, Linear
TestParameter, Output.Graph.YAxis.Bottom, -0.1
TestParameter, Output.Graph.YAxis.Top, 0.1
TestParameter, Output.Graph.YAxis.Group, 
TestParameter, Output.Graph.YAxis.RunTimeAutoScale, true
TestParameter, Output.List.Data, V1, I1, V2, I2, V3, I3, V4, I4
TestParameter, AutoAnalysis.Interpolation, false
TestParameter, AutoAnalysis.Line1.Enabled, false
TestParameter, AutoAnalysis.Line1.Type, 1
TestParameter, AutoAnalysis.Line1.Fix, True
TestParameter, AutoAnalysis.Line1.YAxis, 0
TestParameter, AutoAnalysis.Line1.Point1.Type, 0
TestParameter, AutoAnalysis.Line1.Point1.XY.X, 
TestParameter, AutoAnalysis.Line1.Point1.XY.Y, 
TestParameter, AutoAnalysis.Line1.Point1.Data.Var, 
TestParameter, AutoAnalysis.Line1.Point1.Data.Condition, 
TestParameter, AutoAnalysis.Line1.Point1.Data.Start, false
TestParameter, AutoAnalysis.Line1.Point1.Data.StartVar, 
TestParameter, AutoAnalysis.Line1.Point1.Data.StartCondition, 
TestParameter, AutoAnalysis.Line1.Point2.Type, 0
TestParameter, AutoAnalysis.Line1.Point2.XY.X, 
TestParameter, AutoAnalysis.Line1.Point2.XY.Y, 
TestParameter, AutoAnalysis.Line1.Point2.Data.Var, 
TestParameter, AutoAnalysis.Line1.Point2.Data.Condition, 
TestParameter, AutoAnalysis.Line1.Point2.Data.Start, false
TestParameter, AutoAnalysis.Line1.Point2.Data.StartVar, 
TestParameter, AutoAnalysis.Line1.Point2.Data.StartCondition, 
TestParameter, AutoAnalysis.Line1.GradientExpr, 0
TestParameter, AutoAnalysis.Line2.Enabled, false
TestParameter, AutoAnalysis.Line2.Type, 1
TestParameter, AutoAnalysis.Line2.Fix, True
TestParameter, AutoAnalysis.Line2.YAxis, 0
TestParameter, AutoAnalysis.Line2.Point1.Type, 0
TestParameter, AutoAnalysis.Line2.Point1.XY.X, 
TestParameter, AutoAnalysis.Line2.Point1.XY.Y, 
TestParameter, AutoAnalysis.Line2.Point1.Data.Var, 
TestParameter, AutoAnalysis.Line2.Point1.Data.Condition, 
TestParameter, AutoAnalysis.Line2.Point1.Data.Start, false
TestParameter, AutoAnalysis.Line2.Point1.Data.StartVar, 
TestParameter, AutoAnalysis.Line2.Point1.Data.StartCondition, 
TestParameter, AutoAnalysis.Line2.Point2.Type, 0
TestParameter, AutoAnalysis.Line2.Point2.XY.X, 
TestParameter, AutoAnalysis.Line2.Point2.XY.Y, 
TestParameter, AutoAnalysis.Line2.Point2.Data.Var, 
TestParameter, AutoAnalysis.Line2.Point2.Data.Condition, 
TestParameter, AutoAnalysis.Line2.Point2.Data.Start, false
TestParameter, AutoAnalysis.Line2.Point2.Data.StartVar, 
TestParameter, AutoAnalysis.Line2.Point2.Data.StartCondition, 
TestParameter, AutoAnalysis.Line2.GradientExpr, 0
TestParameter, AutoAnalysis.Marker.Enabled, false
TestParameter, AutoAnalysis.Marker.Data.Var, 
TestParameter, AutoAnalysis.Marker.Data.Condition, 
TestParameter, AutoAnalysis.Marker.Data.Start, false
TestParameter, AutoAnalysis.Marker.Data.StartVar, 
TestParameter, AutoAnalysis.Marker.Data.StartCondition, 
MetaData, TestRecord.EntryPoint, true
MetaData, TestRecord.RecordTime, 03/10/2023 17:08:44
MetaData, TestRecord.TestTarget, 
MetaData, TestRecord.IterationIndex, 39
MetaData, TestRecord.Preservation, true
MetaData, TestRecord.Flag, 
MetaData, TestRecord.Remarks, 
MetaData, TestRecord.LinkKey, 8d2dc949-8eea-44b3-ad64-539c5b07868b
Dimension1, 402, 402, 402, 402, 402, 402, 402, 402
Dimension2, 1, 1, 1, 1, 1, 1, 1, 1
DataName, V1, V2, I1, I2, V3, I3, V4, I4
DataValue, -2, 0.25, -4.58E-12, 2.8910000000000003E-11, , , , 
DataValue, -1.8900000000000001, 0.25, -2.1700000000000002E-12, 2.797E-11, , , , 
DataValue, -1.78, 0.25, -1.91E-12, 2.717E-11, , , , 
DataValue, -1.67, 0.25, -1.14E-12, 2.7490000000000003E-11, , , , 
DataValue, -1.56, 0.25, -5.2E-13, 2.7940000000000003E-11, , , , 
DataValue, -1.45, 0.25, -2.7E-13, 2.844E-11, , , , 
DataValue, -1.34, 0.25, -4.4000000000000004E-13, 2.7280000000000002E-11, , , , 
DataValue, -1.23, 0.25, -1.2000000000000002E-13, 2.6520000000000003E-11, , , , 
DataValue, -1.12, 0.25, -2E-13, 2.846E-11, , , , 
DataValue, -1.01, 0.25, 3.6000000000000003E-13, 2.8620000000000004E-11, , , , 
DataValue, -0.9, 0.25, 1.41E-12, 2.6410000000000002E-11, , , , 
DataValue, -0.79, 0.25, 1.5000000000000002E-13, 2.626E-11, , , , 
DataValue, -0.68, 0.25, 1.1100000000000001E-12, 2.8470000000000003E-11, , , , 
DataValue, -0.57000000000000006, 0.25, 1.59E-12, 2.857E-11, , , , 
DataValue, -0.46, 0.25, 1.73E-12, 2.7070000000000003E-11, , , , 
DataValue, -0.35000000000000003, 0.25, 1.23E-12, 2.6390000000000002E-11, , , , 
DataValue, -0.24, 0.25, 1.7500000000000002E-12, 2.673E-11, , , , 
DataValue, -0.13, 0.25, 1.91E-12, 2.828E-11, , , , 
DataValue, -0.02, 0.25, 2.31E-12, 2.744E-11, , , , 
DataValue, 0.09, 0.25, 1.79E-12, 2.655E-11, , , , 
DataValue, 0.2, 0.25, 2.1200000000000003E-12, 2.7480000000000002E-11, , , , 
DataValue, 0.31, 0.25, 2.03E-12, 2.824E-11, , , , 
DataValue, 0.42, 0.25, 1.1900000000000002E-12, 2.6370000000000002E-11, , , , 
DataValue, 0.53, 0.25, 2.18E-12, 2.6140000000000003E-11, , , , 
DataValue, 0.64, 0.25, 2.34E-12, 2.7210000000000002E-11, , , , 
DataValue, 0.75, 0.25, 2.75E-12, 2.755E-11, , , , 
DataValue, 0.86, 0.25, 2.52E-12, 2.6850000000000003E-11, , , , 
DataValue, 0.97, 0.25, 2.51E-12, 2.6120000000000003E-11, , , , 
DataValue, 1.08, 0.25, 2.47E-12, 2.6960000000000003E-11, , , , 
DataValue, 1.19, 0.25, 2.69E-12, 2.7920000000000002E-11, , , , 
DataValue, 1.3, 0.25, 2.59E-12, 2.6070000000000003E-11, , , , 
DataValue, 1.41, 0.25, 2.5600000000000004E-12, 2.5870000000000003E-11, , , , 
DataValue, 1.52, 0.25, 2.6500000000000002E-12, 2.717E-11, , , , 
DataValue, 1.6300000000000001, 0.25, 3.13E-12, 2.784E-11, , , , 
DataValue, 1.74, 0.25, 3.2200000000000004E-12, 2.5880000000000002E-11, , , , 
DataValue, 1.85, 0.25, 3.13E-12, 2.5980000000000004E-11, , , , 
DataValue, 1.96, 0.25, 3.5000000000000004E-12, 2.6990000000000002E-11, , , , 
DataValue, 2.07, 0.25, 3.4000000000000005E-12, 2.8010000000000002E-11, , , , 
DataValue, 2.18, 0.25, 3.72E-12, 2.6540000000000003E-11, , , , 
DataValue, 2.29, 0.25, 3.43E-12, 2.5190000000000002E-11, , , , 
DataValue, 2.4, 0.25, 3.5700000000000003E-12, 2.66E-11, , , , 
DataValue, 2.5100000000000002, 0.25, 3.9300000000000004E-12, 2.735E-11, , , , 
DataValue, 2.62, 0.25, 4.27E-12, 2.655E-11, , , , 
DataValue, 2.73, 0.25, 4.0400000000000006E-12, 2.558E-11, , , , 
DataValue, 2.84, 0.25, 4.4500000000000006E-12, 2.644E-11, , , , 
DataValue, 2.95, 0.25, 4.2500000000000007E-12, 2.8010000000000002E-11, , , , 
DataValue, 3.06, 0.25, 4.6500000000000006E-12, 2.686E-11, , , , 
DataValue, 3.17, 0.25, 4.9500000000000005E-12, 2.533E-11, , , , 
DataValue, 3.2800000000000002, 0.25, 4.84E-12, 2.622E-11, , , , 
DataValue, 3.39, 0.25, 4.67E-12, 2.6940000000000003E-11, , , , 
DataValue, 3.5, 0.25, 5.0100000000000007E-12, 2.5970000000000002E-11, , , , 
DataValue, 3.61, 0.25, 5.02E-12, 2.6060000000000002E-11, , , , 
DataValue, 3.72, 0.25, 6.5E-12, 2.4850000000000003E-11, , , , 
DataValue, 3.83, 0.25, 6E-12, 2.633E-11, , , , 
DataValue, 3.94, 0.25, 6.0600000000000004E-12, 2.624E-11, , , , 
DataValue, 4.05, 0.25, 6.1300000000000007E-12, 2.5430000000000003E-11, , , , 
DataValue, 4.16, 0.25, 6.25E-12, 2.398E-11, , , , 
DataValue, 4.2700000000000005, 0.25, 6.1600000000000004E-12, 2.6100000000000002E-11, , , , 
DataValue, 4.38, 0.25, 6.5200000000000005E-12, 2.589E-11, , , , 
DataValue, 4.49, 0.25, 7.17E-12, 2.5250000000000003E-11, , , , 
DataValue, 4.6000000000000005, 0.25, 7.2400000000000007E-12, 2.438E-11, , , , 
DataValue, 4.71, 0.25, 7.06E-12, 2.4970000000000002E-11, , , , 
DataValue, 4.82, 0.25, 7.2300000000000005E-12, 2.6340000000000003E-11, , , , 
DataValue, 4.93, 0.25, 8.1800000000000011E-12, 2.569E-11, , , , 
DataValue, 5.04, 0.25, 7.65E-12, 2.4190000000000003E-11, , , , 
DataValue, 5.15, 0.25, 7.22E-12, 2.5480000000000002E-11, , , , 
DataValue, 5.26, 0.25, 8.06E-12, 2.571E-11, , , , 
DataValue, 5.37, 0.25, 8.74E-12, 2.5650000000000003E-11, , , , 
DataValue, 5.48, 0.25, 8.3900000000000012E-12, 2.52E-11, , , , 
DataValue, 5.59, 0.25, 8.42E-12, 2.502E-11, , , , 
DataValue, 5.7, 0.25, 9.05E-12, 2.555E-11, , , , 
DataValue, 5.8100000000000005, 0.25, 9.66E-12, 2.527E-11, , , , 
DataValue, 5.92, 0.25, 9.06E-12, 2.4370000000000002E-11, , , , 
DataValue, 6.03, 0.25, 9.86E-12, 2.4660000000000002E-11, , , , 
DataValue, 6.1400000000000006, 0.25, 1.0030000000000002E-11, 2.5880000000000002E-11, , , , 
DataValue, 6.25, 0.25, 1.016E-11, 2.4430000000000003E-11, , , , 
DataValue, 6.36, 0.25, 1.0240000000000002E-11, 2.4880000000000002E-11, , , , 
DataValue, 6.47, 0.25, 1.089E-11, 2.476E-11, , , , 
DataValue, 6.58, 0.25, 1.0340000000000002E-11, 2.5740000000000003E-11, , , , 
DataValue, 6.69, 0.25, 1.1650000000000002E-11, 2.522E-11, , , , 
DataValue, 6.8, 0.25, 1.178E-11, 2.3700000000000003E-11, , , , 
DataValue, 6.91, 0.25, 1.2730000000000001E-11, 2.4970000000000002E-11, , , , 
DataValue, 7.0200000000000005, 0.25, 1.2550000000000001E-11, 2.5700000000000002E-11, , , , 
DataValue, 7.13, 0.25, 1.3150000000000001E-11, 2.4610000000000003E-11, , , , 
DataValue, 7.24, 0.25, 1.381E-11, 2.411E-11, , , , 
DataValue, 7.3500000000000005, 0.25, 1.424E-11, 2.46E-11, , , , 
DataValue, 7.46, 0.25, 1.4670000000000003E-11, 2.5410000000000003E-11, , , , 
DataValue, 7.57, 0.25, 1.6160000000000002E-11, 2.4830000000000003E-11, , , , 
DataValue, 7.68, 0.25, 1.6E-11, 2.3300000000000003E-11, , , , 
DataValue, 7.79, 0.25, 1.684E-11, 2.294E-11, , , , 
DataValue, 7.9, 0.25, 1.7070000000000002E-11, 2.4410000000000003E-11, , , , 
DataValue, 8.01, 0.25, 1.804E-11, 2.3680000000000002E-11, , , , 
DataValue, 8.120000000000001, 0.25, 1.812E-11, 2.283E-11, , , , 
DataValue, 8.23, 0.25, 1.987E-11, 2.2330000000000002E-11, , , , 
DataValue, 8.34, 0.25, 2.094E-11, 2.398E-11, , , , 
DataValue, 8.45, 0.25, 2.1440000000000002E-11, 2.416E-11, , , , 
DataValue, 8.56, 0.25, 2.283E-11, 2.351E-11, , , , 
DataValue, 8.67, 0.25, 2.298E-11, 2.1950000000000002E-11, , , , 
DataValue, 8.78, 0.25, 2.436E-11, 2.2640000000000002E-11, , , , 
DataValue, 8.89, 0.25, 2.5670000000000004E-11, 2.378E-11, , , , 
DataValue, 9, 0.25, 2.6570000000000002E-11, 2.185E-11, , , , 
DataValue, 9.11, 0.25, 2.7540000000000003E-11, 2.092E-11, , , , 
DataValue, 9.22, 0.25, 2.8010000000000002E-11, 2.2310000000000002E-11, , , , 
DataValue, 9.33, 0.25, 2.976E-11, 2.2640000000000002E-11, , , , 
DataValue, 9.44, 0.25, 3.034E-11, 2.0930000000000002E-11, , , , 
DataValue, 9.55, 0.25, 3.226E-11, 1.9950000000000003E-11, , , , 
DataValue, 9.66, 0.25, 3.3230000000000004E-11, 2.1130000000000002E-11, , , , 
DataValue, 9.77, 0.25, 3.54E-11, 2.216E-11, , , , 
DataValue, 9.88, 0.25, 3.617E-11, 2.0620000000000002E-11, , , , 
DataValue, 9.99, 0.25, 3.765E-11, 2.005E-11, , , , 
DataValue, 10.1, 0.25, 3.984E-11, 2.0510000000000002E-11, , , , 
DataValue, 10.21, 0.25, 4.166E-11, 2.123E-11, , , , 
DataValue, 10.32, 0.25, 4.3100000000000005E-11, 1.965E-11, , , , 
DataValue, 10.43, 0.25, 4.475E-11, 1.923E-11, , , , 
DataValue, 10.540000000000001, 0.25, 4.592E-11, 1.826E-11, , , , 
DataValue, 10.65, 0.25, 4.843E-11, 1.9470000000000002E-11, , , , 
DataValue, 10.76, 0.25, 5.131E-11, 1.8530000000000003E-11, , , , 
DataValue, 10.870000000000001, 0.25, 5.1940000000000004E-11, 1.8290000000000002E-11, , , , 
DataValue, 10.98, 0.25, 5.3910000000000004E-11, 1.8000000000000002E-11, , , , 
DataValue, 11.09, 0.25, 5.6140000000000006E-11, 1.83E-11, , , , 
DataValue, 11.200000000000001, 0.25, 5.848E-11, 1.719E-11, , , , 
DataValue, 11.31, 0.25, 6.035E-11, 1.6230000000000002E-11, , , , 
DataValue, 11.42, 0.25, 6.272E-11, 1.599E-11, , , , 
DataValue, 11.53, 0.25, 6.46E-11, 1.728E-11, , , , 
DataValue, 11.64, 0.25, 6.7700000000000009E-11, 1.617E-11, , , , 
DataValue, 11.75, 0.25, 6.962E-11, 1.4830000000000002E-11, , , , 
DataValue, 11.86, 0.25, 7.200000000000001E-11, 1.4470000000000001E-11, , , , 
DataValue, 11.97, 0.25, 7.425E-11, 1.568E-11, , , , 
DataValue, 12.08, 0.25, 7.654E-11, 1.473E-11, , , , 
DataValue, 12.19, 0.25, 7.9230000000000007E-11, 1.313E-11, , , , 
DataValue, 12.3, 0.25, 8.233E-11, 1.189E-11, , , , 
DataValue, 12.41, 0.25, 8.460000000000001E-11, 1.3E-11, , , , 
DataValue, 12.52, 0.25, 8.7390000000000008E-11, 1.3580000000000002E-11, , , , 
DataValue, 12.63, 0.25, 8.9780000000000012E-11, 1.2160000000000002E-11, , , , 
DataValue, 12.74, 0.25, 9.266E-11, 1.005E-11, , , , 
DataValue, 12.85, 0.25, 9.515E-11, 1.0830000000000001E-11, , , , 
DataValue, 12.96, 0.25, 9.845E-11, 1.1550000000000002E-11, , , , 
DataValue, 13.07, 0.25, 1.0125000000000001E-10, 1.008E-11, , , , 
DataValue, 13.18, 0.25, 1.0332000000000001E-10, 8.6000000000000013E-12, , , , 
DataValue, 13.290000000000001, 0.25, 1.0685000000000001E-10, 9.23E-12, , , , 
DataValue, 13.4, 0.25, 1.0979E-10, 9.2200000000000015E-12, , , , 
DataValue, 13.51, 0.25, 1.1202E-10, 8.3000000000000014E-12, , , , 
DataValue, 13.620000000000001, 0.25, 1.1418000000000001E-10, 6.6E-12, , , , 
DataValue, 13.73, 0.25, 1.1741E-10, 7.62E-12, , , , 
DataValue, 13.84, 0.25, 1.2064E-10, 8.41E-12, , , , 
DataValue, 13.950000000000001, 0.25, 1.2249E-10, 6E-12, , , , 
DataValue, 14.06, 0.25, 1.2657E-10, 5.18E-12, , , , 
DataValue, 14.17, 0.25, 1.2912000000000002E-10, 5.7700000000000007E-12, , , , 
DataValue, 14.280000000000001, 0.25, 1.3255000000000002E-10, 6.0300000000000008E-12, , , , 
DataValue, 14.39, 0.25, 1.3561E-10, 3.6400000000000006E-12, , , , 
DataValue, 14.5, 0.25, 1.3825000000000001E-10, 2.8400000000000004E-12, , , , 
DataValue, 14.61, 0.25, 1.4180000000000002E-10, 3.6000000000000004E-12, , , , 
DataValue, 14.72, 0.25, 1.4472000000000002E-10, 4.6900000000000004E-12, , , , 
DataValue, 14.83, 0.25, 1.4708000000000002E-10, 2.18E-12, , , , 
DataValue, 14.94, 0.25, 1.4999000000000002E-10, 9.2000000000000012E-13, , , , 
DataValue, 15.05, 0.25, 1.5333E-10, 1.0100000000000001E-12, , , , 
DataValue, 15.16, 0.25, 1.5630000000000002E-10, 1.85E-12, , , , 
DataValue, 15.27, 0.25, 1.5886E-10, 6.8E-13, , , , 
DataValue, 15.38, 0.25, 1.6214000000000002E-10, -5E-13, , , , 
DataValue, 15.49, 0.25, 1.6554E-10, -5.1E-13, , , , 
DataValue, 15.6, 0.25, 1.6801000000000002E-10, -1.0100000000000001E-12, , , , 
DataValue, 15.71, 0.25, 1.7187000000000002E-10, -2.3000000000000003E-12, , , , 
DataValue, 15.82, 0.25, 1.7506000000000001E-10, -3.4200000000000004E-12, , , , 
DataValue, 15.93, 0.25, 1.7824000000000002E-10, -4.21E-12, , , , 
DataValue, 16.04, 0.25, 1.8043000000000002E-10, -3.48E-12, , , , 
DataValue, 16.15, 0.25, 1.8446E-10, -4.52E-12, , , , 
DataValue, 16.26, 0.25, 1.8696000000000002E-10, -4.7000000000000006E-12, , , , 
DataValue, 16.37, 0.25, 1.8997000000000002E-10, -5.39E-12, , , , 
DataValue, 16.48, 0.25, 1.9318000000000003E-10, -4.8100000000000007E-12, , , , 
DataValue, 16.59, 0.25, 1.9655E-10, -5.69E-12, , , , 
DataValue, 16.7, 0.25, 1.9879000000000002E-10, -7.49E-12, , , , 
DataValue, 16.81, 0.25, 2.026E-10, -7.5900000000000014E-12, , , , 
DataValue, 16.92, 0.25, 2.0593E-10, -7.43E-12, , , , 
DataValue, 17.03, 0.25, 2.0869E-10, -7.01E-12, , , , 
DataValue, 17.14, 0.25, 2.1279000000000002E-10, -8.55E-12, , , , 
DataValue, 17.25, 0.25, 2.1512000000000003E-10, -1.0320000000000001E-11, , , , 
DataValue, 17.36, 0.25, 2.1815000000000002E-10, -8.97E-12, , , , 
DataValue, 17.47, 0.25, 2.2197E-10, -8.42E-12, , , , 
DataValue, 17.580000000000002, 0.25, 2.2465000000000002E-10, -1.171E-11, , , , 
DataValue, 17.69, 0.25, 2.2783000000000003E-10, -1.2940000000000001E-11, , , , 
DataValue, 17.8, 0.25, 2.3077000000000002E-10, -1.027E-11, , , , 
DataValue, 17.91, 0.25, 2.3373000000000003E-10, -1.0930000000000001E-11, , , , 
DataValue, 18.02, 0.25, 2.3717E-10, -1.2530000000000001E-11, , , , 
DataValue, 18.13, 0.25, 2.3955E-10, -1.4740000000000002E-11, , , , 
DataValue, 18.240000000000002, 0.25, 2.4272E-10, -1.3570000000000001E-11, , , , 
DataValue, 18.35, 0.25, 2.4728E-10, -1.313E-11, , , , 
DataValue, 18.46, 0.25, 2.4873000000000003E-10, -1.4200000000000002E-11, , , , 
DataValue, 18.57, 0.25, 2.5301000000000004E-10, -1.541E-11, , , , 
DataValue, 18.68, 0.25, 2.5617E-10, -1.458E-11, , , , 
DataValue, 18.79, 0.25, 2.5977E-10, -1.3970000000000001E-11, , , , 
DataValue, 18.900000000000002, 0.25, 2.6288000000000003E-10, -1.5470000000000003E-11, , , , 
DataValue, 19.01, 0.25, 2.6615E-10, -1.754E-11, , , , 
DataValue, 19.12, 0.25, 2.6904000000000003E-10, -1.6890000000000003E-11, , , , 
DataValue, 19.23, 0.25, 2.7295E-10, -1.633E-11, , , , 
DataValue, 19.34, 0.25, 2.7617000000000004E-10, -1.7980000000000002E-11, , , , 
DataValue, 19.45, 0.25, 2.7896000000000004E-10, -1.939E-11, , , , 
DataValue, 19.56, 0.25, 2.8206E-10, -1.843E-11, , , , 
DataValue, 19.67, 0.25, 2.8600000000000005E-10, -1.7580000000000002E-11, , , , 
DataValue, 19.78, 0.25, 2.8954E-10, -1.9620000000000002E-11, , , , 
DataValue, 19.89, 0.25, 2.9204E-10, -2.0800000000000002E-11, , , , 
DataValue, 20, 0.25, 2.9522000000000004E-10, -1.941E-11, , , , 
DataValue, 20, 0.25, 2.95E-10, -2.036E-11, , , , 
DataValue, 19.89, 0.25, 2.8152000000000003E-10, -1.8780000000000002E-11, , , , 
DataValue, 19.78, 0.25, 2.6923E-10, -1.602E-11, , , , 
DataValue, 19.67, 0.25, 2.5907E-10, -1.2980000000000002E-11, , , , 
DataValue, 19.56, 0.25, 2.4891E-10, -1.239E-11, , , , 
