
SetupTitle, R-V
ApplicationTest, R-V, Public
TestParameter, Name, Port1, Port2, V1Start, V1Stop, V1Step, V2, I1Limit, IntegTime, HoldTime, DelayTime, Port1MinRng
TestParameter, Value, SMU1:MP	MPSMU, SMU2:MP	MPSMU, 0, 1, 0.05, 0, 0.01, MEDIUM, 0, 0, 1nA
DutParameter, Name, L, W, Temp
DutParameter, Value, 1E-05, 1E-06, 25
MetaData, TestRecord.EntryPoint, true
MetaData, TestRecord.RecordTime, 03/04/2023 18:01:14
MetaData, TestRecord.TestTarget, 
MetaData, TestRecord.IterationIndex, 183
MetaData, TestRecord.Preservation, true
MetaData, TestRecord.Flag, 
MetaData, TestRecord.Remarks, 
MetaData, TestRecord.LinkKey, 146b1e22-cb56-421c-ab33-522e147b9700
Dimension1, 21, 21, 21, 21
Dimension2, 1, 1, 1, 1
DataName, V1, I1, R, Rsheet
DataValue, 0, -1.05119E-08, -0, -0
DataValue, 0.05, 5.55193E-05, 900.58772354838766, 90.058772354838752
DataValue, 0.1, 0.0001109717, 901.13064862482963, 90.113064862482958
DataValue, 0.15, 0.000166524, 900.77106002738333, 90.077106002738319
DataValue, 0.2, 0.00022195600000000001, 901.079493232893, 90.10794932328929
DataValue, 0.25, 0.000277496, 900.91388704702047, 90.091388704702027
DataValue, 0.3, 0.000332952, 901.03077921141778, 90.103077921141775
DataValue, 0.35000000000000003, 0.00038849800000000003, 900.90553876725232, 90.090553876725224
DataValue, 0.4, 0.00044396, 900.98207045679794, 90.098207045679786
DataValue, 0.45, 0.000499415, 901.05423345314011, 90.105423345314
DataValue, 0.5, 0.000554907, 901.05188797402093, 90.105188797402079
DataValue, 0.55, 0.000610346, 901.12821252207766, 90.112821252207752
DataValue, 0.6, 0.000665771, 901.21077667846748, 90.121077667846734
DataValue, 0.65, 0.00072123500000000008, 901.23191470186543, 90.123191470186541
DataValue, 0.70000000000000007, 0.0007766950000000001, 901.25467525862791, 90.125467525862774
DataValue, 0.75, 0.000832067, 901.369721428683, 90.136972142868288
DataValue, 0.8, 0.00088750200000000008, 901.40641936581551, 90.140641936581545
DataValue, 0.85000000000000009, 0.000942848, 901.52389356502852, 90.152389356502837
DataValue, 0.9, 0.00099828, 901.55066714749364, 90.155066714749353
DataValue, 0.95000000000000007, 0.001053642, 901.63452102326983, 90.163452102326971
DataValue, 1, 0.00110896, 901.7457798297504, 90.174577982975038
SetupTitle, R-V
PrimitiveTest, I/V Sweep
TestParameter, Context.MainFrame, B1500A
TestParameter, Channel.UnitType, SMU, SMU
TestParameter, Channel.Unit, Port1, Port2
TestParameter, Channel.IName, I1, I2
TestParameter, Channel.VName, V1, V2
TestParameter, Channel.Mode, V, V
TestParameter, Channel.Func, VAR1, CONST
TestParameter, Channel.Index, 
TestParameter, Channel.Time, 
TestParameter, Measurement.Port.Unit, Port1, Port2
TestParameter, Measurement.Port.SeriesResistor, NONE, NONE
TestParameter, Measurement.Port.Filter, OFF, OFF
TestParameter, Measurement.Port.OutputVoltageComparison, 0, 0
TestParameter, Measurement.Primary.Locus, Single
TestParameter, Measurement.Primary.Scale, LINEAR
TestParameter, Measurement.Primary.Start, V1Start
TestParameter, Measurement.Primary.Stop, V1Stop
TestParameter, Measurement.Primary.Step, V1Step
TestParameter, Measurement.Primary.Compliance, I1Limit
TestParameter, Measurement.Primary.PowerCompliance, 0
TestParameter, Measurement.Aborting.Condition, CONTINUE AT ANY
TestParameter, Measurement.PostOutput.Value, START
TestParameter, Measurement.PostOutput.Retention, OFF
TestParameter, Measurement.Bias.Source, 0, V2
TestParameter, Measurement.Bias.Compliance, 0.01, I1Limit
TestParameter, Measurement.Monitor.Unit, SMU:=Port1, SMU:=Port2
TestParameter, Measurement.Monitor.Adc, HR ADC, HR ADC
TestParameter, Measurement.Monitor.Measurement, Compliance Side, Compliance Side
TestParameter, Measurement.Monitor.RangingMode, LIMITED, LIMITED
TestParameter, Measurement.Monitor.RangeBoundary, Port1MinRng, 1nA
TestParameter, Measurement.Monitor.RangeRating, BY FULL RANGE, BY FULL RANGE
TestParameter, Measurement.Monitor.RangeRatingCoeff, 50, 50
TestParameter, Measurement.Timing.Hold, HoldTime
TestParameter, Measurement.Timing.Delay, DelayTime
TestParameter, Measurement.Adc.HighSpeed.Mode, AUTO
TestParameter, Measurement.Adc.HighSpeed.Coeff, 1
TestParameter, Measurement.Adc.HighResolution.AutoZero, ON
TestParameter, Measurement.Adc.HighResolution.Mode, IntegMode
TestParameter, Measurement.Adc.HighResolution.Coeff, AdcFactor
TestParameter, Measurement.WaitTime.Source.Coeff, 1
TestParameter, Measurement.WaitTime.Source.Offset, 0
TestParameter, Measurement.WaitTime.Monitor.Coeff, 1
TestParameter, Measurement.WaitTime.Monitor.Offset, 0
TestParameter, Function.User.Name, R, Rsheet
TestParameter, Function.User.Unit, ohm, ohm/sheet
TestParameter, Function.User.Definition, V1/I1, R*W/L
TestParameter, Output.Graph.Enabled, true
TestParameter, Output.Graph.AutoScaling, false
TestParameter, Output.Graph.XAxis.Data, V1
TestParameter, Output.Graph.XAxis.Scale, Linear
TestParameter, Output.Graph.XAxis.Left, V1Start
TestParameter, Output.Graph.XAxis.Right, V1Stop
TestParameter, Output.Graph.XAxis.RunTimeAutoScale, false
TestParameter, Output.Graph.YAxis.Data, R, I1
TestParameter, Output.Graph.YAxis.Scale, Linear, Linear
TestParameter, Output.Graph.YAxis.Bottom, 0, 0
TestParameter, Output.Graph.YAxis.Top, V1Stop/I1Limit, I1Limit
TestParameter, Output.Graph.YAxis.Group, , 
TestParameter, Output.Graph.YAxis.RunTimeAutoScale, false, false
TestParameter, Output.List.Data, V1, I1, R, Rsheet
TestParameter, AutoAnalysis.Interpolation, false
TestParameter, AutoAnalysis.Line1.Enabled, false
TestParameter, AutoAnalysis.Line1.Type, 1
TestParameter, AutoAnalysis.Line1.Fix, False
TestParameter, AutoAnalysis.Line1.YAxis, 0
TestParameter, AutoAnalysis.Line1.Point1.Type, 0
TestParameter, AutoAnalysis.Line1.Point1.XY.X, 
TestParameter, AutoAnalysis.Line1.Point1.XY.Y, 
TestParameter, AutoAnalysis.Line1.Point1.Data.Var, 
TestParameter, AutoAnalysis.Line1.Point1.Data.Condition, 
TestParameter, AutoAnalysis.Line1.Point1.Data.Start, false
TestParameter, AutoAnalysis.Line1.Point1.Data.StartVar, 
TestParameter, AutoAnalysis.Line1.Point1.Data.StartCondition, 
TestParameter, AutoAnalysis.Line1.Point2.Type, 0
TestParameter, AutoAnalysis.Line1.Point2.XY.X, 
TestParameter, AutoAnalysis.Line1.Point2.XY.Y, 
TestParameter, AutoAnalysis.Line1.Point2.Data.Var, 
TestParameter, AutoAnalysis.Line1.Point2.Data.Condition, 
TestParameter, AutoAnalysis.Line1.Point2.Data.Start, false
TestParameter, AutoAnalysis.Line1.Point2.Data.StartVar, 
TestParameter, AutoAnalysis.Line1.Point2.Data.StartCondition, 
TestParameter, AutoAnalysis.Line1.GradientExpr, 0
TestParameter, AutoAnalysis.Line2.Enabled, false
TestParameter, AutoAnalysis.Line2.Type, 1
TestParameter, AutoAnalysis.Line2.Fix, False
TestParameter, AutoAnalysis.Line2.YAxis, 0
TestParameter, AutoAnalysis.Line2.Point1.Type, 0
TestParameter, AutoAnalysis.Line2.Point1.XY.X, 
TestParameter, AutoAnalysis.Line2.Point1.XY.Y, 
TestParameter, AutoAnalysis.Line2.Point1.Data.Var, 
TestParameter, AutoAnalysis.Line2.Point1.Data.Condition, 
TestParameter, AutoAnalysis.Line2.Point1.Data.Start, false
TestParameter, AutoAnalysis.Line2.Point1.Data.StartVar, 
TestParameter, AutoAnalysis.Line2.Point1.Data.StartCondition, 
TestParameter, AutoAnalysis.Line2.Point2.Type, 0
TestParameter, AutoAnalysis.Line2.Point2.XY.X, 
TestParameter, AutoAnalysis.Line2.Point2.XY.Y, 
TestParameter, AutoAnalysis.Line2.Point2.Data.Var, 
TestParameter, AutoAnalysis.Line2.Point2.Data.Condition, 
TestParameter, AutoAnalysis.Line2.Point2.Data.Start, false
TestParameter, AutoAnalysis.Line2.Point2.Data.StartVar, 
TestParameter, AutoAnalysis.Line2.Point2.Data.StartCondition, 
TestParameter, AutoAnalysis.Line2.GradientExpr, 0
TestParameter, AutoAnalysis.Marker.Enabled, false
TestParameter, AutoAnalysis.Marker.Data.Var, 
TestParameter, AutoAnalysis.Marker.Data.Condition, 
TestParameter, AutoAnalysis.Marker.Data.Start, false
TestParameter, AutoAnalysis.Marker.Data.StartVar, 
TestParameter, AutoAnalysis.Marker.Data.StartCondition, 
MetaData, TestRecord.EntryPoint, false
MetaData, TestRecord.RecordTime, 03/04/2023 18:01:14
MetaData, TestRecord.TestTarget, 
MetaData, TestRecord.IterationIndex, 183
MetaData, TestRecord.Preservation, true
MetaData, TestRecord.Flag, 
MetaData, TestRecord.Remarks, 
MetaData, TestRecord.LinkKey, 146b1e22-cb56-421c-ab33-522e147b9700
Dimension1, 21, 21, 21, 21
Dimension2, 1, 1, 1, 1
DataName, V1, I1, R, Rsheet
DataValue, 0, -1.05119E-08, -0, -0
DataValue, 0.05, 5.55193E-05, 900.58772354838766, 90.058772354838752
DataValue, 0.1, 0.0001109717, 901.13064862482963, 90.113064862482958
DataValue, 0.15, 0.000166524, 900.77106002738333, 90.077106002738319
DataValue, 0.2, 0.00022195600000000001, 901.079493232893, 90.10794932328929
DataValue, 0.25, 0.000277496, 900.91388704702047, 90.091388704702027
DataValue, 0.3, 0.000332952, 901.03077921141778, 90.103077921141775
DataValue, 0.35000000000000003, 0.00038849800000000003, 900.90553876725232, 90.090553876725224
DataValue, 0.4, 0.00044396, 900.98207045679794, 90.098207045679786
DataValue, 0.45, 0.000499415, 901.05423345314011, 90.105423345314
DataValue, 0.5, 0.000554907, 901.05188797402093, 90.105188797402079
DataValue, 0.55, 0.000610346, 901.12821252207766, 90.112821252207752
DataValue, 0.6, 0.000665771, 901.21077667846748, 90.121077667846734
DataValue, 0.65, 0.00072123500000000008, 901.23191470186543, 90.123191470186541
DataValue, 0.70000000000000007, 0.0007766950000000001, 901.25467525862791, 90.125467525862774
DataValue, 0.75, 0.000832067, 901.369721428683, 90.136972142868288
DataValue, 0.8, 0.00088750200000000008, 901.40641936581551, 90.140641936581545
DataValue, 0.85000000000000009, 0.000942848, 901.52389356502852, 90.152389356502837
DataValue, 0.9, 0.00099828, 901.55066714749364, 90.155066714749353
DataValue, 0.95000000000000007, 0.001053642, 901.63452102326983, 90.163452102326971
DataValue, 1, 0.00110896, 901.7457798297504, 90.174577982975038