
SetupTitle, R-V
ApplicationTest, R-V, Public
TestParameter, Name, Port1, Port2, V1Start, V1Stop, V1Step, V2, I1Limit, IntegTime, HoldTime, DelayTime, Port1MinRng
TestParameter, Value, SMU1:MP	MPSMU, SMU2:MP	MPSMU, 0, 1, 0.05, 0, 0.01, MEDIUM, 0, 0, 1nA
DutParameter, Name, L, W, Temp
DutParameter, Value, 1E-05, 1E-06, 25
MetaData, TestRecord.EntryPoint, true
MetaData, TestRecord.RecordTime, 03/04/2023 18:01:41
MetaData, TestRecord.TestTarget, 
MetaData, TestRecord.IterationIndex, 184
MetaData, TestRecord.Preservation, true
MetaData, TestRecord.Flag, 
MetaData, TestRecord.Remarks, 
MetaData, TestRecord.LinkKey, 2f3770f6-a3af-405f-88b2-65ad6b0b2bd9
Dimension1, 21, 21, 21, 21
Dimension2, 1, 1, 1, 1
DataName, V1, I1, R, Rsheet
DataValue, 0, -1.7300000000000002E-13, -0, -0
DataValue, 0.05, 1.57E-13, 318471337579.6178, 31847133757.961777
DataValue, 0.1, 2.49E-13, 401606425702.81128, 40160642570.281128
DataValue, 0.15, 1.77E-13, 847457627118.644, 84745762711.8644
DataValue, 0.2, 2.0300000000000002E-13, 985221674876.84729, 98522167487.684708
DataValue, 0.25, 3.29E-13, 759878419452.88745, 75987841945.288727
DataValue, 0.3, 1.3900000000000001E-13, 2158273381294.9636, 215827338129.49634
DataValue, 0.35000000000000003, 2.8700000000000004E-13, 1219512195121.9512, 121951219512.19511
DataValue, 0.4, 2.71E-13, 1476014760147.6016, 147601476014.76016
DataValue, 0.45, 3.2400000000000003E-13, 1388888888888.8887, 138888888888.88886
DataValue, 0.5, 3.5700000000000004E-13, 1400560224089.6357, 140056022408.96356
DataValue, 0.55, 3.04E-13, 1809210526315.7896, 180921052631.57892
DataValue, 0.6, 3.8100000000000004E-13, 1574803149606.2991, 157480314960.62988
DataValue, 0.65, 3.6700000000000005E-13, 1771117166212.5339, 177111716621.25336
DataValue, 0.70000000000000007, 2.3900000000000004E-13, 2928870292887.0293, 292887029288.70288
DataValue, 0.75, 4.3800000000000005E-13, 1712328767123.2874, 171232876712.32871
DataValue, 0.8, 4.6100000000000006E-13, 1735357917570.4988, 173535791757.04987
DataValue, 0.85000000000000009, 4.0400000000000005E-13, 2103960396039.604, 210396039603.96036
DataValue, 0.9, 4.93E-13, 1825557809330.6287, 182555780933.06284
DataValue, 0.95000000000000007, 4.09E-13, 2322738386308.0684, 232273838630.80682
DataValue, 1, 3.74E-13, 2673796791443.85, 267379679144.38498
SetupTitle, R-V
PrimitiveTest, I/V Sweep
TestParameter, Context.MainFrame, B1500A
TestParameter, Channel.UnitType, SMU, SMU
TestParameter, Channel.Unit, Port1, Port2
TestParameter, Channel.IName, I1, I2
TestParameter, Channel.VName, V1, V2
TestParameter, Channel.Mode, V, V
TestParameter, Channel.Func, VAR1, CONST
TestParameter, Channel.Index, 
TestParameter, Channel.Time, 
TestParameter, Measurement.Port.Unit, Port1, Port2
TestParameter, Measurement.Port.SeriesResistor, NONE, NONE
TestParameter, Measurement.Port.Filter, OFF, OFF
TestParameter, Measurement.Port.OutputVoltageComparison, 0, 0
TestParameter, Measurement.Primary.Locus, Single
TestParameter, Measurement.Primary.Scale, LINEAR
TestParameter, Measurement.Primary.Start, V1Start
TestParameter, Measurement.Primary.Stop, V1Stop
TestParameter, Measurement.Primary.Step, V1Step
TestParameter, Measurement.Primary.Compliance, I1Limit
TestParameter, Measurement.Primary.PowerCompliance, 0
TestParameter, Measurement.Aborting.Condition, CONTINUE AT ANY
TestParameter, Measurement.PostOutput.Value, START
TestParameter, Measurement.PostOutput.Retention, OFF
TestParameter, Measurement.Bias.Source, 0, V2
TestParameter, Measurement.Bias.Compliance, 0.01, I1Limit
TestParameter, Measurement.Monitor.Unit, SMU:=Port1, SMU:=Port2
TestParameter, Measurement.Monitor.Adc, HR ADC, HR ADC
TestParameter, Measurement.Monitor.Measurement, Compliance Side, Compliance Side
TestParameter, Measurement.Monitor.RangingMode, LIMITED, LIMITED
TestParameter, Measurement.Monitor.RangeBoundary, Port1MinRng, 1nA
TestParameter, Measurement.Monitor.RangeRating, BY FULL RANGE, BY FULL RANGE
TestParameter, Measurement.Monitor.RangeRatingCoeff, 50, 50
TestParameter, Measurement.Timing.Hold, HoldTime
TestParameter, Measurement.Timing.Delay, DelayTime
TestParameter, Measurement.Adc.HighSpeed.Mode, AUTO
TestParameter, Measurement.Adc.HighSpeed.Coeff, 1
TestParameter, Measurement.Adc.HighResolution.AutoZero, ON
TestParameter, Measurement.Adc.HighResolution.Mode, IntegMode
TestParameter, Measurement.Adc.HighResolution.Coeff, AdcFactor
TestParameter, Measurement.WaitTime.Source.Coeff, 1
TestParameter, Measurement.WaitTime.Source.Offset, 0
TestParameter, Measurement.WaitTime.Monitor.Coeff, 1
TestParameter, Measurement.WaitTime.Monitor.Offset, 0
TestParameter, Function.User.Name, R, Rsheet
TestParameter, Function.User.Unit, ohm, ohm/sheet
TestParameter, Function.User.Definition, V1/I1, R*W/L
TestParameter, Output.Graph.Enabled, true
TestParameter, Output.Graph.AutoScaling, false
TestParameter, Output.Graph.XAxis.Data, V1
TestParameter, Output.Graph.XAxis.Scale, Linear
TestParameter, Output.Graph.XAxis.Left, V1Start
TestParameter, Output.Graph.XAxis.Right, V1Stop
TestParameter, Output.Graph.XAxis.RunTimeAutoScale, false
TestParameter, Output.Graph.YAxis.Data, R, I1
TestParameter, Output.Graph.YAxis.Scale, Linear, Linear
TestParameter, Output.Graph.YAxis.Bottom, 0, 0
TestParameter, Output.Graph.YAxis.Top, V1Stop/I1Limit, I1Limit
TestParameter, Output.Graph.YAxis.Group, , 
TestParameter, Output.Graph.YAxis.RunTimeAutoScale, false, false
TestParameter, Output.List.Data, V1, I1, R, Rsheet
TestParameter, AutoAnalysis.Interpolation, false
TestParameter, AutoAnalysis.Line1.Enabled, false
TestParameter, AutoAnalysis.Line1.Type, 1
TestParameter, AutoAnalysis.Line1.Fix, False
TestParameter, AutoAnalysis.Line1.YAxis, 0
TestParameter, AutoAnalysis.Line1.Point1.Type, 0
TestParameter, AutoAnalysis.Line1.Point1.XY.X, 
TestParameter, AutoAnalysis.Line1.Point1.XY.Y, 
TestParameter, AutoAnalysis.Line1.Point1.Data.Var, 
TestParameter, AutoAnalysis.Line1.Point1.Data.Condition, 
TestParameter, AutoAnalysis.Line1.Point1.Data.Start, false
TestParameter, AutoAnalysis.Line1.Point1.Data.StartVar, 
TestParameter, AutoAnalysis.Line1.Point1.Data.StartCondition, 
TestParameter, AutoAnalysis.Line1.Point2.Type, 0
TestParameter, AutoAnalysis.Line1.Point2.XY.X, 
TestParameter, AutoAnalysis.Line1.Point2.XY.Y, 
TestParameter, AutoAnalysis.Line1.Point2.Data.Var, 
TestParameter, AutoAnalysis.Line1.Point2.Data.Condition, 
TestParameter, AutoAnalysis.Line1.Point2.Data.Start, false
TestParameter, AutoAnalysis.Line1.Point2.Data.StartVar, 
TestParameter, AutoAnalysis.Line1.Point2.Data.StartCondition, 
TestParameter, AutoAnalysis.Line1.GradientExpr, 0
TestParameter, AutoAnalysis.Line2.Enabled, false
TestParameter, AutoAnalysis.Line2.Type, 1
TestParameter, AutoAnalysis.Line2.Fix, False
TestParameter, AutoAnalysis.Line2.YAxis, 0
TestParameter, AutoAnalysis.Line2.Point1.Type, 0
TestParameter, AutoAnalysis.Line2.Point1.XY.X, 
TestParameter, AutoAnalysis.Line2.Point1.XY.Y, 
TestParameter, AutoAnalysis.Line2.Point1.Data.Var, 
TestParameter, AutoAnalysis.Line2.Point1.Data.Condition, 
TestParameter, AutoAnalysis.Line2.Point1.Data.Start, false
TestParameter, AutoAnalysis.Line2.Point1.Data.StartVar, 
TestParameter, AutoAnalysis.Line2.Point1.Data.StartCondition, 
TestParameter, AutoAnalysis.Line2.Point2.Type, 0
TestParameter, AutoAnalysis.Line2.Point2.XY.X, 
TestParameter, AutoAnalysis.Line2.Point2.XY.Y, 
TestParameter, AutoAnalysis.Line2.Point2.Data.Var, 
TestParameter, AutoAnalysis.Line2.Point2.Data.Condition, 
TestParameter, AutoAnalysis.Line2.Point2.Data.Start, false
TestParameter, AutoAnalysis.Line2.Point2.Data.StartVar, 
TestParameter, AutoAnalysis.Line2.Point2.Data.StartCondition, 
TestParameter, AutoAnalysis.Line2.GradientExpr, 0
TestParameter, AutoAnalysis.Marker.Enabled, false
TestParameter, AutoAnalysis.Marker.Data.Var, 
TestParameter, AutoAnalysis.Marker.Data.Condition, 
TestParameter, AutoAnalysis.Marker.Data.Start, false
TestParameter, AutoAnalysis.Marker.Data.StartVar, 
TestParameter, AutoAnalysis.Marker.Data.StartCondition, 
MetaData, TestRecord.EntryPoint, false
MetaData, TestRecord.RecordTime, 03/04/2023 18:01:40
MetaData, TestRecord.TestTarget, 
MetaData, TestRecord.IterationIndex, 184
MetaData, TestRecord.Preservation, true
MetaData, TestRecord.Flag, 
MetaData, TestRecord.Remarks, 
MetaData, TestRecord.LinkKey, 2f3770f6-a3af-405f-88b2-65ad6b0b2bd9
Dimension1, 21, 21, 21, 21
Dimension2, 1, 1, 1, 1
DataName, V1, I1, R, Rsheet
DataValue, 0, -1.7300000000000002E-13, -0, -0
DataValue, 0.05, 1.57E-13, 318471337579.6178, 31847133757.961777
DataValue, 0.1, 2.49E-13, 401606425702.81128, 40160642570.281128
DataValue, 0.15, 1.77E-13, 847457627118.644, 84745762711.8644
DataValue, 0.2, 2.0300000000000002E-13, 985221674876.84729, 98522167487.684708
DataValue, 0.25, 3.29E-13, 759878419452.88745, 75987841945.288727
DataValue, 0.3, 1.3900000000000001E-13, 2158273381294.9636, 215827338129.49634
DataValue, 0.35000000000000003, 2.8700000000000004E-13, 1219512195121.9512, 121951219512.19511
DataValue, 0.4, 2.71E-13, 1476014760147.6016, 147601476014.76016
DataValue, 0.45, 3.2400000000000003E-13, 1388888888888.8887, 138888888888.88886
DataValue, 0.5, 3.5700000000000004E-13, 1400560224089.6357, 140056022408.96356
DataValue, 0.55, 3.04E-13, 1809210526315.7896, 180921052631.57892
DataValue, 0.6, 3.8100000000000004E-13, 1574803149606.2991, 157480314960.62988
DataValue, 0.65, 3.6700000000000005E-13, 1771117166212.5339, 177111716621.25336
DataValue, 0.70000000000000007, 2.3900000000000004E-13, 2928870292887.0293, 292887029288.70288
DataValue, 0.75, 4.3800000000000005E-13, 1712328767123.2874, 171232876712.32871
DataValue, 0.8, 4.6100000000000006E-13, 1735357917570.4988, 173535791757.04987
DataValue, 0.85000000000000009, 4.0400000000000005E-13, 2103960396039.604, 210396039603.96036
DataValue, 0.9, 4.93E-13, 1825557809330.6287, 182555780933.06284
DataValue, 0.95000000000000007, 4.09E-13, 2322738386308.0684, 232273838630.80682
DataValue, 1, 3.74E-13, 2673796791443.85, 267379679144.38498