
SetupTitle, ID-VG Postbreak
PrimitiveTest, I/V Sweep
TestParameter, Context.MainFrame, B1500A
TestParameter, Channel.UnitType, SMU, SMU
TestParameter, Channel.Unit, SMU1:MP, SMU2:MP
TestParameter, Channel.IName, I1, I2
TestParameter, Channel.VName, V1, V2
TestParameter, Channel.Mode, V, V
TestParameter, Channel.Func, VAR1, CONST
TestParameter, Channel.Index, 
TestParameter, Channel.Time, 
TestParameter, Measurement.Port.Unit, SMU1:MP, SMU2:MP
TestParameter, Measurement.Port.SeriesResistor, NONE, NONE
TestParameter, Measurement.Port.Filter, ON, ON
TestParameter, Measurement.Port.OutputVoltageComparison, 0, 0
TestParameter, Measurement.Primary.Locus, Double
TestParameter, Measurement.Primary.Scale, LINEAR
TestParameter, Measurement.Primary.Start, -2
TestParameter, Measurement.Primary.Stop, 20
TestParameter, Measurement.Primary.Step, 0.11
TestParameter, Measurement.Primary.Compliance, 0.1
TestParameter, Measurement.Primary.PowerCompliance, 0
TestParameter, Measurement.Aborting.Condition, CONTINUE AT ANY
TestParameter, Measurement.PostOutput.Value, START
TestParameter, Measurement.PostOutput.Retention, OFF
TestParameter, Measurement.Bias.Source, -2, 0.25
TestParameter, Measurement.Bias.Compliance, 0.1, 0.1
TestParameter, Measurement.Monitor.Unit, SMU1:MP, SMU2:MP
TestParameter, Measurement.Monitor.Adc, HR ADC, HR ADC
TestParameter, Measurement.Monitor.Measurement, Compliance Side, Compliance Side
TestParameter, Measurement.Monitor.RangingMode, LIMITED, LIMITED
TestParameter, Measurement.Monitor.RangeBoundary, 1nA, 1nA
TestParameter, Measurement.Monitor.RangeRating, BY FULL RANGE, BY FULL RANGE
TestParameter, Measurement.Monitor.RangeRatingCoeff, 50, 50
TestParameter, Measurement.Timing.Hold, 0
TestParameter, Measurement.Timing.Delay, 0
TestParameter, Measurement.Adc.HighSpeed.Mode, AUTO
TestParameter, Measurement.Adc.HighSpeed.Coeff, 1
TestParameter, Measurement.Adc.HighResolution.AutoZero, OFF
TestParameter, Measurement.Adc.HighResolution.Mode, AUTO
TestParameter, Measurement.Adc.HighResolution.Coeff, 6
TestParameter, Measurement.WaitTime.Source.Coeff, 1
TestParameter, Measurement.WaitTime.Source.Offset, 0
TestParameter, Measurement.WaitTime.Monitor.Coeff, 1
TestParameter, Measurement.WaitTime.Monitor.Offset, 0
TestParameter, Output.Graph.Enabled, true
TestParameter, Output.Graph.AutoScaling, false
TestParameter, Output.Graph.XAxis.Data, V1
TestParameter, Output.Graph.XAxis.Scale, Linear
TestParameter, Output.Graph.XAxis.Left, -2
TestParameter, Output.Graph.XAxis.Right, 6
TestParameter, Output.Graph.XAxis.RunTimeAutoScale, true
TestParameter, Output.Graph.YAxis.Data, I2
TestParameter, Output.Graph.YAxis.Scale, Linear
TestParameter, Output.Graph.YAxis.Bottom, -0.1
TestParameter, Output.Graph.YAxis.Top, 0.1
TestParameter, Output.Graph.YAxis.Group, 
TestParameter, Output.Graph.YAxis.RunTimeAutoScale, true
TestParameter, Output.List.Data, V1, I1, V2, I2, V3, I3, V4, I4
TestParameter, AutoAnalysis.Interpolation, false
TestParameter, AutoAnalysis.Line1.Enabled, false
TestParameter, AutoAnalysis.Line1.Type, 1
TestParameter, AutoAnalysis.Line1.Fix, True
TestParameter, AutoAnalysis.Line1.YAxis, 0
TestParameter, AutoAnalysis.Line1.Point1.Type, 0
TestParameter, AutoAnalysis.Line1.Point1.XY.X, 
TestParameter, AutoAnalysis.Line1.Point1.XY.Y, 
TestParameter, AutoAnalysis.Line1.Point1.Data.Var, 
TestParameter, AutoAnalysis.Line1.Point1.Data.Condition, 
TestParameter, AutoAnalysis.Line1.Point1.Data.Start, false
TestParameter, AutoAnalysis.Line1.Point1.Data.StartVar, 
TestParameter, AutoAnalysis.Line1.Point1.Data.StartCondition, 
TestParameter, AutoAnalysis.Line1.Point2.Type, 0
TestParameter, AutoAnalysis.Line1.Point2.XY.X, 
TestParameter, AutoAnalysis.Line1.Point2.XY.Y, 
TestParameter, AutoAnalysis.Line1.Point2.Data.Var, 
TestParameter, AutoAnalysis.Line1.Point2.Data.Condition, 
TestParameter, AutoAnalysis.Line1.Point2.Data.Start, false
TestParameter, AutoAnalysis.Line1.Point2.Data.StartVar, 
TestParameter, AutoAnalysis.Line1.Point2.Data.StartCondition, 
TestParameter, AutoAnalysis.Line1.GradientExpr, 0
TestParameter, AutoAnalysis.Line2.Enabled, false
TestParameter, AutoAnalysis.Line2.Type, 1
TestParameter, AutoAnalysis.Line2.Fix, True
TestParameter, AutoAnalysis.Line2.YAxis, 0
TestParameter, AutoAnalysis.Line2.Point1.Type, 0
TestParameter, AutoAnalysis.Line2.Point1.XY.X, 
TestParameter, AutoAnalysis.Line2.Point1.XY.Y, 
TestParameter, AutoAnalysis.Line2.Point1.Data.Var, 
TestParameter, AutoAnalysis.Line2.Point1.Data.Condition, 
TestParameter, AutoAnalysis.Line2.Point1.Data.Start, false
TestParameter, AutoAnalysis.Line2.Point1.Data.StartVar, 
TestParameter, AutoAnalysis.Line2.Point1.Data.StartCondition, 
TestParameter, AutoAnalysis.Line2.Point2.Type, 0
TestParameter, AutoAnalysis.Line2.Point2.XY.X, 
TestParameter, AutoAnalysis.Line2.Point2.XY.Y, 
TestParameter, AutoAnalysis.Line2.Point2.Data.Var, 
TestParameter, AutoAnalysis.Line2.Point2.Data.Condition, 
TestParameter, AutoAnalysis.Line2.Point2.Data.Start, false
TestParameter, AutoAnalysis.Line2.Point2.Data.StartVar, 
TestParameter, AutoAnalysis.Line2.Point2.Data.StartCondition, 
TestParameter, AutoAnalysis.Line2.GradientExpr, 0
TestParameter, AutoAnalysis.Marker.Enabled, false
TestParameter, AutoAnalysis.Marker.Data.Var, 
TestParameter, AutoAnalysis.Marker.Data.Condition, 
TestParameter, AutoAnalysis.Marker.Data.Start, false
TestParameter, AutoAnalysis.Marker.Data.StartVar, 
TestParameter, AutoAnalysis.Marker.Data.StartCondition, 
MetaData, TestRecord.EntryPoint, true
MetaData, TestRecord.RecordTime, 03/10/2023 17:36:42
MetaData, TestRecord.TestTarget, 
MetaData, TestRecord.IterationIndex, 76
MetaData, TestRecord.Preservation, true
MetaData, TestRecord.Flag, 
MetaData, TestRecord.Remarks, 
MetaData, TestRecord.LinkKey, c127b3c9-eb9a-45bc-a3ab-ac3dda5c4ad0
Dimension1, 402, 402, 402, 402, 402, 402, 402, 402
Dimension2, 1, 1, 1, 1, 1, 1, 1, 1
DataName, V1, V2, I1, I2, V3, I3, V4, I4
DataValue, -2, 0.25, -4.3000000000000007E-12, 2.8010000000000002E-11, , , , 
DataValue, -1.8900000000000001, 0.25, -2.6600000000000004E-12, 2.957E-11, , , , 
DataValue, -1.78, 0.25, -1.4900000000000001E-12, 2.7490000000000003E-11, , , , 
DataValue, -1.67, 0.25, -9.4E-13, 2.5670000000000004E-11, , , , 
DataValue, -1.56, 0.25, -1.65E-12, 2.6560000000000003E-11, , , , 
DataValue, -1.45, 0.25, -1.32E-12, 2.9150000000000004E-11, , , , 
DataValue, -1.34, 0.25, -5.9E-13, 2.768E-11, , , , 
DataValue, -1.23, 0.25, -2.5E-13, 2.5030000000000003E-11, , , , 
DataValue, -1.12, 0.25, -5.5000000000000008E-13, 2.742E-11, , , , 
DataValue, -1.01, 0.25, 9.0000000000000008E-14, 2.899E-11, , , , 
DataValue, -0.9, 0.25, 3.4E-13, 2.635E-11, , , , 
DataValue, -0.79, 0.25, 1.0100000000000001E-12, 2.511E-11, , , , 
DataValue, -0.68, 0.25, 3.9000000000000005E-13, 2.802E-11, , , , 
DataValue, -0.57000000000000006, 0.25, 1.0500000000000002E-12, 2.8810000000000002E-11, , , , 
DataValue, -0.46, 0.25, 1.7100000000000002E-12, 2.6300000000000002E-11, , , , 
DataValue, -0.35000000000000003, 0.25, 1.6200000000000002E-12, 2.524E-11, , , , 
DataValue, -0.24, 0.25, 1.55E-12, 2.6870000000000003E-11, , , , 
DataValue, -0.13, 0.25, 2E-12, 2.8600000000000003E-11, , , , 
DataValue, -0.02, 0.25, 1.69E-12, 2.6210000000000002E-11, , , , 
DataValue, 0.09, 0.25, 1.88E-12, 2.5500000000000002E-11, , , , 
DataValue, 0.2, 0.25, 1.86E-12, 2.7600000000000004E-11, , , , 
DataValue, 0.31, 0.25, 2.3500000000000003E-12, 2.875E-11, , , , 
DataValue, 0.42, 0.25, 2.14E-12, 2.664E-11, , , , 
DataValue, 0.53, 0.25, 2.6800000000000003E-12, 2.58E-11, , , , 
DataValue, 0.64, 0.25, 1.7100000000000002E-12, 2.7180000000000003E-11, , , , 
DataValue, 0.75, 0.25, 3.23E-12, 2.808E-11, , , , 
DataValue, 0.86, 0.25, 2.47E-12, 2.622E-11, , , , 
DataValue, 0.97, 0.25, 3.1400000000000004E-12, 2.5410000000000003E-11, , , , 
DataValue, 1.08, 0.25, 2.5800000000000003E-12, 2.6630000000000003E-11, , , , 
DataValue, 1.19, 0.25, 3.7300000000000005E-12, 2.8010000000000002E-11, , , , 
DataValue, 1.3, 0.25, 4.08E-12, 2.6010000000000002E-11, , , , 
DataValue, 1.41, 0.25, 3.0300000000000002E-12, 2.5990000000000002E-11, , , , 
DataValue, 1.52, 0.25, 2.97E-12, 2.6850000000000003E-11, , , , 
DataValue, 1.6300000000000001, 0.25, 4.1000000000000007E-12, 2.8310000000000004E-11, , , , 
DataValue, 1.74, 0.25, 3.4900000000000003E-12, 2.651E-11, , , , 
DataValue, 1.85, 0.25, 3.13E-12, 2.5410000000000003E-11, , , , 
DataValue, 1.96, 0.25, 3.33E-12, 2.6010000000000002E-11, , , , 
DataValue, 2.07, 0.25, 3.96E-12, 2.8380000000000003E-11, , , , 
DataValue, 2.18, 0.25, 4E-12, 2.6590000000000002E-11, , , , 
DataValue, 2.29, 0.25, 4.07E-12, 2.5300000000000002E-11, , , , 
DataValue, 2.4, 0.25, 3.7800000000000005E-12, 2.56E-11, , , , 
DataValue, 2.5100000000000002, 0.25, 3.9800000000000004E-12, 2.7720000000000002E-11, , , , 
DataValue, 2.62, 0.25, 4.2000000000000007E-12, 2.6940000000000003E-11, , , , 
DataValue, 2.73, 0.25, 4.2000000000000007E-12, 2.4810000000000003E-11, , , , 
DataValue, 2.84, 0.25, 4.5500000000000006E-12, 2.5560000000000003E-11, , , , 
DataValue, 2.95, 0.25, 4.67E-12, 2.7870000000000003E-11, , , , 
DataValue, 3.06, 0.25, 4.52E-12, 2.651E-11, , , , 
DataValue, 3.17, 0.25, 4.48E-12, 2.469E-11, , , , 
DataValue, 3.2800000000000002, 0.25, 4.5400000000000004E-12, 2.5540000000000003E-11, , , , 
DataValue, 3.39, 0.25, 4.7000000000000006E-12, 2.7600000000000004E-11, , , , 
DataValue, 3.5, 0.25, 5.03E-12, 2.5830000000000003E-11, , , , 
DataValue, 3.61, 0.25, 4.7000000000000006E-12, 2.5050000000000003E-11, , , , 
DataValue, 3.72, 0.25, 4.84E-12, 2.5210000000000003E-11, , , , 
DataValue, 3.83, 0.25, 4.63E-12, 2.7500000000000002E-11, , , , 
DataValue, 3.94, 0.25, 4.94E-12, 2.6430000000000003E-11, , , , 
DataValue, 4.05, 0.25, 5.4500000000000004E-12, 2.4340000000000003E-11, , , , 
DataValue, 4.16, 0.25, 4.2900000000000005E-12, 2.558E-11, , , , 
DataValue, 4.2700000000000005, 0.25, 4.97E-12, 2.8250000000000003E-11, , , , 
DataValue, 4.38, 0.25, 5.2600000000000006E-12, 2.662E-11, , , , 
DataValue, 4.49, 0.25, 5.03E-12, 2.3860000000000002E-11, , , , 
DataValue, 4.6000000000000005, 0.25, 5.9300000000000008E-12, 2.5120000000000003E-11, , , , 
DataValue, 4.71, 0.25, 5.1700000000000008E-12, 2.8210000000000002E-11, , , , 
DataValue, 4.82, 0.25, 6.6E-12, 2.6990000000000002E-11, , , , 
DataValue, 4.93, 0.25, 5.9200000000000006E-12, 2.4960000000000004E-11, , , , 
DataValue, 5.04, 0.25, 5.8200000000000006E-12, 2.4750000000000002E-11, , , , 
DataValue, 5.15, 0.25, 6.36E-12, 2.757E-11, , , , 
DataValue, 5.26, 0.25, 6.7E-12, 2.6690000000000004E-11, , , , 
DataValue, 5.37, 0.25, 6.2800000000000007E-12, 2.451E-11, , , , 
DataValue, 5.48, 0.25, 6.4E-12, 2.438E-11, , , , 
DataValue, 5.59, 0.25, 6.3200000000000005E-12, 2.7630000000000002E-11, , , , 
DataValue, 5.7, 0.25, 6.92E-12, 2.6830000000000003E-11, , , , 
DataValue, 5.8100000000000005, 0.25, 6.5800000000000006E-12, 2.3990000000000003E-11, , , , 
DataValue, 5.92, 0.25, 6.7800000000000006E-12, 2.351E-11, , , , 
DataValue, 6.03, 0.25, 6.56E-12, 2.609E-11, , , , 
DataValue, 6.1400000000000006, 0.25, 7.81E-12, 2.7520000000000002E-11, , , , 
DataValue, 6.25, 0.25, 6.8700000000000004E-12, 2.504E-11, , , , 
DataValue, 6.36, 0.25, 6.8900000000000007E-12, 2.349E-11, , , , 
DataValue, 6.47, 0.25, 7.2800000000000013E-12, 2.4100000000000003E-11, , , , 
DataValue, 6.58, 0.25, 6.97E-12, 2.7070000000000003E-11, , , , 
DataValue, 6.69, 0.25, 8.4700000000000009E-12, 2.5990000000000002E-11, , , , 
DataValue, 6.8, 0.25, 7.06E-12, 2.3940000000000003E-11, , , , 
DataValue, 6.91, 0.25, 8.13E-12, 2.287E-11, , , , 
DataValue, 7.0200000000000005, 0.25, 7.0800000000000005E-12, 2.675E-11, , , , 
DataValue, 7.13, 0.25, 8.5900000000000012E-12, 2.686E-11, , , , 
DataValue, 7.24, 0.25, 8.41E-12, 2.405E-11, , , , 
DataValue, 7.3500000000000005, 0.25, 8.780000000000001E-12, 2.3130000000000002E-11, , , , 
DataValue, 7.46, 0.25, 8.7000000000000013E-12, 2.6450000000000003E-11, , , , 
DataValue, 7.57, 0.25, 8.82E-12, 2.591E-11, , , , 
DataValue, 7.68, 0.25, 8.63E-12, 2.405E-11, , , , 
DataValue, 7.79, 0.25, 8.6900000000000011E-12, 2.3020000000000002E-11, , , , 
DataValue, 7.9, 0.25, 8.52E-12, 2.538E-11, , , , 
DataValue, 8.01, 0.25, 9.6100000000000013E-12, 2.5870000000000003E-11, , , , 
DataValue, 8.120000000000001, 0.25, 9.45E-12, 2.4140000000000003E-11, , , , 
DataValue, 8.23, 0.25, 9.74E-12, 2.314E-11, , , , 
DataValue, 8.34, 0.25, 9.2100000000000013E-12, 2.478E-11, , , , 
DataValue, 8.45, 0.25, 9.65E-12, 2.6280000000000002E-11, , , , 
DataValue, 8.56, 0.25, 9.57E-12, 2.4570000000000002E-11, , , , 
DataValue, 8.67, 0.25, 9.78E-12, 2.3100000000000003E-11, , , , 
DataValue, 8.78, 0.25, 1.004E-11, 2.538E-11, , , , 
DataValue, 8.89, 0.25, 9.78E-12, 2.544E-11, , , , 
DataValue, 9, 0.25, 1.0410000000000001E-11, 2.427E-11, , , , 
DataValue, 9.11, 0.25, 1.0740000000000002E-11, 2.342E-11, , , , 
DataValue, 9.22, 0.25, 1.0340000000000002E-11, 2.369E-11, , , , 
DataValue, 9.33, 0.25, 1.059E-11, 2.569E-11, , , , 
DataValue, 9.44, 0.25, 1.056E-11, 2.4590000000000002E-11, , , , 
DataValue, 9.55, 0.25, 1.025E-11, 2.283E-11, , , , 
DataValue, 9.66, 0.25, 1.046E-11, 2.4630000000000003E-11, , , , 
DataValue, 9.77, 0.25, 1.0620000000000001E-11, 2.5700000000000002E-11, , , , 
DataValue, 9.88, 0.25, 1.1740000000000001E-11, 2.46E-11, , , , 
DataValue, 9.99, 0.25, 1.1210000000000001E-11, 2.2590000000000003E-11, , , , 
DataValue, 10.1, 0.25, 1.1120000000000001E-11, 2.3020000000000002E-11, , , , 
DataValue, 10.21, 0.25, 1.147E-11, 2.5350000000000002E-11, , , , 
DataValue, 10.32, 0.25, 1.219E-11, 2.489E-11, , , , 
DataValue, 10.43, 0.25, 1.2E-11, 2.2350000000000002E-11, , , , 
DataValue, 10.540000000000001, 0.25, 1.1830000000000001E-11, 2.307E-11, , , , 
DataValue, 10.65, 0.25, 1.1340000000000001E-11, 2.5940000000000003E-11, , , , 
DataValue, 10.76, 0.25, 1.241E-11, 2.4920000000000003E-11, , , , 
DataValue, 10.870000000000001, 0.25, 1.249E-11, 2.3410000000000003E-11, , , , 
DataValue, 10.98, 0.25, 1.2760000000000001E-11, 2.245E-11, , , , 
DataValue, 11.09, 0.25, 1.259E-11, 2.5630000000000003E-11, , , , 
DataValue, 11.200000000000001, 0.25, 1.2570000000000002E-11, 2.4390000000000002E-11, , , , 
DataValue, 11.31, 0.25, 1.2070000000000002E-11, 2.2640000000000002E-11, , , , 
DataValue, 11.42, 0.25, 1.2760000000000001E-11, 2.1880000000000003E-11, , , , 
DataValue, 11.53, 0.25, 1.3090000000000002E-11, 2.5080000000000002E-11, , , , 
DataValue, 11.64, 0.25, 1.3570000000000001E-11, 2.504E-11, , , , 
DataValue, 11.75, 0.25, 1.3140000000000001E-11, 2.2720000000000003E-11, , , , 
DataValue, 11.86, 0.25, 1.3600000000000002E-11, 2.147E-11, , , , 
DataValue, 11.97, 0.25, 1.3E-11, 2.4190000000000003E-11, , , , 
DataValue, 12.08, 0.25, 1.373E-11, 2.5190000000000002E-11, , , , 
DataValue, 12.19, 0.25, 1.3870000000000001E-11, 2.265E-11, , , , 
DataValue, 12.3, 0.25, 1.4250000000000001E-11, 2.0910000000000002E-11, , , , 
DataValue, 12.41, 0.25, 1.351E-11, 2.314E-11, , , , 
DataValue, 12.52, 0.25, 1.433E-11, 2.4480000000000002E-11, , , , 
DataValue, 12.63, 0.25, 1.394E-11, 2.294E-11, , , , 
DataValue, 12.74, 0.25, 1.4370000000000001E-11, 2.0950000000000003E-11, , , , 
DataValue, 12.85, 0.25, 1.3600000000000002E-11, 2.2950000000000002E-11, , , , 
DataValue, 12.96, 0.25, 1.5E-11, 2.5030000000000003E-11, , , , 
DataValue, 13.07, 0.25, 1.4470000000000001E-11, 2.2260000000000002E-11, , , , 
DataValue, 13.18, 0.25, 1.522E-11, 2.092E-11, , , , 
DataValue, 13.290000000000001, 0.25, 1.4760000000000003E-11, 2.3130000000000002E-11, , , , 
DataValue, 13.4, 0.25, 1.5520000000000002E-11, 2.409E-11, , , , 
DataValue, 13.51, 0.25, 1.5210000000000002E-11, 2.2170000000000003E-11, , , , 
DataValue, 13.620000000000001, 0.25, 1.5520000000000002E-11, 2.1090000000000002E-11, , , , 
DataValue, 13.73, 0.25, 1.458E-11, 2.303E-11, , , , 
DataValue, 13.84, 0.25, 1.5650000000000002E-11, 2.349E-11, , , , 
DataValue, 13.950000000000001, 0.25, 1.5720000000000002E-11, 2.187E-11, , , , 
DataValue, 14.06, 0.25, 1.653E-11, 2.0930000000000002E-11, , , , 
DataValue, 14.17, 0.25, 1.6070000000000002E-11, 2.2350000000000002E-11, , , , 
DataValue, 14.280000000000001, 0.25, 1.646E-11, 2.294E-11, , , , 
DataValue, 14.39, 0.25, 1.599E-11, 2.205E-11, , , , 
DataValue, 14.5, 0.25, 1.6710000000000003E-11, 2.05E-11, , , , 
DataValue, 14.61, 0.25, 1.6070000000000002E-11, 2.0730000000000002E-11, , , , 
DataValue, 14.72, 0.25, 1.783E-11, 2.3920000000000003E-11, , , , 
DataValue, 14.83, 0.25, 1.795E-11, 2.176E-11, , , , 
DataValue, 14.94, 0.25, 1.728E-11, 2.0060000000000003E-11, , , , 
DataValue, 15.05, 0.25, 1.719E-11, 2.09E-11, , , , 
DataValue, 15.16, 0.25, 1.797E-11, 2.349E-11, , , , 
DataValue, 15.27, 0.25, 1.8180000000000002E-11, 2.13E-11, , , , 
DataValue, 15.38, 0.25, 1.7980000000000002E-11, 1.965E-11, , , , 
DataValue, 15.49, 0.25, 1.819E-11, 1.9330000000000003E-11, , , , 
DataValue, 15.6, 0.25, 1.819E-11, 2.161E-11, , , , 
DataValue, 15.71, 0.25, 1.956E-11, 2.2550000000000002E-11, , , , 
DataValue, 15.82, 0.25, 1.8890000000000002E-11, 2.114E-11, , , , 
DataValue, 15.93, 0.25, 1.9660000000000003E-11, 1.963E-11, , , , 
DataValue, 16.04, 0.25, 1.939E-11, 2.1190000000000003E-11, , , , 
DataValue, 16.15, 0.25, 2.021E-11, 2.2240000000000002E-11, , , , 
DataValue, 16.26, 0.25, 1.977E-11, 2.0040000000000003E-11, , , , 
DataValue, 16.37, 0.25, 1.9890000000000002E-11, 1.8930000000000003E-11, , , , 
DataValue, 16.48, 0.25, 2.0550000000000003E-11, 2.163E-11, , , , 
DataValue, 16.59, 0.25, 2.147E-11, 2.136E-11, , , , 
DataValue, 16.7, 0.25, 2.0860000000000003E-11, 1.968E-11, , , , 
DataValue, 16.81, 0.25, 2.1020000000000002E-11, 1.8440000000000003E-11, , , , 
DataValue, 16.92, 0.25, 2.125E-11, 2.09E-11, , , , 
DataValue, 17.03, 0.25, 2.2020000000000002E-11, 2.207E-11, , , , 
DataValue, 17.14, 0.25, 2.154E-11, 1.905E-11, , , , 
DataValue, 17.25, 0.25, 2.249E-11, 1.808E-11, , , , 
DataValue, 17.36, 0.25, 2.2040000000000002E-11, 2.0310000000000002E-11, , , , 
DataValue, 17.47, 0.25, 2.2920000000000003E-11, 2.156E-11, , , , 
DataValue, 17.580000000000002, 0.25, 2.247E-11, 1.943E-11, , , , 
DataValue, 17.69, 0.25, 2.3350000000000002E-11, 1.8310000000000003E-11, , , , 
DataValue, 17.8, 0.25, 2.303E-11, 1.992E-11, , , , 
DataValue, 17.91, 0.25, 2.442E-11, 2.03E-11, , , , 
DataValue, 18.02, 0.25, 2.491E-11, 1.888E-11, , , , 
DataValue, 18.13, 0.25, 2.4630000000000003E-11, 1.826E-11, , , , 
DataValue, 18.240000000000002, 0.25, 2.507E-11, 2.014E-11, , , , 
DataValue, 18.35, 0.25, 2.5320000000000003E-11, 2.052E-11, , , , 
DataValue, 18.46, 0.25, 2.5650000000000003E-11, 1.9970000000000003E-11, , , , 
DataValue, 18.57, 0.25, 2.6770000000000002E-11, 1.917E-11, , , , 
DataValue, 18.68, 0.25, 2.5990000000000002E-11, 2.0060000000000003E-11, , , , 
DataValue, 18.79, 0.25, 2.7210000000000002E-11, 2.174E-11, , , , 
DataValue, 18.900000000000002, 0.25, 2.724E-11, 2.13E-11, , , , 
DataValue, 19.01, 0.25, 2.755E-11, 2.0480000000000003E-11, , , , 
DataValue, 19.12, 0.25, 2.7470000000000003E-11, 2.1700000000000003E-11, , , , 
DataValue, 19.23, 0.25, 2.8030000000000002E-11, 2.342E-11, , , , 
DataValue, 19.34, 0.25, 2.8290000000000003E-11, 2.3120000000000003E-11, , , , 
DataValue, 19.45, 0.25, 2.824E-11, 2.2720000000000003E-11, , , , 
DataValue, 19.56, 0.25, 2.864E-11, 2.4660000000000002E-11, , , , 
DataValue, 19.67, 0.25, 2.927E-11, 2.8500000000000002E-11, , , , 
DataValue, 19.78, 0.25, 3.001E-11, 2.8900000000000002E-11, , , , 
DataValue, 19.89, 0.25, 3.074E-11, 2.986E-11, , , , 
DataValue, 20, 0.25, 3.102E-11, 3.42E-11, , , , 
DataValue, 20, 0.25, 3.0540000000000005E-11, 3.455E-11, , , , 
DataValue, 19.89, 0.25, 2.8450000000000003E-11, 3.1080000000000004E-11, , , , 
