
SetupTitle, ID-VG Postbreak
PrimitiveTest, I/V Sweep
TestParameter, Context.MainFrame, B1500A
TestParameter, Channel.UnitType, SMU, SMU
TestParameter, Channel.Unit, SMU1:MP, SMU2:MP
TestParameter, Channel.IName, I1, I2
TestParameter, Channel.VName, V1, V2
TestParameter, Channel.Mode, V, V
TestParameter, Channel.Func, VAR1, CONST
TestParameter, Channel.Index, 
TestParameter, Channel.Time, 
TestParameter, Measurement.Port.Unit, SMU1:MP, SMU2:MP
TestParameter, Measurement.Port.SeriesResistor, NONE, NONE
TestParameter, Measurement.Port.Filter, ON, ON
TestParameter, Measurement.Port.OutputVoltageComparison, 0, 0
TestParameter, Measurement.Primary.Locus, Double
TestParameter, Measurement.Primary.Scale, LINEAR
TestParameter, Measurement.Primary.Start, -2
TestParameter, Measurement.Primary.Stop, 20
TestParameter, Measurement.Primary.Step, 0.11
TestParameter, Measurement.Primary.Compliance, 0.1
TestParameter, Measurement.Primary.PowerCompliance, 0
TestParameter, Measurement.Aborting.Condition, CONTINUE AT ANY
TestParameter, Measurement.PostOutput.Value, START
TestParameter, Measurement.PostOutput.Retention, OFF
TestParameter, Measurement.Bias.Source, -2, 0.25
TestParameter, Measurement.Bias.Compliance, 0.1, 0.1
TestParameter, Measurement.Monitor.Unit, SMU1:MP, SMU2:MP
TestParameter, Measurement.Monitor.Adc, HR ADC, HR ADC
TestParameter, Measurement.Monitor.Measurement, Compliance Side, Compliance Side
TestParameter, Measurement.Monitor.RangingMode, LIMITED, LIMITED
TestParameter, Measurement.Monitor.RangeBoundary, 1nA, 1nA
TestParameter, Measurement.Monitor.RangeRating, BY FULL RANGE, BY FULL RANGE
TestParameter, Measurement.Monitor.RangeRatingCoeff, 50, 50
TestParameter, Measurement.Timing.Hold, 0
TestParameter, Measurement.Timing.Delay, 0
TestParameter, Measurement.Adc.HighSpeed.Mode, AUTO
TestParameter, Measurement.Adc.HighSpeed.Coeff, 1
TestParameter, Measurement.Adc.HighResolution.AutoZero, OFF
TestParameter, Measurement.Adc.HighResolution.Mode, AUTO
TestParameter, Measurement.Adc.HighResolution.Coeff, 6
TestParameter, Measurement.WaitTime.Source.Coeff, 1
TestParameter, Measurement.WaitTime.Source.Offset, 0
TestParameter, Measurement.WaitTime.Monitor.Coeff, 1
TestParameter, Measurement.WaitTime.Monitor.Offset, 0
TestParameter, Output.Graph.Enabled, true
TestParameter, Output.Graph.AutoScaling, false
TestParameter, Output.Graph.XAxis.Data, V1
TestParameter, Output.Graph.XAxis.Scale, Linear
TestParameter, Output.Graph.XAxis.Left, -2
TestParameter, Output.Graph.XAxis.Right, 6
TestParameter, Output.Graph.XAxis.RunTimeAutoScale, true
TestParameter, Output.Graph.YAxis.Data, I2
TestParameter, Output.Graph.YAxis.Scale, Linear
TestParameter, Output.Graph.YAxis.Bottom, -0.1
TestParameter, Output.Graph.YAxis.Top, 0.1
TestParameter, Output.Graph.YAxis.Group, 
TestParameter, Output.Graph.YAxis.RunTimeAutoScale, true
TestParameter, Output.List.Data, V1, I1, V2, I2, V3, I3, V4, I4
TestParameter, AutoAnalysis.Interpolation, false
TestParameter, AutoAnalysis.Line1.Enabled, false
TestParameter, AutoAnalysis.Line1.Type, 1
TestParameter, AutoAnalysis.Line1.Fix, True
TestParameter, AutoAnalysis.Line1.YAxis, 0
TestParameter, AutoAnalysis.Line1.Point1.Type, 0
TestParameter, AutoAnalysis.Line1.Point1.XY.X, 
TestParameter, AutoAnalysis.Line1.Point1.XY.Y, 
TestParameter, AutoAnalysis.Line1.Point1.Data.Var, 
TestParameter, AutoAnalysis.Line1.Point1.Data.Condition, 
TestParameter, AutoAnalysis.Line1.Point1.Data.Start, false
TestParameter, AutoAnalysis.Line1.Point1.Data.StartVar, 
TestParameter, AutoAnalysis.Line1.Point1.Data.StartCondition, 
TestParameter, AutoAnalysis.Line1.Point2.Type, 0
TestParameter, AutoAnalysis.Line1.Point2.XY.X, 
TestParameter, AutoAnalysis.Line1.Point2.XY.Y, 
TestParameter, AutoAnalysis.Line1.Point2.Data.Var, 
TestParameter, AutoAnalysis.Line1.Point2.Data.Condition, 
TestParameter, AutoAnalysis.Line1.Point2.Data.Start, false
TestParameter, AutoAnalysis.Line1.Point2.Data.StartVar, 
TestParameter, AutoAnalysis.Line1.Point2.Data.StartCondition, 
TestParameter, AutoAnalysis.Line1.GradientExpr, 0
TestParameter, AutoAnalysis.Line2.Enabled, false
TestParameter, AutoAnalysis.Line2.Type, 1
TestParameter, AutoAnalysis.Line2.Fix, True
TestParameter, AutoAnalysis.Line2.YAxis, 0
TestParameter, AutoAnalysis.Line2.Point1.Type, 0
TestParameter, AutoAnalysis.Line2.Point1.XY.X, 
TestParameter, AutoAnalysis.Line2.Point1.XY.Y, 
TestParameter, AutoAnalysis.Line2.Point1.Data.Var, 
TestParameter, AutoAnalysis.Line2.Point1.Data.Condition, 
TestParameter, AutoAnalysis.Line2.Point1.Data.Start, false
TestParameter, AutoAnalysis.Line2.Point1.Data.StartVar, 
TestParameter, AutoAnalysis.Line2.Point1.Data.StartCondition, 
TestParameter, AutoAnalysis.Line2.Point2.Type, 0
TestParameter, AutoAnalysis.Line2.Point2.XY.X, 
TestParameter, AutoAnalysis.Line2.Point2.XY.Y, 
TestParameter, AutoAnalysis.Line2.Point2.Data.Var, 
TestParameter, AutoAnalysis.Line2.Point2.Data.Condition, 
TestParameter, AutoAnalysis.Line2.Point2.Data.Start, false
TestParameter, AutoAnalysis.Line2.Point2.Data.StartVar, 
TestParameter, AutoAnalysis.Line2.Point2.Data.StartCondition, 
TestParameter, AutoAnalysis.Line2.GradientExpr, 0
TestParameter, AutoAnalysis.Marker.Enabled, false
TestParameter, AutoAnalysis.Marker.Data.Var, 
TestParameter, AutoAnalysis.Marker.Data.Condition, 
TestParameter, AutoAnalysis.Marker.Data.Start, false
TestParameter, AutoAnalysis.Marker.Data.StartVar, 
TestParameter, AutoAnalysis.Marker.Data.StartCondition, 
MetaData, TestRecord.EntryPoint, true
MetaData, TestRecord.RecordTime, 03/10/2023 17:39:01
MetaData, TestRecord.TestTarget, 
MetaData, TestRecord.IterationIndex, 79
MetaData, TestRecord.Preservation, true
MetaData, TestRecord.Flag, 
MetaData, TestRecord.Remarks, 
MetaData, TestRecord.LinkKey, 4a56cc47-b2f4-4e08-a492-5b2ce197fd8e
Dimension1, 402, 402, 402, 402, 402, 402, 402, 402
Dimension2, 1, 1, 1, 1, 1, 1, 1, 1
DataName, V1, V2, I1, I2, V3, I3, V4, I4
DataValue, -2, 0.25, -4.16E-12, 3.802E-11, , , , 
DataValue, -1.8900000000000001, 0.25, -2.4800000000000003E-12, 4.1530000000000004E-11, , , , 
DataValue, -1.78, 0.25, -1.8100000000000002E-12, 4.2450000000000006E-11, , , , 
DataValue, -1.67, 0.25, -1.2500000000000001E-12, 3.992E-11, , , , 
DataValue, -1.56, 0.25, -7.5E-13, 3.754E-11, , , , 
DataValue, -1.45, 0.25, -1.2400000000000002E-12, 4.043E-11, , , , 
DataValue, -1.34, 0.25, -7E-14, 4.1140000000000006E-11, , , , 
DataValue, -1.23, 0.25, 8.0000000000000013E-14, 3.934E-11, , , , 
DataValue, -1.12, 0.25, 4.2000000000000003E-13, 3.7450000000000004E-11, , , , 
DataValue, -1.01, 0.25, 1.8000000000000002E-13, 4.038E-11, , , , 
DataValue, -0.9, 0.25, 1.0500000000000002E-12, 4.123E-11, , , , 
DataValue, -0.79, 0.25, 3.4E-13, 3.914E-11, , , , 
DataValue, -0.68, 0.25, 8.8000000000000009E-13, 3.7520000000000003E-11, , , , 
DataValue, -0.57000000000000006, 0.25, -3.1000000000000004E-13, 4.016E-11, , , , 
DataValue, -0.46, 0.25, 1.5600000000000002E-12, 4.0840000000000004E-11, , , , 
DataValue, -0.35000000000000003, 0.25, 1.09E-12, 3.8220000000000005E-11, , , , 
DataValue, -0.24, 0.25, 1.0100000000000001E-12, 3.718E-11, , , , 
DataValue, -0.13, 0.25, 1.74E-12, 3.874E-11, , , , 
DataValue, -0.02, 0.25, 1.26E-12, 4.191E-11, , , , 
DataValue, 0.09, 0.25, 1.95E-12, 3.9560000000000003E-11, , , , 
DataValue, 0.2, 0.25, 1.6100000000000002E-12, 3.6880000000000006E-11, , , , 
DataValue, 0.31, 0.25, 2.6000000000000002E-12, 3.9130000000000005E-11, , , , 
DataValue, 0.42, 0.25, 1.7000000000000002E-12, 4.1900000000000005E-11, , , , 
DataValue, 0.53, 0.25, 2.01E-12, 3.9280000000000005E-11, , , , 
DataValue, 0.64, 0.25, 1.9400000000000002E-12, 3.711E-11, , , , 
DataValue, 0.75, 0.25, 1.8900000000000002E-12, 3.8300000000000006E-11, , , , 
DataValue, 0.86, 0.25, 2.5600000000000004E-12, 4.09E-11, , , , 
DataValue, 0.97, 0.25, 2.67E-12, 4.006E-11, , , , 
DataValue, 1.08, 0.25, 2.16E-12, 3.817E-11, , , , 
DataValue, 1.19, 0.25, 2.7000000000000002E-12, 3.6620000000000005E-11, , , , 
DataValue, 1.3, 0.25, 2E-12, 3.9750000000000005E-11, , , , 
DataValue, 1.41, 0.25, 3.1200000000000004E-12, 4.0010000000000006E-11, , , , 
DataValue, 1.52, 0.25, 2.8900000000000004E-12, 3.7890000000000004E-11, , , , 
DataValue, 1.6300000000000001, 0.25, 2.8E-12, 3.6660000000000006E-11, , , , 
DataValue, 1.74, 0.25, 2.3500000000000003E-12, 3.9420000000000004E-11, , , , 
DataValue, 1.85, 0.25, 3.35E-12, 4.0480000000000005E-11, , , , 
DataValue, 1.96, 0.25, 2.87E-12, 3.7570000000000006E-11, , , , 
DataValue, 2.07, 0.25, 3.1E-12, 3.6660000000000006E-11, , , , 
DataValue, 2.18, 0.25, 2.74E-12, 4.0150000000000005E-11, , , , 
DataValue, 2.29, 0.25, 3.51E-12, 4.0300000000000006E-11, , , , 
DataValue, 2.4, 0.25, 3.6800000000000005E-12, 3.8040000000000005E-11, , , , 
DataValue, 2.5100000000000002, 0.25, 3.3100000000000002E-12, 3.674E-11, , , , 
DataValue, 2.62, 0.25, 2.59E-12, 3.9820000000000004E-11, , , , 
DataValue, 2.73, 0.25, 4.32E-12, 4.028E-11, , , , 
DataValue, 2.84, 0.25, 4.02E-12, 3.722E-11, , , , 
DataValue, 2.95, 0.25, 3.5900000000000003E-12, 3.7490000000000004E-11, , , , 
DataValue, 3.06, 0.25, 3.23E-12, 4.035E-11, , , , 
DataValue, 3.17, 0.25, 4.26E-12, 4.013E-11, , , , 
DataValue, 3.2800000000000002, 0.25, 3.92E-12, 3.736E-11, , , , 
DataValue, 3.39, 0.25, 3.56E-12, 3.693E-11, , , , 
DataValue, 3.5, 0.25, 4.11E-12, 4.006E-11, , , , 
DataValue, 3.61, 0.25, 4.63E-12, 4.025E-11, , , , 
DataValue, 3.72, 0.25, 4.1500000000000007E-12, 3.729E-11, , , , 
DataValue, 3.83, 0.25, 4.0500000000000007E-12, 3.5960000000000004E-11, , , , 
DataValue, 3.94, 0.25, 4.23E-12, 3.853E-11, , , , 
DataValue, 4.05, 0.25, 4.58E-12, 4.042E-11, , , , 
DataValue, 4.16, 0.25, 4.56E-12, 3.7600000000000005E-11, , , , 
DataValue, 4.2700000000000005, 0.25, 4.42E-12, 3.6660000000000006E-11, , , , 
DataValue, 4.38, 0.25, 3.82E-12, 3.8480000000000006E-11, , , , 
DataValue, 4.49, 0.25, 5.03E-12, 4.01E-11, , , , 
DataValue, 4.6000000000000005, 0.25, 4.73E-12, 3.795E-11, , , , 
DataValue, 4.71, 0.25, 5.04E-12, 3.58E-11, , , , 
DataValue, 4.82, 0.25, 4.4500000000000006E-12, 3.8940000000000003E-11, , , , 
DataValue, 4.93, 0.25, 5.6E-12, 4.0120000000000006E-11, , , , 
DataValue, 5.04, 0.25, 5.18E-12, 3.747E-11, , , , 
DataValue, 5.15, 0.25, 4.57E-12, 3.6290000000000005E-11, , , , 
DataValue, 5.26, 0.25, 4.31E-12, 3.8080000000000006E-11, , , , 
DataValue, 5.37, 0.25, 5.6600000000000005E-12, 3.9780000000000004E-11, , , , 
DataValue, 5.48, 0.25, 5.7100000000000005E-12, 3.715E-11, , , , 
DataValue, 5.59, 0.25, 5.3200000000000008E-12, 3.63E-11, , , , 
DataValue, 5.7, 0.25, 4.9600000000000007E-12, 3.852E-11, , , , 
DataValue, 5.8100000000000005, 0.25, 6.4400000000000008E-12, 3.8940000000000003E-11, , , , 
DataValue, 5.92, 0.25, 5.55E-12, 3.741E-11, , , , 
DataValue, 6.03, 0.25, 5.8700000000000006E-12, 3.601E-11, , , , 
DataValue, 6.1400000000000006, 0.25, 5.34E-12, 3.86E-11, , , , 
DataValue, 6.25, 0.25, 6.1700000000000006E-12, 3.923E-11, , , , 
DataValue, 6.36, 0.25, 6.3800000000000007E-12, 3.7850000000000004E-11, , , , 
DataValue, 6.47, 0.25, 6.2900000000000009E-12, 3.568E-11, , , , 
DataValue, 6.58, 0.25, 6.26E-12, 3.7960000000000004E-11, , , , 
DataValue, 6.69, 0.25, 6.5E-12, 3.959E-11, , , , 
DataValue, 6.8, 0.25, 7.0900000000000007E-12, 3.75E-11, , , , 
DataValue, 6.91, 0.25, 6.7900000000000008E-12, 3.566E-11, , , , 
DataValue, 7.0200000000000005, 0.25, 6E-12, 3.7200000000000005E-11, , , , 
DataValue, 7.13, 0.25, 6.71E-12, 3.958E-11, , , , 
DataValue, 7.24, 0.25, 7.21E-12, 3.759E-11, , , , 
DataValue, 7.3500000000000005, 0.25, 6.9900000000000007E-12, 3.597E-11, , , , 
DataValue, 7.46, 0.25, 7.2400000000000007E-12, 3.6840000000000005E-11, , , , 
DataValue, 7.57, 0.25, 6.7900000000000008E-12, 3.923E-11, , , , 
DataValue, 7.68, 0.25, 7.5800000000000012E-12, 3.787E-11, , , , 
DataValue, 7.79, 0.25, 6.66E-12, 3.5490000000000005E-11, , , , 
DataValue, 7.9, 0.25, 6.9900000000000007E-12, 3.6980000000000004E-11, , , , 
DataValue, 8.01, 0.25, 7.1900000000000007E-12, 3.8480000000000006E-11, , , , 
DataValue, 8.120000000000001, 0.25, 7.7600000000000009E-12, 3.711E-11, , , , 
DataValue, 8.23, 0.25, 7.65E-12, 3.537E-11, , , , 
DataValue, 8.34, 0.25, 7.0500000000000009E-12, 3.5670000000000005E-11, , , , 
DataValue, 8.45, 0.25, 7.5E-12, 3.934E-11, , , , 
DataValue, 8.56, 0.25, 7.9900000000000013E-12, 3.8150000000000005E-11, , , , 
DataValue, 8.67, 0.25, 7.39E-12, 3.526E-11, , , , 
DataValue, 8.78, 0.25, 7.6800000000000012E-12, 3.5410000000000004E-11, , , , 
DataValue, 8.89, 0.25, 8.03E-12, 3.863E-11, , , , 
DataValue, 9, 0.25, 8.62E-12, 3.7850000000000004E-11, , , , 
DataValue, 9.11, 0.25, 7.9900000000000013E-12, 3.576E-11, , , , 
DataValue, 9.22, 0.25, 8.35E-12, 3.554E-11, , , , 
DataValue, 9.33, 0.25, 8.0900000000000013E-12, 3.762E-11, , , , 
DataValue, 9.44, 0.25, 8.5000000000000013E-12, 3.9200000000000004E-11, , , , 
DataValue, 9.55, 0.25, 8.53E-12, 3.584E-11, , , , 
DataValue, 9.66, 0.25, 8.7100000000000015E-12, 3.477E-11, , , , 
DataValue, 9.77, 0.25, 8.51E-12, 3.726E-11, , , , 
DataValue, 9.88, 0.25, 9.3200000000000015E-12, 3.861E-11, , , , 
DataValue, 9.99, 0.25, 9.27E-12, 3.689E-11, , , , 
DataValue, 10.1, 0.25, 9.46E-12, 3.471E-11, , , , 
DataValue, 10.21, 0.25, 8.76E-12, 3.703E-11, , , , 
DataValue, 10.32, 0.25, 9.58E-12, 3.871E-11, , , , 
DataValue, 10.43, 0.25, 9.07E-12, 3.565E-11, , , , 
DataValue, 10.540000000000001, 0.25, 9.0800000000000009E-12, 3.47E-11, , , , 
DataValue, 10.65, 0.25, 9.2000000000000012E-12, 3.663E-11, , , , 
DataValue, 10.76, 0.25, 9.8000000000000011E-12, 3.8700000000000006E-11, , , , 
DataValue, 10.870000000000001, 0.25, 9.5100000000000013E-12, 3.623E-11, , , , 
DataValue, 10.98, 0.25, 9.98E-12, 3.4330000000000006E-11, , , , 
DataValue, 11.09, 0.25, 9.43E-12, 3.66E-11, , , , 
DataValue, 11.200000000000001, 0.25, 1.019E-11, 3.721E-11, , , , 
DataValue, 11.31, 0.25, 1.004E-11, 3.579E-11, , , , 
DataValue, 11.42, 0.25, 1.0310000000000001E-11, 3.4690000000000005E-11, , , , 
DataValue, 11.53, 0.25, 1.0620000000000001E-11, 3.7420000000000005E-11, , , , 
DataValue, 11.64, 0.25, 1.0900000000000001E-11, 3.77E-11, , , , 
DataValue, 11.75, 0.25, 1.006E-11, 3.387E-11, , , , 
DataValue, 11.86, 0.25, 1.056E-11, 3.47E-11, , , , 
DataValue, 11.97, 0.25, 1.0850000000000002E-11, 3.8190000000000006E-11, , , , 
DataValue, 12.08, 0.25, 1.1050000000000002E-11, 3.671E-11, , , , 
DataValue, 12.19, 0.25, 1.0510000000000001E-11, 3.481E-11, , , , 
DataValue, 12.3, 0.25, 1.089E-11, 3.4510000000000005E-11, , , , 
DataValue, 12.41, 0.25, 1.1E-11, 3.798E-11, , , , 
DataValue, 12.52, 0.25, 1.1220000000000001E-11, 3.707E-11, , , , 
DataValue, 12.63, 0.25, 1.1930000000000001E-11, 3.416E-11, , , , 
DataValue, 12.74, 0.25, 1.157E-11, 3.336E-11, , , , 
DataValue, 12.85, 0.25, 1.1310000000000001E-11, 3.5420000000000005E-11, , , , 
DataValue, 12.96, 0.25, 1.211E-11, 3.7060000000000006E-11, , , , 
DataValue, 13.07, 0.25, 1.17E-11, 3.544E-11, , , , 
DataValue, 13.18, 0.25, 1.148E-11, 3.4100000000000004E-11, , , , 
DataValue, 13.290000000000001, 0.25, 1.1440000000000001E-11, 3.486E-11, , , , 
DataValue, 13.4, 0.25, 1.2860000000000001E-11, 3.77E-11, , , , 
DataValue, 13.51, 0.25, 1.2860000000000001E-11, 3.5710000000000005E-11, , , , 
DataValue, 13.620000000000001, 0.25, 1.2860000000000001E-11, 3.3310000000000006E-11, , , , 
DataValue, 13.73, 0.25, 1.2470000000000002E-11, 3.4610000000000004E-11, , , , 
DataValue, 13.84, 0.25, 1.2630000000000001E-11, 3.7710000000000005E-11, , , , 
DataValue, 13.950000000000001, 0.25, 1.3450000000000001E-11, 3.5230000000000004E-11, , , , 
DataValue, 14.06, 0.25, 1.3290000000000002E-11, 3.3370000000000003E-11, , , , 
DataValue, 14.17, 0.25, 1.2980000000000002E-11, 3.402E-11, , , , 
DataValue, 14.280000000000001, 0.25, 1.28E-11, 3.6910000000000005E-11, , , , 
DataValue, 14.39, 0.25, 1.394E-11, 3.7060000000000006E-11, , , , 
DataValue, 14.5, 0.25, 1.3660000000000001E-11, 3.4400000000000005E-11, , , , 
DataValue, 14.61, 0.25, 1.3950000000000001E-11, 3.314E-11, , , , 
DataValue, 14.72, 0.25, 1.3340000000000001E-11, 3.58E-11, , , , 
DataValue, 14.83, 0.25, 1.4810000000000002E-11, 3.7020000000000005E-11, , , , 
DataValue, 14.94, 0.25, 1.513E-11, 3.3960000000000005E-11, , , , 
DataValue, 15.05, 0.25, 1.423E-11, 3.285E-11, , , , 
DataValue, 15.16, 0.25, 1.423E-11, 3.547E-11, , , , 
DataValue, 15.27, 0.25, 1.517E-11, 3.7170000000000006E-11, , , , 
DataValue, 15.38, 0.25, 1.4650000000000002E-11, 3.4830000000000004E-11, , , , 
DataValue, 15.49, 0.25, 1.5920000000000002E-11, 3.3090000000000005E-11, , , , 
DataValue, 15.6, 0.25, 1.4630000000000002E-11, 3.536E-11, , , , 
DataValue, 15.71, 0.25, 1.5580000000000003E-11, 3.6580000000000004E-11, , , , 
DataValue, 15.82, 0.25, 1.575E-11, 3.4910000000000005E-11, , , , 
DataValue, 15.93, 0.25, 1.6340000000000002E-11, 3.38E-11, , , , 
DataValue, 16.04, 0.25, 1.5580000000000003E-11, 3.47E-11, , , , 
DataValue, 16.15, 0.25, 1.657E-11, 3.707E-11, , , , 
DataValue, 16.26, 0.25, 1.621E-11, 3.555E-11, , , , 
DataValue, 16.37, 0.25, 1.675E-11, 3.3990000000000004E-11, , , , 
DataValue, 16.48, 0.25, 1.6650000000000002E-11, 3.597E-11, , , , 
DataValue, 16.59, 0.25, 1.735E-11, 3.86E-11, , , , 
DataValue, 16.7, 0.25, 1.755E-11, 3.6980000000000004E-11, , , , 
DataValue, 16.81, 0.25, 1.7910000000000003E-11, 3.653E-11, , , , 
DataValue, 16.92, 0.25, 1.7420000000000003E-11, 3.715E-11, , , , 
DataValue, 17.03, 0.25, 1.797E-11, 4.09E-11, , , , 
DataValue, 17.14, 0.25, 1.8760000000000002E-11, 4.271E-11, , , , 
DataValue, 17.25, 0.25, 1.914E-11, 4.0880000000000005E-11, , , , 
DataValue, 17.36, 0.25, 1.8620000000000003E-11, 4.1930000000000004E-11, , , , 
DataValue, 17.47, 0.25, 1.963E-11, 4.6630000000000005E-11, , , , 
DataValue, 17.580000000000002, 0.25, 1.992E-11, 5.0240000000000006E-11, , , , 
DataValue, 17.69, 0.25, 2.0000000000000002E-11, 5.1340000000000007E-11, , , , 
DataValue, 17.8, 0.25, 2.0020000000000002E-11, 5.3690000000000004E-11, , , , 
DataValue, 17.91, 0.25, 1.983E-11, 6.1750000000000006E-11, , , , 
DataValue, 18.02, 0.25, 2.094E-11, 6.7430000000000007E-11, , , , 
DataValue, 18.13, 0.25, 2.123E-11, 7.189000000000001E-11, , , , 
DataValue, 18.240000000000002, 0.25, 2.123E-11, 7.888E-11, , , , 
DataValue, 18.35, 0.25, 2.114E-11, 9.166000000000001E-11, , , , 
DataValue, 18.46, 0.25, 2.2170000000000003E-11, 1.0415000000000001E-10, , , , 
DataValue, 18.57, 0.25, 2.249E-11, 1.173E-10, , , , 
DataValue, 18.68, 0.25, 2.278E-11, 1.3308000000000002E-10, , , , 
DataValue, 18.79, 0.25, 2.2130000000000002E-11, 1.5667000000000001E-10, , , , 
DataValue, 18.900000000000002, 0.25, 2.329E-11, 1.8279000000000002E-10, , , , 
DataValue, 19.01, 0.25, 2.3750000000000002E-11, 2.1234000000000001E-10, , , , 
DataValue, 19.12, 0.25, 2.4520000000000003E-11, 2.4703E-10, , , , 
DataValue, 19.23, 0.25, 2.345E-11, 2.9364000000000003E-10, , , , 
DataValue, 19.34, 0.25, 2.469E-11, 3.5053000000000003E-10, , , , 
DataValue, 19.45, 0.25, 2.4920000000000003E-11, 4.1351000000000005E-10, , , , 
DataValue, 19.56, 0.25, 2.582E-11, 4.9009E-10, , , , 
DataValue, 19.67, 0.25, 2.52E-11, 5.8601E-10, , , , 
DataValue, 19.78, 0.25, 2.6880000000000002E-11, 7.0144E-10, , , , 
DataValue, 19.89, 0.25, 2.675E-11, 8.3673000000000007E-10, , , , 
DataValue, 20, 0.25, 2.724E-11, 9.9876000000000018E-10, , , , 
DataValue, 20, 0.25, 2.7340000000000003E-11, 1.0077200000000001E-09, , , , 
DataValue, 19.89, 0.25, 2.507E-11, 8.762E-10, , , , 
DataValue, 19.78, 0.25, 2.338E-11, 7.5418000000000008E-10, , , , 
DataValue, 19.67, 0.25, 2.1790000000000003E-11, 6.5216E-10, , , , 
DataValue, 19.56, 0.25, 2.136E-11, 5.6449000000000008E-10, , , , 
DataValue, 19.45, 0.25, 1.956E-11, 4.8283000000000008E-10, , , , 
