
SetupTitle, ID-VG Postbreak
PrimitiveTest, I/V Sweep
TestParameter, Context.MainFrame, B1500A
TestParameter, Channel.UnitType, SMU, SMU
TestParameter, Channel.Unit, SMU1:MP, SMU2:MP
TestParameter, Channel.IName, I1, I2
TestParameter, Channel.VName, V1, V2
TestParameter, Channel.Mode, V, V
TestParameter, Channel.Func, VAR1, CONST
TestParameter, Channel.Index, 
TestParameter, Channel.Time, 
TestParameter, Measurement.Port.Unit, SMU1:MP, SMU2:MP
TestParameter, Measurement.Port.SeriesResistor, NONE, NONE
TestParameter, Measurement.Port.Filter, ON, ON
TestParameter, Measurement.Port.OutputVoltageComparison, 0, 0
TestParameter, Measurement.Primary.Locus, Double
TestParameter, Measurement.Primary.Scale, LINEAR
TestParameter, Measurement.Primary.Start, -2
TestParameter, Measurement.Primary.Stop, 20
TestParameter, Measurement.Primary.Step, 0.11
TestParameter, Measurement.Primary.Compliance, 0.1
TestParameter, Measurement.Primary.PowerCompliance, 0
TestParameter, Measurement.Aborting.Condition, CONTINUE AT ANY
TestParameter, Measurement.PostOutput.Value, START
TestParameter, Measurement.PostOutput.Retention, OFF
TestParameter, Measurement.Bias.Source, -2, 0.25
TestParameter, Measurement.Bias.Compliance, 0.1, 0.1
TestParameter, Measurement.Monitor.Unit, SMU1:MP, SMU2:MP
TestParameter, Measurement.Monitor.Adc, HR ADC, HR ADC
TestParameter, Measurement.Monitor.Measurement, Compliance Side, Compliance Side
TestParameter, Measurement.Monitor.RangingMode, LIMITED, LIMITED
TestParameter, Measurement.Monitor.RangeBoundary, 1nA, 1nA
TestParameter, Measurement.Monitor.RangeRating, BY FULL RANGE, BY FULL RANGE
TestParameter, Measurement.Monitor.RangeRatingCoeff, 50, 50
TestParameter, Measurement.Timing.Hold, 0
TestParameter, Measurement.Timing.Delay, 0
TestParameter, Measurement.Adc.HighSpeed.Mode, AUTO
TestParameter, Measurement.Adc.HighSpeed.Coeff, 1
TestParameter, Measurement.Adc.HighResolution.AutoZero, OFF
TestParameter, Measurement.Adc.HighResolution.Mode, AUTO
TestParameter, Measurement.Adc.HighResolution.Coeff, 6
TestParameter, Measurement.WaitTime.Source.Coeff, 1
TestParameter, Measurement.WaitTime.Source.Offset, 0
TestParameter, Measurement.WaitTime.Monitor.Coeff, 1
TestParameter, Measurement.WaitTime.Monitor.Offset, 0
TestParameter, Output.Graph.Enabled, true
TestParameter, Output.Graph.AutoScaling, false
TestParameter, Output.Graph.XAxis.Data, V1
TestParameter, Output.Graph.XAxis.Scale, Linear
TestParameter, Output.Graph.XAxis.Left, -2
TestParameter, Output.Graph.XAxis.Right, 6
TestParameter, Output.Graph.XAxis.RunTimeAutoScale, true
TestParameter, Output.Graph.YAxis.Data, I2
TestParameter, Output.Graph.YAxis.Scale, Linear
TestParameter, Output.Graph.YAxis.Bottom, -0.1
TestParameter, Output.Graph.YAxis.Top, 0.1
TestParameter, Output.Graph.YAxis.Group, 
TestParameter, Output.Graph.YAxis.RunTimeAutoScale, true
TestParameter, Output.List.Data, V1, I1, V2, I2, V3, I3, V4, I4
TestParameter, AutoAnalysis.Interpolation, false
TestParameter, AutoAnalysis.Line1.Enabled, false
TestParameter, AutoAnalysis.Line1.Type, 1
TestParameter, AutoAnalysis.Line1.Fix, True
TestParameter, AutoAnalysis.Line1.YAxis, 0
TestParameter, AutoAnalysis.Line1.Point1.Type, 0
TestParameter, AutoAnalysis.Line1.Point1.XY.X, 
TestParameter, AutoAnalysis.Line1.Point1.XY.Y, 
TestParameter, AutoAnalysis.Line1.Point1.Data.Var, 
TestParameter, AutoAnalysis.Line1.Point1.Data.Condition, 
TestParameter, AutoAnalysis.Line1.Point1.Data.Start, false
TestParameter, AutoAnalysis.Line1.Point1.Data.StartVar, 
TestParameter, AutoAnalysis.Line1.Point1.Data.StartCondition, 
TestParameter, AutoAnalysis.Line1.Point2.Type, 0
TestParameter, AutoAnalysis.Line1.Point2.XY.X, 
TestParameter, AutoAnalysis.Line1.Point2.XY.Y, 
TestParameter, AutoAnalysis.Line1.Point2.Data.Var, 
TestParameter, AutoAnalysis.Line1.Point2.Data.Condition, 
TestParameter, AutoAnalysis.Line1.Point2.Data.Start, false
TestParameter, AutoAnalysis.Line1.Point2.Data.StartVar, 
TestParameter, AutoAnalysis.Line1.Point2.Data.StartCondition, 
TestParameter, AutoAnalysis.Line1.GradientExpr, 0
TestParameter, AutoAnalysis.Line2.Enabled, false
TestParameter, AutoAnalysis.Line2.Type, 1
TestParameter, AutoAnalysis.Line2.Fix, True
TestParameter, AutoAnalysis.Line2.YAxis, 0
TestParameter, AutoAnalysis.Line2.Point1.Type, 0
TestParameter, AutoAnalysis.Line2.Point1.XY.X, 
TestParameter, AutoAnalysis.Line2.Point1.XY.Y, 
TestParameter, AutoAnalysis.Line2.Point1.Data.Var, 
TestParameter, AutoAnalysis.Line2.Point1.Data.Condition, 
TestParameter, AutoAnalysis.Line2.Point1.Data.Start, false
TestParameter, AutoAnalysis.Line2.Point1.Data.StartVar, 
TestParameter, AutoAnalysis.Line2.Point1.Data.StartCondition, 
TestParameter, AutoAnalysis.Line2.Point2.Type, 0
TestParameter, AutoAnalysis.Line2.Point2.XY.X, 
TestParameter, AutoAnalysis.Line2.Point2.XY.Y, 
TestParameter, AutoAnalysis.Line2.Point2.Data.Var, 
TestParameter, AutoAnalysis.Line2.Point2.Data.Condition, 
TestParameter, AutoAnalysis.Line2.Point2.Data.Start, false
TestParameter, AutoAnalysis.Line2.Point2.Data.StartVar, 
TestParameter, AutoAnalysis.Line2.Point2.Data.StartCondition, 
TestParameter, AutoAnalysis.Line2.GradientExpr, 0
TestParameter, AutoAnalysis.Marker.Enabled, false
TestParameter, AutoAnalysis.Marker.Data.Var, 
TestParameter, AutoAnalysis.Marker.Data.Condition, 
TestParameter, AutoAnalysis.Marker.Data.Start, false
TestParameter, AutoAnalysis.Marker.Data.StartVar, 
TestParameter, AutoAnalysis.Marker.Data.StartCondition, 
MetaData, TestRecord.EntryPoint, true
MetaData, TestRecord.RecordTime, 03/10/2023 17:37:42
MetaData, TestRecord.TestTarget, 
MetaData, TestRecord.IterationIndex, 77
MetaData, TestRecord.Preservation, true
MetaData, TestRecord.Flag, 
MetaData, TestRecord.Remarks, 
MetaData, TestRecord.LinkKey, 43952131-cf15-4510-9b67-cb973de8430c
Dimension1, 402, 402, 402, 402, 402, 402, 402, 402
Dimension2, 1, 1, 1, 1, 1, 1, 1, 1
DataName, V1, V2, I1, I2, V3, I3, V4, I4
DataValue, -2, 0.25, -1.086E-11, 0.00025986, , , , 
DataValue, -1.8900000000000001, 0.25, -5.5700000000000007E-12, 0.00025986, , , , 
DataValue, -1.78, 0.25, -3.5900000000000003E-12, 0.00025986, , , , 
DataValue, -1.67, 0.25, -2.8400000000000004E-12, 0.00025986, , , , 
DataValue, -1.56, 0.25, -1.7500000000000002E-12, 0.00025986, , , , 
DataValue, -1.45, 0.25, -7.6000000000000009E-13, 0.00025986, , , , 
DataValue, -1.34, 0.25, -8E-13, 0.00025988000000000004, , , , 
DataValue, -1.23, 0.25, 6.0000000000000007E-13, 0.00025986, , , , 
DataValue, -1.12, 0.25, 8.9E-13, 0.00025984, , , , 
DataValue, -1.01, 0.25, 4.3000000000000004E-13, 0.00025988000000000004, , , , 
DataValue, -0.9, 0.25, 1.5E-12, 0.00025988000000000004, , , , 
DataValue, -0.79, 0.25, 1.91E-12, 0.00025986, , , , 
DataValue, -0.68, 0.25, 1.79E-12, 0.00025988000000000004, , , , 
DataValue, -0.57000000000000006, 0.25, 2.39E-12, 0.00025984, , , , 
DataValue, -0.46, 0.25, 2.5300000000000003E-12, 0.00025988000000000004, , , , 
DataValue, -0.35000000000000003, 0.25, 2.5800000000000003E-12, 0.00025986, , , , 
DataValue, -0.24, 0.25, 3.35E-12, 0.00025986, , , , 
DataValue, -0.13, 0.25, 3.18E-12, 0.00025986, , , , 
DataValue, -0.02, 0.25, 2.8800000000000002E-12, 0.00025988000000000004, , , , 
DataValue, 0.09, 0.25, 3.8E-12, 0.00025988000000000004, , , , 
DataValue, 0.2, 0.25, 3.9E-12, 0.00025988000000000004, , , , 
DataValue, 0.31, 0.25, 3.8800000000000004E-12, 0.00025984, , , , 
DataValue, 0.42, 0.25, 3.82E-12, 0.00025986, , , , 
DataValue, 0.53, 0.25, 4.2900000000000005E-12, 0.00025984, , , , 
DataValue, 0.64, 0.25, 5.13E-12, 0.00025986, , , , 
DataValue, 0.75, 0.25, 4.94E-12, 0.00025982, , , , 
DataValue, 0.86, 0.25, 4.68E-12, 0.00025986, , , , 
DataValue, 0.97, 0.25, 4.42E-12, 0.00025986, , , , 
DataValue, 1.08, 0.25, 5.0600000000000007E-12, 0.00025986, , , , 
DataValue, 1.19, 0.25, 5.54E-12, 0.00025986, , , , 
DataValue, 1.3, 0.25, 5.39E-12, 0.00025986, , , , 
DataValue, 1.41, 0.25, 5.69E-12, 0.00025988000000000004, , , , 
DataValue, 1.52, 0.25, 5.7700000000000007E-12, 0.00025986, , , , 
DataValue, 1.6300000000000001, 0.25, 6.1300000000000007E-12, 0.00025986, , , , 
DataValue, 1.74, 0.25, 6.09E-12, 0.00025986, , , , 
DataValue, 1.85, 0.25, 7.55E-12, 0.00025986, , , , 
DataValue, 1.96, 0.25, 7.1800000000000005E-12, 0.00025986, , , , 
DataValue, 2.07, 0.25, 6.31E-12, 0.00025982, , , , 
DataValue, 2.18, 0.25, 7.22E-12, 0.00025986, , , , 
DataValue, 2.29, 0.25, 7.6600000000000009E-12, 0.00025986, , , , 
DataValue, 2.4, 0.25, 7.52E-12, 0.00025988000000000004, , , , 
DataValue, 2.5100000000000002, 0.25, 7.32E-12, 0.00025986, , , , 
DataValue, 2.62, 0.25, 7.8600000000000008E-12, 0.00025986, , , , 
DataValue, 2.73, 0.25, 8.73E-12, 0.00025986, , , , 
DataValue, 2.84, 0.25, 8.3700000000000009E-12, 0.0002598, , , , 
DataValue, 2.95, 0.25, 8.7000000000000013E-12, 0.00025984, , , , 
DataValue, 3.06, 0.25, 9.7200000000000014E-12, 0.00025986, , , , 
DataValue, 3.17, 0.25, 9.57E-12, 0.00025986, , , , 
DataValue, 3.2800000000000002, 0.25, 9.02E-12, 0.00025986, , , , 
DataValue, 3.39, 0.25, 1.0020000000000001E-11, 0.00025986, , , , 
DataValue, 3.5, 0.25, 9.77E-12, 0.00025986, , , , 
DataValue, 3.61, 0.25, 1.0500000000000001E-11, 0.00025982, , , , 
DataValue, 3.72, 0.25, 1.087E-11, 0.00025986, , , , 
DataValue, 3.83, 0.25, 1.079E-11, 0.00025986, , , , 
DataValue, 3.94, 0.25, 1.025E-11, 0.00025986, , , , 
DataValue, 4.05, 0.25, 1.1410000000000001E-11, 0.00025984, , , , 
DataValue, 4.16, 0.25, 1.106E-11, 0.00025986, , , , 
DataValue, 4.2700000000000005, 0.25, 1.1450000000000002E-11, 0.00025986, , , , 
DataValue, 4.38, 0.25, 1.2040000000000001E-11, 0.00025988000000000004, , , , 
DataValue, 4.49, 0.25, 1.1940000000000001E-11, 0.00025988000000000004, , , , 
DataValue, 4.6000000000000005, 0.25, 1.2030000000000001E-11, 0.00025986, , , , 
DataValue, 4.71, 0.25, 1.2960000000000001E-11, 0.00025988000000000004, , , , 
DataValue, 4.82, 0.25, 1.272E-11, 0.00025986, , , , 
DataValue, 4.93, 0.25, 1.342E-11, 0.00025986, , , , 
DataValue, 5.04, 0.25, 1.3680000000000002E-11, 0.00025988000000000004, , , , 
DataValue, 5.15, 0.25, 1.342E-11, 0.00025988000000000004, , , , 
DataValue, 5.26, 0.25, 1.414E-11, 0.00025986, , , , 
DataValue, 5.37, 0.25, 1.3760000000000001E-11, 0.00025986, , , , 
DataValue, 5.48, 0.25, 1.484E-11, 0.00025986, , , , 
DataValue, 5.59, 0.25, 1.498E-11, 0.00025986, , , , 
DataValue, 5.7, 0.25, 1.4360000000000001E-11, 0.00025986, , , , 
DataValue, 5.8100000000000005, 0.25, 1.4850000000000002E-11, 0.00025986, , , , 
DataValue, 5.92, 0.25, 1.559E-11, 0.00025988000000000004, , , , 
DataValue, 6.03, 0.25, 1.573E-11, 0.00025986, , , , 
DataValue, 6.1400000000000006, 0.25, 1.601E-11, 0.00025984, , , , 
DataValue, 6.25, 0.25, 1.659E-11, 0.00025984, , , , 
DataValue, 6.36, 0.25, 1.6340000000000002E-11, 0.00025986, , , , 
DataValue, 6.47, 0.25, 1.651E-11, 0.00025982, , , , 
DataValue, 6.58, 0.25, 1.695E-11, 0.00025988000000000004, , , , 
DataValue, 6.69, 0.25, 1.695E-11, 0.00025982, , , , 
DataValue, 6.8, 0.25, 1.8360000000000002E-11, 0.00025986, , , , 
DataValue, 6.91, 0.25, 1.753E-11, 0.00025984, , , , 
DataValue, 7.0200000000000005, 0.25, 1.8200000000000002E-11, 0.00025986, , , , 
DataValue, 7.13, 0.25, 1.839E-11, 0.00025986, , , , 
DataValue, 7.24, 0.25, 1.8490000000000002E-11, 0.00025986, , , , 
DataValue, 7.3500000000000005, 0.25, 1.859E-11, 0.00025986, , , , 
DataValue, 7.46, 0.25, 1.9600000000000002E-11, 0.00025988000000000004, , , , 
DataValue, 7.57, 0.25, 1.925E-11, 0.00025988000000000004, , , , 
DataValue, 7.68, 0.25, 2.0350000000000003E-11, 0.00025986, , , , 
DataValue, 7.79, 0.25, 2.012E-11, 0.00025986, , , , 
DataValue, 7.9, 0.25, 2.0240000000000003E-11, 0.00025986, , , , 
DataValue, 8.01, 0.25, 2.107E-11, 0.00025986, , , , 
DataValue, 8.120000000000001, 0.25, 2.2080000000000003E-11, 0.00025986, , , , 
DataValue, 8.23, 0.25, 2.114E-11, 0.00025986, , , , 
DataValue, 8.34, 0.25, 2.1600000000000002E-11, 0.00025984, , , , 
DataValue, 8.45, 0.25, 2.187E-11, 0.00025986, , , , 
DataValue, 8.56, 0.25, 2.227E-11, 0.00025982, , , , 
DataValue, 8.67, 0.25, 2.2210000000000003E-11, 0.00025984, , , , 
DataValue, 8.78, 0.25, 2.256E-11, 0.00025982, , , , 
DataValue, 8.89, 0.25, 2.3680000000000002E-11, 0.00025986, , , , 
DataValue, 9, 0.25, 2.3260000000000002E-11, 0.00025986, , , , 
DataValue, 9.11, 0.25, 2.3840000000000002E-11, 0.00025982, , , , 
DataValue, 9.22, 0.25, 2.4440000000000002E-11, 0.00025986, , , , 
DataValue, 9.33, 0.25, 2.4650000000000003E-11, 0.00025984, , , , 
DataValue, 9.44, 0.25, 2.42E-11, 0.00025986, , , , 
DataValue, 9.55, 0.25, 2.5340000000000003E-11, 0.00025986, , , , 
DataValue, 9.66, 0.25, 2.4950000000000002E-11, 0.00025984, , , , 
DataValue, 9.77, 0.25, 2.4790000000000002E-11, 0.00025982, , , , 
DataValue, 9.88, 0.25, 2.6340000000000003E-11, 0.00025988000000000004, , , , 
DataValue, 9.99, 0.25, 2.6120000000000003E-11, 0.00025982, , , , 
DataValue, 10.1, 0.25, 2.6830000000000003E-11, 0.00025984, , , , 
DataValue, 10.21, 0.25, 2.7210000000000002E-11, 0.00025982, , , , 
DataValue, 10.32, 0.25, 2.6890000000000004E-11, 0.00025986, , , , 
DataValue, 10.43, 0.25, 2.782E-11, 0.00025986, , , , 
DataValue, 10.540000000000001, 0.25, 2.8540000000000002E-11, 0.00025984, , , , 
DataValue, 10.65, 0.25, 2.826E-11, 0.00025986, , , , 
DataValue, 10.76, 0.25, 2.9230000000000005E-11, 0.00025986, , , , 
DataValue, 10.870000000000001, 0.25, 2.935E-11, 0.00025986, , , , 
DataValue, 10.98, 0.25, 2.936E-11, 0.00025986, , , , 
DataValue, 11.09, 0.25, 3.037E-11, 0.00025986, , , , 
DataValue, 11.200000000000001, 0.25, 2.969E-11, 0.00025982, , , , 
DataValue, 11.31, 0.25, 3.063E-11, 0.00025982, , , , 
DataValue, 11.42, 0.25, 3.026E-11, 0.00025984, , , , 
DataValue, 11.53, 0.25, 3.095E-11, 0.00025984, , , , 
DataValue, 11.64, 0.25, 3.1380000000000006E-11, 0.00025982, , , , 
DataValue, 11.75, 0.25, 3.204E-11, 0.00025982, , , , 
DataValue, 11.86, 0.25, 3.2580000000000005E-11, 0.00025982, , , , 
DataValue, 11.97, 0.25, 3.2100000000000004E-11, 0.00025986, , , , 
DataValue, 12.08, 0.25, 3.314E-11, 0.00025978000000000004, , , , 
DataValue, 12.19, 0.25, 3.3450000000000005E-11, 0.00025986, , , , 
DataValue, 12.3, 0.25, 3.408E-11, 0.00025982, , , , 
DataValue, 12.41, 0.25, 3.511E-11, 0.00025984, , , , 
DataValue, 12.52, 0.25, 3.51E-11, 0.00025986, , , , 
DataValue, 12.63, 0.25, 3.515E-11, 0.00025984, , , , 
DataValue, 12.74, 0.25, 3.598E-11, 0.00025984, , , , 
DataValue, 12.85, 0.25, 3.5740000000000004E-11, 0.00025984, , , , 
DataValue, 12.96, 0.25, 3.699E-11, 0.00025986, , , , 
DataValue, 13.07, 0.25, 3.795E-11, 0.00025982, , , , 
DataValue, 13.18, 0.25, 3.831E-11, 0.00025984, , , , 
DataValue, 13.290000000000001, 0.25, 3.849E-11, 0.00025984, , , , 
DataValue, 13.4, 0.25, 3.8880000000000006E-11, 0.00025982, , , , 
DataValue, 13.51, 0.25, 3.963E-11, 0.00025986, , , , 
DataValue, 13.620000000000001, 0.25, 4.005E-11, 0.00025984, , , , 
DataValue, 13.73, 0.25, 4.093E-11, 0.00025982, , , , 
DataValue, 13.84, 0.25, 4.0360000000000003E-11, 0.00025984, , , , 
DataValue, 13.950000000000001, 0.25, 4.1820000000000004E-11, 0.00025984, , , , 
DataValue, 14.06, 0.25, 4.217E-11, 0.00025982, , , , 
DataValue, 14.17, 0.25, 4.2840000000000004E-11, 0.00025984, , , , 
DataValue, 14.280000000000001, 0.25, 4.378E-11, 0.00025986, , , , 
DataValue, 14.39, 0.25, 4.3930000000000004E-11, 0.00025986, , , , 
DataValue, 14.5, 0.25, 4.45E-11, 0.00025982, , , , 
DataValue, 14.61, 0.25, 4.5970000000000004E-11, 0.00025982, , , , 
DataValue, 14.72, 0.25, 4.5750000000000004E-11, 0.00025982, , , , 
DataValue, 14.83, 0.25, 4.691E-11, 0.00025982, , , , 
DataValue, 14.94, 0.25, 4.8090000000000005E-11, 0.00025984, , , , 
DataValue, 15.05, 0.25, 4.862E-11, 0.00025984, , , , 
DataValue, 15.16, 0.25, 4.9190000000000007E-11, 0.00025984, , , , 
DataValue, 15.27, 0.25, 5.0340000000000004E-11, 0.00025982, , , , 
DataValue, 15.38, 0.25, 5.0710000000000005E-11, 0.00025984, , , , 
DataValue, 15.49, 0.25, 5.157E-11, 0.00025986, , , , 
DataValue, 15.6, 0.25, 5.237E-11, 0.00025986, , , , 
DataValue, 15.71, 0.25, 5.2830000000000007E-11, 0.00025984, , , , 
DataValue, 15.82, 0.25, 5.4100000000000006E-11, 0.00025982, , , , 
DataValue, 15.93, 0.25, 5.5050000000000006E-11, 0.00025984, , , , 
DataValue, 16.04, 0.25, 5.5780000000000007E-11, 0.00025984, , , , 
DataValue, 16.15, 0.25, 5.7840000000000004E-11, 0.00025984, , , , 
DataValue, 16.26, 0.25, 5.825E-11, 0.00025982, , , , 
DataValue, 16.37, 0.25, 5.967E-11, 0.00025986, , , , 
DataValue, 16.48, 0.25, 5.984000000000001E-11, 0.00025984, , , , 
DataValue, 16.59, 0.25, 6.093E-11, 0.00025986, , , , 
DataValue, 16.7, 0.25, 6.268000000000001E-11, 0.00025984, , , , 
DataValue, 16.81, 0.25, 6.337000000000001E-11, 0.00025986, , , , 
DataValue, 16.92, 0.25, 6.482E-11, 0.00025984, , , , 
DataValue, 17.03, 0.25, 6.647E-11, 0.00025986, , , , 
DataValue, 17.14, 0.25, 6.768E-11, 0.00025984, , , , 
DataValue, 17.25, 0.25, 6.888E-11, 0.00025982, , , , 
DataValue, 17.36, 0.25, 7.102E-11, 0.00025986, , , , 
DataValue, 17.47, 0.25, 7.1810000000000008E-11, 0.00025984, , , , 
DataValue, 17.580000000000002, 0.25, 7.312E-11, 0.00025984, , , , 
DataValue, 17.69, 0.25, 7.4980000000000009E-11, 0.00025986, , , , 
DataValue, 17.8, 0.25, 7.654E-11, 0.00025986, , , , 
DataValue, 17.91, 0.25, 7.8200000000000012E-11, 0.00025984, , , , 
DataValue, 18.02, 0.25, 8.031E-11, 0.00025984, , , , 
DataValue, 18.13, 0.25, 8.154000000000001E-11, 0.00025986, , , , 
DataValue, 18.240000000000002, 0.25, 8.26E-11, 0.00025986, , , , 
DataValue, 18.35, 0.25, 8.511E-11, 0.00025986, , , , 
DataValue, 18.46, 0.25, 8.707E-11, 0.00025982, , , , 
DataValue, 18.57, 0.25, 8.928E-11, 0.00025982, , , , 
DataValue, 18.68, 0.25, 9.1240000000000013E-11, 0.00025986, , , , 
DataValue, 18.79, 0.25, 9.358E-11, 0.00025984, , , , 
DataValue, 18.900000000000002, 0.25, 9.5250000000000007E-11, 0.00025986, , , , 
DataValue, 19.01, 0.25, 9.763E-11, 0.00025988000000000004, , , , 
DataValue, 19.12, 0.25, 9.934E-11, 0.00025986, , , , 
DataValue, 19.23, 0.25, 1.0246000000000001E-10, 0.00025982, , , , 
DataValue, 19.34, 0.25, 1.0530000000000001E-10, 0.00025982, , , , 
DataValue, 19.45, 0.25, 1.0706E-10, 0.00025984, , , , 
DataValue, 19.56, 0.25, 1.091E-10, 0.00025984, , , , 
DataValue, 19.67, 0.25, 1.1192000000000001E-10, 0.00025986, , , , 
DataValue, 19.78, 0.25, 1.1431E-10, 0.00025986, , , , 
DataValue, 19.89, 0.25, 1.1834E-10, 0.00025982, , , , 
DataValue, 20, 0.25, 1.2094E-10, 0.00025986, , , , 
DataValue, 20, 0.25, 1.1958000000000002E-10, 0.00025984, , , , 
DataValue, 19.89, 0.25, 1.0793000000000001E-10, 0.00025986, , , , 
DataValue, 19.78, 0.25, 9.916000000000001E-11, 0.00025982, , , , 
DataValue, 19.67, 0.25, 9.1460000000000013E-11, 0.00025984, , , , 
DataValue, 19.56, 0.25, 8.4650000000000013E-11, 0.00025986, , , , 
DataValue, 19.45, 0.25, 7.9690000000000011E-11, 0.00025982, , , , 
DataValue, 19.34, 0.25, 7.335000000000001E-11, 0.00025982, , , , 
DataValue, 19.23, 0.25, 6.852E-11, 0.00025984, , , , 
DataValue, 19.12, 0.25, 6.422E-11, 0.00025982, , , , 
DataValue, 19.01, 0.25, 5.972E-11, 0.00025982, , , , 
DataValue, 18.900000000000002, 0.25, 5.605E-11, 0.0002598, , , , 
DataValue, 18.79, 0.25, 5.2860000000000005E-11, 0.00025982, , , , 
DataValue, 18.68, 0.25, 4.88E-11, 0.00025986, , , , 
DataValue, 18.57, 0.25, 4.6450000000000005E-11, 0.00025984, , , , 
DataValue, 18.46, 0.25, 4.3140000000000006E-11, 0.00025986, , , , 
DataValue, 18.35, 0.25, 4.0470000000000003E-11, 0.00025986, , , , 
DataValue, 18.240000000000002, 0.25, 3.7380000000000004E-11, 0.00025982, , , , 
DataValue, 18.13, 0.25, 3.566E-11, 0.00025984, , , , 
DataValue, 18.02, 0.25, 3.295E-11, 0.00025984, , , , 
DataValue, 17.91, 0.25, 3.1880000000000004E-11, 0.00025982, , , , 
