
SetupTitle, ID-VG Postbreak
PrimitiveTest, I/V Sweep
TestParameter, Context.MainFrame, B1500A
TestParameter, Channel.UnitType, SMU, SMU
TestParameter, Channel.Unit, SMU1:MP, SMU2:MP
TestParameter, Channel.IName, I1, I2
TestParameter, Channel.VName, V1, V2
TestParameter, Channel.Mode, V, V
TestParameter, Channel.Func, VAR1, CONST
TestParameter, Channel.Index, 
TestParameter, Channel.Time, 
TestParameter, Measurement.Port.Unit, SMU1:MP, SMU2:MP
TestParameter, Measurement.Port.SeriesResistor, NONE, NONE
TestParameter, Measurement.Port.Filter, ON, ON
TestParameter, Measurement.Port.OutputVoltageComparison, 0, 0
TestParameter, Measurement.Primary.Locus, Double
TestParameter, Measurement.Primary.Scale, LINEAR
TestParameter, Measurement.Primary.Start, -2
TestParameter, Measurement.Primary.Stop, 20
TestParameter, Measurement.Primary.Step, 0.11
TestParameter, Measurement.Primary.Compliance, 0.1
TestParameter, Measurement.Primary.PowerCompliance, 0
TestParameter, Measurement.Aborting.Condition, CONTINUE AT ANY
TestParameter, Measurement.PostOutput.Value, START
TestParameter, Measurement.PostOutput.Retention, OFF
TestParameter, Measurement.Bias.Source, -2, 0.25
TestParameter, Measurement.Bias.Compliance, 0.1, 0.1
TestParameter, Measurement.Monitor.Unit, SMU1:MP, SMU2:MP
TestParameter, Measurement.Monitor.Adc, HR ADC, HR ADC
TestParameter, Measurement.Monitor.Measurement, Compliance Side, Compliance Side
TestParameter, Measurement.Monitor.RangingMode, LIMITED, LIMITED
TestParameter, Measurement.Monitor.RangeBoundary, 1nA, 1nA
TestParameter, Measurement.Monitor.RangeRating, BY FULL RANGE, BY FULL RANGE
TestParameter, Measurement.Monitor.RangeRatingCoeff, 50, 50
TestParameter, Measurement.Timing.Hold, 0
TestParameter, Measurement.Timing.Delay, 0
TestParameter, Measurement.Adc.HighSpeed.Mode, AUTO
TestParameter, Measurement.Adc.HighSpeed.Coeff, 1
TestParameter, Measurement.Adc.HighResolution.AutoZero, OFF
TestParameter, Measurement.Adc.HighResolution.Mode, AUTO
TestParameter, Measurement.Adc.HighResolution.Coeff, 6
TestParameter, Measurement.WaitTime.Source.Coeff, 1
TestParameter, Measurement.WaitTime.Source.Offset, 0
TestParameter, Measurement.WaitTime.Monitor.Coeff, 1
TestParameter, Measurement.WaitTime.Monitor.Offset, 0
TestParameter, Output.Graph.Enabled, true
TestParameter, Output.Graph.AutoScaling, false
TestParameter, Output.Graph.XAxis.Data, V1
TestParameter, Output.Graph.XAxis.Scale, Linear
TestParameter, Output.Graph.XAxis.Left, -2
TestParameter, Output.Graph.XAxis.Right, 6
TestParameter, Output.Graph.XAxis.RunTimeAutoScale, true
TestParameter, Output.Graph.YAxis.Data, I2
TestParameter, Output.Graph.YAxis.Scale, Linear
TestParameter, Output.Graph.YAxis.Bottom, -0.1
TestParameter, Output.Graph.YAxis.Top, 0.1
TestParameter, Output.Graph.YAxis.Group, 
TestParameter, Output.Graph.YAxis.RunTimeAutoScale, true
TestParameter, Output.List.Data, V1, I1, V2, I2, V3, I3, V4, I4
TestParameter, AutoAnalysis.Interpolation, false
TestParameter, AutoAnalysis.Line1.Enabled, false
TestParameter, AutoAnalysis.Line1.Type, 1
TestParameter, AutoAnalysis.Line1.Fix, True
TestParameter, AutoAnalysis.Line1.YAxis, 0
TestParameter, AutoAnalysis.Line1.Point1.Type, 0
TestParameter, AutoAnalysis.Line1.Point1.XY.X, 
TestParameter, AutoAnalysis.Line1.Point1.XY.Y, 
TestParameter, AutoAnalysis.Line1.Point1.Data.Var, 
TestParameter, AutoAnalysis.Line1.Point1.Data.Condition, 
TestParameter, AutoAnalysis.Line1.Point1.Data.Start, false
TestParameter, AutoAnalysis.Line1.Point1.Data.StartVar, 
TestParameter, AutoAnalysis.Line1.Point1.Data.StartCondition, 
TestParameter, AutoAnalysis.Line1.Point2.Type, 0
TestParameter, AutoAnalysis.Line1.Point2.XY.X, 
TestParameter, AutoAnalysis.Line1.Point2.XY.Y, 
TestParameter, AutoAnalysis.Line1.Point2.Data.Var, 
TestParameter, AutoAnalysis.Line1.Point2.Data.Condition, 
TestParameter, AutoAnalysis.Line1.Point2.Data.Start, false
TestParameter, AutoAnalysis.Line1.Point2.Data.StartVar, 
TestParameter, AutoAnalysis.Line1.Point2.Data.StartCondition, 
TestParameter, AutoAnalysis.Line1.GradientExpr, 0
TestParameter, AutoAnalysis.Line2.Enabled, false
TestParameter, AutoAnalysis.Line2.Type, 1
TestParameter, AutoAnalysis.Line2.Fix, True
TestParameter, AutoAnalysis.Line2.YAxis, 0
TestParameter, AutoAnalysis.Line2.Point1.Type, 0
TestParameter, AutoAnalysis.Line2.Point1.XY.X, 
TestParameter, AutoAnalysis.Line2.Point1.XY.Y, 
TestParameter, AutoAnalysis.Line2.Point1.Data.Var, 
TestParameter, AutoAnalysis.Line2.Point1.Data.Condition, 
TestParameter, AutoAnalysis.Line2.Point1.Data.Start, false
TestParameter, AutoAnalysis.Line2.Point1.Data.StartVar, 
TestParameter, AutoAnalysis.Line2.Point1.Data.StartCondition, 
TestParameter, AutoAnalysis.Line2.Point2.Type, 0
TestParameter, AutoAnalysis.Line2.Point2.XY.X, 
TestParameter, AutoAnalysis.Line2.Point2.XY.Y, 
TestParameter, AutoAnalysis.Line2.Point2.Data.Var, 
TestParameter, AutoAnalysis.Line2.Point2.Data.Condition, 
TestParameter, AutoAnalysis.Line2.Point2.Data.Start, false
TestParameter, AutoAnalysis.Line2.Point2.Data.StartVar, 
TestParameter, AutoAnalysis.Line2.Point2.Data.StartCondition, 
TestParameter, AutoAnalysis.Line2.GradientExpr, 0
TestParameter, AutoAnalysis.Marker.Enabled, false
TestParameter, AutoAnalysis.Marker.Data.Var, 
TestParameter, AutoAnalysis.Marker.Data.Condition, 
TestParameter, AutoAnalysis.Marker.Data.Start, false
TestParameter, AutoAnalysis.Marker.Data.StartVar, 
TestParameter, AutoAnalysis.Marker.Data.StartCondition, 
MetaData, TestRecord.EntryPoint, true
MetaData, TestRecord.RecordTime, 03/10/2023 17:38:14
MetaData, TestRecord.TestTarget, 
MetaData, TestRecord.IterationIndex, 78
MetaData, TestRecord.Preservation, true
MetaData, TestRecord.Flag, 
MetaData, TestRecord.Remarks, 
MetaData, TestRecord.LinkKey, e4900107-6a97-48c8-88fe-bc1b129c5810
Dimension1, 402, 402, 402, 402, 402, 402, 402, 402
Dimension2, 1, 1, 1, 1, 1, 1, 1, 1
DataName, V1, V2, I1, I2, V3, I3, V4, I4
DataValue, -2, 0.25, -8.64E-12, 0.00035692000000000005, , , , 
DataValue, -1.8900000000000001, 0.25, -5.14E-12, 0.00035688, , , , 
DataValue, -1.78, 0.25, -3.46E-12, 0.00035686, , , , 
DataValue, -1.67, 0.25, -2.62E-12, 0.00035688, , , , 
DataValue, -1.56, 0.25, -1.3000000000000001E-12, 0.00035686, , , , 
DataValue, -1.45, 0.25, -6.8E-13, 0.00035688, , , , 
DataValue, -1.34, 0.25, -3.5E-13, 0.00035688, , , , 
DataValue, -1.23, 0.25, -2.0000000000000003E-14, 0.00035686, , , , 
DataValue, -1.12, 0.25, 2E-13, 0.00035686, , , , 
DataValue, -1.01, 0.25, 6.3E-13, 0.00035686, , , , 
DataValue, -0.9, 0.25, 1.3800000000000002E-12, 0.00035686, , , , 
DataValue, -0.79, 0.25, 1.9200000000000003E-12, 0.00035688, , , , 
DataValue, -0.68, 0.25, 2.2700000000000002E-12, 0.00035688, , , , 
DataValue, -0.57000000000000006, 0.25, 3.15E-12, 0.00035688, , , , 
DataValue, -0.46, 0.25, 1.85E-12, 0.0003569, , , , 
DataValue, -0.35000000000000003, 0.25, 2.44E-12, 0.00035686, , , , 
DataValue, -0.24, 0.25, 3.33E-12, 0.00035688, , , , 
DataValue, -0.13, 0.25, 3.5500000000000004E-12, 0.0003569, , , , 
DataValue, -0.02, 0.25, 3.0100000000000003E-12, 0.00035688, , , , 
DataValue, 0.09, 0.25, 4.01E-12, 0.0003569, , , , 
DataValue, 0.2, 0.25, 3.3E-12, 0.00035686, , , , 
DataValue, 0.31, 0.25, 4.03E-12, 0.00035688, , , , 
DataValue, 0.42, 0.25, 4.0500000000000007E-12, 0.00035684000000000003, , , , 
DataValue, 0.53, 0.25, 3.5500000000000004E-12, 0.00035688, , , , 
DataValue, 0.64, 0.25, 4.43E-12, 0.00035688, , , , 
DataValue, 0.75, 0.25, 4.58E-12, 0.00035688, , , , 
DataValue, 0.86, 0.25, 4.5900000000000004E-12, 0.00035686, , , , 
DataValue, 0.97, 0.25, 5.0500000000000005E-12, 0.00035688, , , , 
DataValue, 1.08, 0.25, 4.27E-12, 0.00035688, , , , 
DataValue, 1.19, 0.25, 5.48E-12, 0.00035686, , , , 
DataValue, 1.3, 0.25, 4.6900000000000004E-12, 0.00035686, , , , 
DataValue, 1.41, 0.25, 5.03E-12, 0.00035688, , , , 
DataValue, 1.52, 0.25, 5.6E-12, 0.00035688, , , , 
DataValue, 1.6300000000000001, 0.25, 5.7100000000000005E-12, 0.00035688, , , , 
DataValue, 1.74, 0.25, 5.3100000000000006E-12, 0.00035686, , , , 
DataValue, 1.85, 0.25, 5.38E-12, 0.00035686, , , , 
DataValue, 1.96, 0.25, 5.2700000000000008E-12, 0.00035684000000000003, , , , 
DataValue, 2.07, 0.25, 6.3900000000000008E-12, 0.00035686, , , , 
DataValue, 2.18, 0.25, 6.4700000000000005E-12, 0.00035688, , , , 
DataValue, 2.29, 0.25, 6.4700000000000005E-12, 0.00035688, , , , 
DataValue, 2.4, 0.25, 6.5200000000000005E-12, 0.00035686, , , , 
DataValue, 2.5100000000000002, 0.25, 6.9800000000000006E-12, 0.00035688, , , , 
DataValue, 2.62, 0.25, 6.4200000000000005E-12, 0.00035688, , , , 
DataValue, 2.73, 0.25, 7.1800000000000005E-12, 0.00035686, , , , 
DataValue, 2.84, 0.25, 7.39E-12, 0.00035686, , , , 
DataValue, 2.95, 0.25, 7.1000000000000008E-12, 0.00035688, , , , 
DataValue, 3.06, 0.25, 7.29E-12, 0.00035688, , , , 
DataValue, 3.17, 0.25, 7.1000000000000008E-12, 0.00035686, , , , 
DataValue, 3.2800000000000002, 0.25, 7.29E-12, 0.00035686, , , , 
DataValue, 3.39, 0.25, 7.5700000000000011E-12, 0.00035686, , , , 
DataValue, 3.5, 0.25, 8.1700000000000009E-12, 0.00035686, , , , 
DataValue, 3.61, 0.25, 8.1000000000000014E-12, 0.00035686, , , , 
DataValue, 3.72, 0.25, 7.6600000000000009E-12, 0.00035686, , , , 
DataValue, 3.83, 0.25, 8.15E-12, 0.00035686, , , , 
DataValue, 3.94, 0.25, 9.25E-12, 0.0003569, , , , 
DataValue, 4.05, 0.25, 8.31E-12, 0.00035688, , , , 
DataValue, 4.16, 0.25, 8.8100000000000014E-12, 0.0003569, , , , 
DataValue, 4.2700000000000005, 0.25, 9.43E-12, 0.00035688, , , , 
DataValue, 4.38, 0.25, 8.9900000000000011E-12, 0.0003569, , , , 
DataValue, 4.49, 0.25, 9.15E-12, 0.00035686, , , , 
DataValue, 4.6000000000000005, 0.25, 9.94E-12, 0.00035688, , , , 
DataValue, 4.71, 0.25, 9.54E-12, 0.00035686, , , , 
DataValue, 4.82, 0.25, 1.005E-11, 0.00035682000000000004, , , , 
DataValue, 4.93, 0.25, 9.390000000000001E-12, 0.00035688, , , , 
DataValue, 5.04, 0.25, 1.0000000000000001E-11, 0.00035686, , , , 
DataValue, 5.15, 0.25, 1.0720000000000001E-11, 0.00035688, , , , 
DataValue, 5.26, 0.25, 1.0500000000000001E-11, 0.00035686, , , , 
DataValue, 5.37, 0.25, 1.0830000000000001E-11, 0.00035688, , , , 
DataValue, 5.48, 0.25, 1.1120000000000001E-11, 0.00035688, , , , 
DataValue, 5.59, 0.25, 1.1130000000000001E-11, 0.00035686, , , , 
DataValue, 5.7, 0.25, 1.2140000000000001E-11, 0.00035686, , , , 
DataValue, 5.8100000000000005, 0.25, 1.199E-11, 0.00035688, , , , 
DataValue, 5.92, 0.25, 1.14E-11, 0.00035688, , , , 
DataValue, 6.03, 0.25, 1.311E-11, 0.00035688, , , , 
DataValue, 6.1400000000000006, 0.25, 1.201E-11, 0.00035686, , , , 
DataValue, 6.25, 0.25, 1.3080000000000002E-11, 0.00035686, , , , 
DataValue, 6.36, 0.25, 1.3090000000000002E-11, 0.00035686, , , , 
DataValue, 6.47, 0.25, 1.2680000000000002E-11, 0.00035688, , , , 
DataValue, 6.58, 0.25, 1.26E-11, 0.00035692000000000005, , , , 
DataValue, 6.69, 0.25, 1.333E-11, 0.00035686, , , , 
DataValue, 6.8, 0.25, 1.3390000000000002E-11, 0.00035688, , , , 
DataValue, 6.91, 0.25, 1.3890000000000002E-11, 0.00035686, , , , 
DataValue, 7.0200000000000005, 0.25, 1.4000000000000002E-11, 0.00035686, , , , 
DataValue, 7.13, 0.25, 1.3900000000000002E-11, 0.00035688, , , , 
DataValue, 7.24, 0.25, 1.4510000000000002E-11, 0.00035684000000000003, , , , 
DataValue, 7.3500000000000005, 0.25, 1.3570000000000001E-11, 0.00035688, , , , 
DataValue, 7.46, 0.25, 1.4260000000000001E-11, 0.00035686, , , , 
DataValue, 7.57, 0.25, 1.5070000000000003E-11, 0.00035688, , , , 
DataValue, 7.68, 0.25, 1.498E-11, 0.00035686, , , , 
DataValue, 7.79, 0.25, 1.515E-11, 0.00035688, , , , 
DataValue, 7.9, 0.25, 1.509E-11, 0.00035684000000000003, , , , 
DataValue, 8.01, 0.25, 1.5430000000000002E-11, 0.00035688, , , , 
DataValue, 8.120000000000001, 0.25, 1.581E-11, 0.00035684000000000003, , , , 
DataValue, 8.23, 0.25, 1.608E-11, 0.00035686, , , , 
DataValue, 8.34, 0.25, 1.599E-11, 0.00035686, , , , 
DataValue, 8.45, 0.25, 1.612E-11, 0.00035688, , , , 
DataValue, 8.56, 0.25, 1.6710000000000003E-11, 0.00035686, , , , 
DataValue, 8.67, 0.25, 1.6890000000000003E-11, 0.00035686, , , , 
DataValue, 8.78, 0.25, 1.7250000000000002E-11, 0.00035686, , , , 
DataValue, 8.89, 0.25, 1.7380000000000002E-11, 0.0003569, , , , 
DataValue, 9, 0.25, 1.732E-11, 0.00035688, , , , 
DataValue, 9.11, 0.25, 1.83E-11, 0.0003569, , , , 
DataValue, 9.22, 0.25, 1.7820000000000003E-11, 0.00035688, , , , 
DataValue, 9.33, 0.25, 1.824E-11, 0.00035686, , , , 
DataValue, 9.44, 0.25, 1.908E-11, 0.00035688, , , , 
DataValue, 9.55, 0.25, 1.8800000000000002E-11, 0.00035688, , , , 
DataValue, 9.66, 0.25, 1.8800000000000002E-11, 0.0003569, , , , 
DataValue, 9.77, 0.25, 1.8930000000000003E-11, 0.00035686, , , , 
DataValue, 9.88, 0.25, 1.903E-11, 0.00035684000000000003, , , , 
DataValue, 9.99, 0.25, 2.012E-11, 0.00035688, , , , 
DataValue, 10.1, 0.25, 1.9420000000000002E-11, 0.00035686, , , , 
DataValue, 10.21, 0.25, 1.9820000000000002E-11, 0.00035684000000000003, , , , 
DataValue, 10.32, 0.25, 2.0680000000000003E-11, 0.00035684000000000003, , , , 
DataValue, 10.43, 0.25, 2.0350000000000003E-11, 0.00035686, , , , 
DataValue, 10.540000000000001, 0.25, 2.1240000000000002E-11, 0.00035686, , , , 
DataValue, 10.65, 0.25, 2.114E-11, 0.00035684000000000003, , , , 
DataValue, 10.76, 0.25, 2.165E-11, 0.00035688, , , , 
DataValue, 10.870000000000001, 0.25, 2.1660000000000003E-11, 0.00035686, , , , 
DataValue, 10.98, 0.25, 2.185E-11, 0.00035686, , , , 
DataValue, 11.09, 0.25, 2.198E-11, 0.00035686, , , , 
DataValue, 11.200000000000001, 0.25, 2.258E-11, 0.00035688, , , , 
DataValue, 11.31, 0.25, 2.276E-11, 0.00035686, , , , 
DataValue, 11.42, 0.25, 2.2500000000000003E-11, 0.00035686, , , , 
DataValue, 11.53, 0.25, 2.318E-11, 0.00035686, , , , 
DataValue, 11.64, 0.25, 2.3330000000000002E-11, 0.0003568, , , , 
DataValue, 11.75, 0.25, 2.3150000000000002E-11, 0.00035686, , , , 
DataValue, 11.86, 0.25, 2.4350000000000002E-11, 0.00035686, , , , 
DataValue, 11.97, 0.25, 2.42E-11, 0.00035684000000000003, , , , 
DataValue, 12.08, 0.25, 2.4410000000000003E-11, 0.00035686, , , , 
DataValue, 12.19, 0.25, 2.5470000000000004E-11, 0.00035686, , , , 
DataValue, 12.3, 0.25, 2.5390000000000002E-11, 0.00035686, , , , 
DataValue, 12.41, 0.25, 2.5850000000000003E-11, 0.00035686, , , , 
DataValue, 12.52, 0.25, 2.5960000000000003E-11, 0.00035684000000000003, , , , 
DataValue, 12.63, 0.25, 2.6880000000000002E-11, 0.00035686, , , , 
DataValue, 12.74, 0.25, 2.6520000000000003E-11, 0.00035686, , , , 
DataValue, 12.85, 0.25, 2.7580000000000003E-11, 0.00035686, , , , 
DataValue, 12.96, 0.25, 2.7580000000000003E-11, 0.00035684000000000003, , , , 
DataValue, 13.07, 0.25, 2.8340000000000002E-11, 0.00035682000000000004, , , , 
DataValue, 13.18, 0.25, 2.917E-11, 0.00035686, , , , 
DataValue, 13.290000000000001, 0.25, 2.9770000000000004E-11, 0.00035686, , , , 
DataValue, 13.4, 0.25, 2.953E-11, 0.00035688, , , , 
DataValue, 13.51, 0.25, 2.98E-11, 0.00035686, , , , 
DataValue, 13.620000000000001, 0.25, 3.0210000000000005E-11, 0.00035684000000000003, , , , 
DataValue, 13.73, 0.25, 3.044E-11, 0.00035686, , , , 
DataValue, 13.84, 0.25, 3.172E-11, 0.00035684000000000003, , , , 
DataValue, 13.950000000000001, 0.25, 3.249E-11, 0.00035684000000000003, , , , 
DataValue, 14.06, 0.25, 3.313E-11, 0.00035684000000000003, , , , 
DataValue, 14.17, 0.25, 3.317E-11, 0.00035688, , , , 
DataValue, 14.280000000000001, 0.25, 3.3590000000000004E-11, 0.00035686, , , , 
DataValue, 14.39, 0.25, 3.4400000000000005E-11, 0.00035686, , , , 
DataValue, 14.5, 0.25, 3.5200000000000005E-11, 0.00035686, , , , 
DataValue, 14.61, 0.25, 3.5380000000000005E-11, 0.00035686, , , , 
DataValue, 14.72, 0.25, 3.587E-11, 0.00035686, , , , 
DataValue, 14.83, 0.25, 3.653E-11, 0.00035686, , , , 
DataValue, 14.94, 0.25, 3.8480000000000006E-11, 0.00035686, , , , 
DataValue, 15.05, 0.25, 3.806E-11, 0.00035684000000000003, , , , 
DataValue, 15.16, 0.25, 3.893E-11, 0.00035684000000000003, , , , 
DataValue, 15.27, 0.25, 4.0550000000000005E-11, 0.00035684000000000003, , , , 
DataValue, 15.38, 0.25, 4.014E-11, 0.00035684000000000003, , , , 
DataValue, 15.49, 0.25, 4.203E-11, 0.00035684000000000003, , , , 
DataValue, 15.6, 0.25, 4.243E-11, 0.00035684000000000003, , , , 
DataValue, 15.71, 0.25, 4.224E-11, 0.00035682000000000004, , , , 
DataValue, 15.82, 0.25, 4.425E-11, 0.00035682000000000004, , , , 
DataValue, 15.93, 0.25, 4.4850000000000005E-11, 0.00035686, , , , 
DataValue, 16.04, 0.25, 4.577E-11, 0.00035688, , , , 
DataValue, 16.15, 0.25, 4.662E-11, 0.00035684000000000003, , , , 
DataValue, 16.26, 0.25, 4.7500000000000004E-11, 0.00035686, , , , 
DataValue, 16.37, 0.25, 4.8780000000000005E-11, 0.00035684000000000003, , , , 
DataValue, 16.48, 0.25, 4.989E-11, 0.00035686, , , , 
DataValue, 16.59, 0.25, 5.0530000000000005E-11, 0.0003568, , , , 
DataValue, 16.7, 0.25, 5.1520000000000007E-11, 0.00035684000000000003, , , , 
DataValue, 16.81, 0.25, 5.3590000000000006E-11, 0.00035684000000000003, , , , 
DataValue, 16.92, 0.25, 5.4420000000000004E-11, 0.00035684000000000003, , , , 
DataValue, 17.03, 0.25, 5.6090000000000004E-11, 0.0003568, , , , 
DataValue, 17.14, 0.25, 5.6870000000000006E-11, 0.00035684000000000003, , , , 
DataValue, 17.25, 0.25, 5.7890000000000006E-11, 0.00035686, , , , 
DataValue, 17.36, 0.25, 5.898E-11, 0.00035686, , , , 
DataValue, 17.47, 0.25, 5.9290000000000009E-11, 0.00035684000000000003, , , , 
DataValue, 17.580000000000002, 0.25, 6.193E-11, 0.00035684000000000003, , , , 
DataValue, 17.69, 0.25, 6.311E-11, 0.00035684000000000003, , , , 
DataValue, 17.8, 0.25, 6.3870000000000008E-11, 0.00035684000000000003, , , , 
DataValue, 17.91, 0.25, 6.606E-11, 0.00035684000000000003, , , , 
DataValue, 18.02, 0.25, 6.6850000000000007E-11, 0.00035684000000000003, , , , 
DataValue, 18.13, 0.25, 6.848E-11, 0.00035684000000000003, , , , 
DataValue, 18.240000000000002, 0.25, 7.0260000000000011E-11, 0.00035686, , , , 
DataValue, 18.35, 0.25, 7.1560000000000009E-11, 0.00035684000000000003, , , , 
DataValue, 18.46, 0.25, 7.372E-11, 0.00035686, , , , 
DataValue, 18.57, 0.25, 7.5360000000000012E-11, 0.00035686, , , , 
DataValue, 18.68, 0.25, 7.688000000000001E-11, 0.00035682000000000004, , , , 
DataValue, 18.79, 0.25, 7.863E-11, 0.00035684000000000003, , , , 
DataValue, 18.900000000000002, 0.25, 8.067E-11, 0.00035686, , , , 
DataValue, 19.01, 0.25, 8.256000000000001E-11, 0.00035684000000000003, , , , 
DataValue, 19.12, 0.25, 8.453E-11, 0.00035686, , , , 
DataValue, 19.23, 0.25, 8.635E-11, 0.00035684000000000003, , , , 
DataValue, 19.34, 0.25, 8.7740000000000012E-11, 0.00035684000000000003, , , , 
DataValue, 19.45, 0.25, 8.9860000000000013E-11, 0.00035686, , , , 
DataValue, 19.56, 0.25, 9.1940000000000008E-11, 0.00035688, , , , 
DataValue, 19.67, 0.25, 9.4310000000000008E-11, 0.00035684000000000003, , , , 
DataValue, 19.78, 0.25, 9.654000000000001E-11, 0.00035686, , , , 
DataValue, 19.89, 0.25, 9.8780000000000007E-11, 0.00035684000000000003, , , , 
DataValue, 20, 0.25, 1.0093000000000001E-10, 0.00035686, , , , 
DataValue, 20, 0.25, 1.0067000000000001E-10, 0.00035686, , , , 
DataValue, 19.89, 0.25, 9.101E-11, 0.00035684000000000003, , , , 
DataValue, 19.78, 0.25, 8.427000000000001E-11, 0.00035684000000000003, , , , 
DataValue, 19.67, 0.25, 7.794E-11, 0.00035688, , , , 
DataValue, 19.56, 0.25, 7.2740000000000012E-11, 0.00035684000000000003, , , , 
DataValue, 19.45, 0.25, 6.808E-11, 0.00035684000000000003, , , , 
DataValue, 19.34, 0.25, 6.3400000000000009E-11, 0.00035684000000000003, , , , 
DataValue, 19.23, 0.25, 5.919E-11, 0.00035684000000000003, , , , 
DataValue, 19.12, 0.25, 5.5990000000000005E-11, 0.00035686, , , , 
DataValue, 19.01, 0.25, 5.167E-11, 0.00035684000000000003, , , , 
