
SetupTitle, ID-VG Postbreak
PrimitiveTest, I/V Sweep
TestParameter, Context.MainFrame, B1500A
TestParameter, Channel.UnitType, SMU, SMU
TestParameter, Channel.Unit, SMU1:MP, SMU2:MP
TestParameter, Channel.IName, I1, I2
TestParameter, Channel.VName, V1, V2
TestParameter, Channel.Mode, V, V
TestParameter, Channel.Func, VAR1, CONST
TestParameter, Channel.Index, 
TestParameter, Channel.Time, 
TestParameter, Measurement.Port.Unit, SMU1:MP, SMU2:MP
TestParameter, Measurement.Port.SeriesResistor, NONE, NONE
TestParameter, Measurement.Port.Filter, ON, ON
TestParameter, Measurement.Port.OutputVoltageComparison, 0, 0
TestParameter, Measurement.Primary.Locus, Double
TestParameter, Measurement.Primary.Scale, LINEAR
TestParameter, Measurement.Primary.Start, -2
TestParameter, Measurement.Primary.Stop, 20
TestParameter, Measurement.Primary.Step, 0.11
TestParameter, Measurement.Primary.Compliance, 0.1
TestParameter, Measurement.Primary.PowerCompliance, 0
TestParameter, Measurement.Aborting.Condition, CONTINUE AT ANY
TestParameter, Measurement.PostOutput.Value, START
TestParameter, Measurement.PostOutput.Retention, OFF
TestParameter, Measurement.Bias.Source, -2, 0.25
TestParameter, Measurement.Bias.Compliance, 0.1, 0.1
TestParameter, Measurement.Monitor.Unit, SMU1:MP, SMU2:MP
TestParameter, Measurement.Monitor.Adc, HR ADC, HR ADC
TestParameter, Measurement.Monitor.Measurement, Compliance Side, Compliance Side
TestParameter, Measurement.Monitor.RangingMode, LIMITED, LIMITED
TestParameter, Measurement.Monitor.RangeBoundary, 1nA, 1nA
TestParameter, Measurement.Monitor.RangeRating, BY FULL RANGE, BY FULL RANGE
TestParameter, Measurement.Monitor.RangeRatingCoeff, 50, 50
TestParameter, Measurement.Timing.Hold, 0
TestParameter, Measurement.Timing.Delay, 0
TestParameter, Measurement.Adc.HighSpeed.Mode, AUTO
TestParameter, Measurement.Adc.HighSpeed.Coeff, 1
TestParameter, Measurement.Adc.HighResolution.AutoZero, OFF
TestParameter, Measurement.Adc.HighResolution.Mode, AUTO
TestParameter, Measurement.Adc.HighResolution.Coeff, 6
TestParameter, Measurement.WaitTime.Source.Coeff, 1
TestParameter, Measurement.WaitTime.Source.Offset, 0
TestParameter, Measurement.WaitTime.Monitor.Coeff, 1
TestParameter, Measurement.WaitTime.Monitor.Offset, 0
TestParameter, Output.Graph.Enabled, true
TestParameter, Output.Graph.AutoScaling, false
TestParameter, Output.Graph.XAxis.Data, V1
TestParameter, Output.Graph.XAxis.Scale, Linear
TestParameter, Output.Graph.XAxis.Left, -2
TestParameter, Output.Graph.XAxis.Right, 6
TestParameter, Output.Graph.XAxis.RunTimeAutoScale, true
TestParameter, Output.Graph.YAxis.Data, I2
TestParameter, Output.Graph.YAxis.Scale, Linear
TestParameter, Output.Graph.YAxis.Bottom, -0.1
TestParameter, Output.Graph.YAxis.Top, 0.1
TestParameter, Output.Graph.YAxis.Group, 
TestParameter, Output.Graph.YAxis.RunTimeAutoScale, true
TestParameter, Output.List.Data, V1, I1, V2, I2, V3, I3, V4, I4
TestParameter, AutoAnalysis.Interpolation, false
TestParameter, AutoAnalysis.Line1.Enabled, false
TestParameter, AutoAnalysis.Line1.Type, 1
TestParameter, AutoAnalysis.Line1.Fix, True
TestParameter, AutoAnalysis.Line1.YAxis, 0
TestParameter, AutoAnalysis.Line1.Point1.Type, 0
TestParameter, AutoAnalysis.Line1.Point1.XY.X, 
TestParameter, AutoAnalysis.Line1.Point1.XY.Y, 
TestParameter, AutoAnalysis.Line1.Point1.Data.Var, 
TestParameter, AutoAnalysis.Line1.Point1.Data.Condition, 
TestParameter, AutoAnalysis.Line1.Point1.Data.Start, false
TestParameter, AutoAnalysis.Line1.Point1.Data.StartVar, 
TestParameter, AutoAnalysis.Line1.Point1.Data.StartCondition, 
TestParameter, AutoAnalysis.Line1.Point2.Type, 0
TestParameter, AutoAnalysis.Line1.Point2.XY.X, 
TestParameter, AutoAnalysis.Line1.Point2.XY.Y, 
TestParameter, AutoAnalysis.Line1.Point2.Data.Var, 
TestParameter, AutoAnalysis.Line1.Point2.Data.Condition, 
TestParameter, AutoAnalysis.Line1.Point2.Data.Start, false
TestParameter, AutoAnalysis.Line1.Point2.Data.StartVar, 
TestParameter, AutoAnalysis.Line1.Point2.Data.StartCondition, 
TestParameter, AutoAnalysis.Line1.GradientExpr, 0
TestParameter, AutoAnalysis.Line2.Enabled, false
TestParameter, AutoAnalysis.Line2.Type, 1
TestParameter, AutoAnalysis.Line2.Fix, True
TestParameter, AutoAnalysis.Line2.YAxis, 0
TestParameter, AutoAnalysis.Line2.Point1.Type, 0
TestParameter, AutoAnalysis.Line2.Point1.XY.X, 
TestParameter, AutoAnalysis.Line2.Point1.XY.Y, 
TestParameter, AutoAnalysis.Line2.Point1.Data.Var, 
TestParameter, AutoAnalysis.Line2.Point1.Data.Condition, 
TestParameter, AutoAnalysis.Line2.Point1.Data.Start, false
TestParameter, AutoAnalysis.Line2.Point1.Data.StartVar, 
TestParameter, AutoAnalysis.Line2.Point1.Data.StartCondition, 
TestParameter, AutoAnalysis.Line2.Point2.Type, 0
TestParameter, AutoAnalysis.Line2.Point2.XY.X, 
TestParameter, AutoAnalysis.Line2.Point2.XY.Y, 
TestParameter, AutoAnalysis.Line2.Point2.Data.Var, 
TestParameter, AutoAnalysis.Line2.Point2.Data.Condition, 
TestParameter, AutoAnalysis.Line2.Point2.Data.Start, false
TestParameter, AutoAnalysis.Line2.Point2.Data.StartVar, 
TestParameter, AutoAnalysis.Line2.Point2.Data.StartCondition, 
TestParameter, AutoAnalysis.Line2.GradientExpr, 0
TestParameter, AutoAnalysis.Marker.Enabled, false
TestParameter, AutoAnalysis.Marker.Data.Var, 
TestParameter, AutoAnalysis.Marker.Data.Condition, 
TestParameter, AutoAnalysis.Marker.Data.Start, false
TestParameter, AutoAnalysis.Marker.Data.StartVar, 
TestParameter, AutoAnalysis.Marker.Data.StartCondition, 
MetaData, TestRecord.EntryPoint, true
MetaData, TestRecord.RecordTime, 03/10/2023 17:40:09
MetaData, TestRecord.TestTarget, 
MetaData, TestRecord.IterationIndex, 81
MetaData, TestRecord.Preservation, true
MetaData, TestRecord.Flag, 
MetaData, TestRecord.Remarks, 
MetaData, TestRecord.LinkKey, f8f6ba46-e8c5-468c-957e-989a73352ea8
Dimension1, 402, 402, 402, 402, 402, 402, 402, 402
Dimension2, 1, 1, 1, 1, 1, 1, 1, 1
DataName, V1, V2, I1, I2, V3, I3, V4, I4
DataValue, -2, 0.25, -4.06E-12, 3.912E-11, , , , 
DataValue, -1.8900000000000001, 0.25, -2.37E-12, 3.8540000000000003E-11, , , , 
DataValue, -1.78, 0.25, -1.1100000000000001E-12, 3.9240000000000005E-11, , , , 
DataValue, -1.67, 0.25, -1.5300000000000001E-12, 3.9900000000000006E-11, , , , 
DataValue, -1.56, 0.25, -9.0000000000000008E-14, 3.8590000000000006E-11, , , , 
DataValue, -1.45, 0.25, -4.8000000000000008E-13, 3.77E-11, , , , 
DataValue, -1.34, 0.25, -2.5E-13, 3.7670000000000004E-11, , , , 
DataValue, -1.23, 0.25, -4.2000000000000003E-13, 3.962E-11, , , , 
DataValue, -1.12, 0.25, 1.9000000000000002E-13, 3.918E-11, , , , 
DataValue, -1.01, 0.25, -4.4000000000000004E-13, 3.7710000000000005E-11, , , , 
DataValue, -0.9, 0.25, 2.6E-13, 3.7790000000000006E-11, , , , 
DataValue, -0.79, 0.25, 4.5000000000000005E-13, 3.922E-11, , , , 
DataValue, -0.68, 0.25, 1.2800000000000002E-12, 3.857E-11, , , , 
DataValue, -0.57000000000000006, 0.25, 9.9E-13, 3.7350000000000005E-11, , , , 
DataValue, -0.46, 0.25, 7.8000000000000011E-13, 3.6830000000000004E-11, , , , 
DataValue, -0.35000000000000003, 0.25, 8.300000000000001E-13, 3.9020000000000005E-11, , , , 
DataValue, -0.24, 0.25, 1.36E-12, 3.9060000000000005E-11, , , , 
DataValue, -0.13, 0.25, 1.3000000000000001E-12, 3.7350000000000005E-11, , , , 
DataValue, -0.02, 0.25, 1.65E-12, 3.7680000000000006E-11, , , , 
DataValue, 0.09, 0.25, 1.3300000000000002E-12, 3.9210000000000006E-11, , , , 
DataValue, 0.2, 0.25, 1.6200000000000002E-12, 3.8650000000000004E-11, , , , 
DataValue, 0.31, 0.25, 1.78E-12, 3.7490000000000004E-11, , , , 
DataValue, 0.42, 0.25, 1.4400000000000001E-12, 3.7060000000000006E-11, , , , 
DataValue, 0.53, 0.25, 1.6700000000000002E-12, 3.918E-11, , , , 
DataValue, 0.64, 0.25, 2.1700000000000002E-12, 3.893E-11, , , , 
DataValue, 0.75, 0.25, 2.28E-12, 3.7890000000000004E-11, , , , 
DataValue, 0.86, 0.25, 1.85E-12, 3.71E-11, , , , 
DataValue, 0.97, 0.25, 2.28E-12, 3.8070000000000004E-11, , , , 
DataValue, 1.08, 0.25, 3.0900000000000004E-12, 3.9210000000000006E-11, , , , 
DataValue, 1.19, 0.25, 2.1700000000000002E-12, 3.886E-11, , , , 
DataValue, 1.3, 0.25, 1.9900000000000002E-12, 3.646E-11, , , , 
DataValue, 1.41, 0.25, 2.75E-12, 3.875E-11, , , , 
DataValue, 1.52, 0.25, 2.51E-12, 3.936E-11, , , , 
DataValue, 1.6300000000000001, 0.25, 3.2700000000000004E-12, 3.726E-11, , , , 
DataValue, 1.74, 0.25, 3.2E-12, 3.7570000000000006E-11, , , , 
DataValue, 1.85, 0.25, 2.37E-12, 3.726E-11, , , , 
DataValue, 1.96, 0.25, 2.4800000000000003E-12, 3.8730000000000005E-11, , , , 
DataValue, 2.07, 0.25, 3.07E-12, 3.8180000000000004E-11, , , , 
DataValue, 2.18, 0.25, 2.8100000000000003E-12, 3.7170000000000006E-11, , , , 
DataValue, 2.29, 0.25, 3.82E-12, 3.73E-11, , , , 
DataValue, 2.4, 0.25, 3.0300000000000002E-12, 3.77E-11, , , , 
DataValue, 2.5100000000000002, 0.25, 3.3E-12, 3.936E-11, , , , 
DataValue, 2.62, 0.25, 3.8800000000000004E-12, 3.733E-11, , , , 
DataValue, 2.73, 0.25, 3.07E-12, 3.6660000000000006E-11, , , , 
DataValue, 2.84, 0.25, 3.5000000000000004E-12, 3.798E-11, , , , 
DataValue, 2.95, 0.25, 3.2600000000000002E-12, 3.9100000000000006E-11, , , , 
DataValue, 3.06, 0.25, 3.6900000000000006E-12, 3.6840000000000005E-11, , , , 
DataValue, 3.17, 0.25, 3.6900000000000006E-12, 3.6110000000000005E-11, , , , 
DataValue, 3.2800000000000002, 0.25, 3.87E-12, 3.7670000000000004E-11, , , , 
DataValue, 3.39, 0.25, 3.58E-12, 3.937E-11, , , , 
DataValue, 3.5, 0.25, 4.42E-12, 3.7060000000000006E-11, , , , 
DataValue, 3.61, 0.25, 3.72E-12, 3.6000000000000005E-11, , , , 
DataValue, 3.72, 0.25, 4.0500000000000007E-12, 3.715E-11, , , , 
DataValue, 3.83, 0.25, 4.17E-12, 3.868E-11, , , , 
DataValue, 3.94, 0.25, 4.38E-12, 3.762E-11, , , , 
DataValue, 4.05, 0.25, 3.92E-12, 3.6940000000000004E-11, , , , 
DataValue, 4.16, 0.25, 4.3900000000000005E-12, 3.657E-11, , , , 
DataValue, 4.2700000000000005, 0.25, 4.41E-12, 3.801E-11, , , , 
DataValue, 4.38, 0.25, 5.7600000000000005E-12, 3.801E-11, , , , 
DataValue, 4.49, 0.25, 4.6000000000000006E-12, 3.577E-11, , , , 
DataValue, 4.6000000000000005, 0.25, 4.57E-12, 3.715E-11, , , , 
DataValue, 4.71, 0.25, 4.62E-12, 3.8580000000000004E-11, , , , 
DataValue, 4.82, 0.25, 5.2600000000000006E-12, 3.668E-11, , , , 
DataValue, 4.93, 0.25, 4.4400000000000005E-12, 3.584E-11, , , , 
DataValue, 5.04, 0.25, 5.08E-12, 3.616E-11, , , , 
DataValue, 5.15, 0.25, 4.79E-12, 3.751E-11, , , , 
DataValue, 5.26, 0.25, 5.89E-12, 3.754E-11, , , , 
DataValue, 5.37, 0.25, 5.1100000000000006E-12, 3.609E-11, , , , 
DataValue, 5.48, 0.25, 5.2700000000000008E-12, 3.6220000000000005E-11, , , , 
DataValue, 5.59, 0.25, 5.4500000000000004E-12, 3.813E-11, , , , 
DataValue, 5.7, 0.25, 5.5200000000000007E-12, 3.711E-11, , , , 
DataValue, 5.8100000000000005, 0.25, 5.1600000000000006E-12, 3.668E-11, , , , 
DataValue, 5.92, 0.25, 5.7E-12, 3.7170000000000006E-11, , , , 
DataValue, 6.03, 0.25, 5.8800000000000008E-12, 3.8180000000000004E-11, , , , 
DataValue, 6.1400000000000006, 0.25, 5.75E-12, 3.67E-11, , , , 
DataValue, 6.25, 0.25, 5.6600000000000005E-12, 3.612E-11, , , , 
DataValue, 6.36, 0.25, 6.2700000000000005E-12, 3.6430000000000004E-11, , , , 
DataValue, 6.47, 0.25, 6.0600000000000004E-12, 3.827E-11, , , , 
DataValue, 6.58, 0.25, 6.1300000000000007E-12, 3.736E-11, , , , 
DataValue, 6.69, 0.25, 5.79E-12, 3.5670000000000005E-11, , , , 
DataValue, 6.8, 0.25, 6.41E-12, 3.6470000000000004E-11, , , , 
DataValue, 6.91, 0.25, 5.64E-12, 3.8220000000000005E-11, , , , 
DataValue, 7.0200000000000005, 0.25, 6.7700000000000004E-12, 3.736E-11, , , , 
DataValue, 7.13, 0.25, 5.9200000000000006E-12, 3.62E-11, , , , 
DataValue, 7.24, 0.25, 6.6900000000000008E-12, 3.5630000000000004E-11, , , , 
DataValue, 7.3500000000000005, 0.25, 6.5200000000000005E-12, 3.675E-11, , , , 
DataValue, 7.46, 0.25, 7.11E-12, 3.7390000000000006E-11, , , , 
DataValue, 7.57, 0.25, 6.76E-12, 3.6320000000000004E-11, , , , 
DataValue, 7.68, 0.25, 7.02E-12, 3.5920000000000004E-11, , , , 
DataValue, 7.79, 0.25, 7.27E-12, 3.66E-11, , , , 
DataValue, 7.9, 0.25, 6.4700000000000005E-12, 3.7680000000000006E-11, , , , 
DataValue, 8.01, 0.25, 7.42E-12, 3.594E-11, , , , 
DataValue, 8.120000000000001, 0.25, 6.8300000000000006E-12, 3.4910000000000005E-11, , , , 
DataValue, 8.23, 0.25, 7.52E-12, 3.9090000000000004E-11, , , , 
DataValue, 8.34, 0.25, 7.0500000000000009E-12, 3.584E-11, , , , 
DataValue, 8.45, 0.25, 8.1000000000000014E-12, 3.5420000000000005E-11, , , , 
DataValue, 8.56, 0.25, 7.2500000000000008E-12, 3.511E-11, , , , 
DataValue, 8.67, 0.25, 7.9E-12, 3.6430000000000004E-11, , , , 
DataValue, 8.78, 0.25, 7.2300000000000005E-12, 3.591E-11, , , , 
DataValue, 8.89, 0.25, 7.1000000000000008E-12, 3.729E-11, , , , 
DataValue, 9, 0.25, 7.65E-12, 3.726E-11, , , , 
DataValue, 9.11, 0.25, 8.02E-12, 3.704E-11, , , , 
DataValue, 9.22, 0.25, 9.23E-12, 3.8620000000000005E-11, , , , 
DataValue, 9.33, 0.25, 8.02E-12, 3.536E-11, , , , 
DataValue, 9.44, 0.25, 8.63E-12, 3.5050000000000004E-11, , , , 
DataValue, 9.55, 0.25, 8.2700000000000009E-12, 3.623E-11, , , , 
DataValue, 9.66, 0.25, 8.9100000000000014E-12, 3.6030000000000004E-11, , , , 
DataValue, 9.77, 0.25, 8.11E-12, 3.343E-11, , , , 
DataValue, 9.88, 0.25, 9.14E-12, 3.5740000000000004E-11, , , , 
DataValue, 9.99, 0.25, 8.44E-12, 3.718E-11, , , , 
DataValue, 10.1, 0.25, 8.8900000000000011E-12, 3.6210000000000003E-11, , , , 
DataValue, 10.21, 0.25, 8.87E-12, 3.488E-11, , , , 
DataValue, 10.32, 0.25, 9.25E-12, 3.548E-11, , , , 
DataValue, 10.43, 0.25, 8.1000000000000014E-12, 3.747E-11, , , , 
DataValue, 10.540000000000001, 0.25, 8.84E-12, 3.6730000000000005E-11, , , , 
DataValue, 10.65, 0.25, 9.05E-12, 3.518E-11, , , , 
DataValue, 10.76, 0.25, 9.37E-12, 3.4870000000000005E-11, , , , 
DataValue, 10.870000000000001, 0.25, 9.46E-12, 3.6220000000000005E-11, , , , 
DataValue, 10.98, 0.25, 9.7300000000000016E-12, 3.6610000000000003E-11, , , , 
DataValue, 11.09, 0.25, 9.13E-12, 3.5380000000000005E-11, , , , 
DataValue, 11.200000000000001, 0.25, 9.6000000000000011E-12, 3.507E-11, , , , 
DataValue, 11.31, 0.25, 9.76E-12, 3.627E-11, , , , 
DataValue, 11.42, 0.25, 1.007E-11, 3.7090000000000005E-11, , , , 
DataValue, 11.53, 0.25, 1.0510000000000001E-11, 3.547E-11, , , , 
DataValue, 11.64, 0.25, 9.35E-12, 3.427E-11, , , , 
DataValue, 11.75, 0.25, 1.0130000000000002E-11, 3.6620000000000005E-11, , , , 
DataValue, 11.86, 0.25, 9.9900000000000009E-12, 3.7280000000000006E-11, , , , 
DataValue, 11.97, 0.25, 9.9200000000000014E-12, 3.481E-11, , , , 
DataValue, 12.08, 0.25, 1.045E-11, 3.3520000000000004E-11, , , , 
DataValue, 12.19, 0.25, 1.026E-11, 3.5700000000000003E-11, , , , 
DataValue, 12.3, 0.25, 1.055E-11, 3.6770000000000006E-11, , , , 
DataValue, 12.41, 0.25, 1.098E-11, 3.4250000000000005E-11, , , , 
DataValue, 12.52, 0.25, 1.1040000000000001E-11, 3.409E-11, , , , 
DataValue, 12.63, 0.25, 1.0730000000000001E-11, 3.6040000000000006E-11, , , , 
DataValue, 12.74, 0.25, 1.0910000000000001E-11, 3.674E-11, , , , 
DataValue, 12.85, 0.25, 1.117E-11, 3.543E-11, , , , 
DataValue, 12.96, 0.25, 1.026E-11, 3.397E-11, , , , 
DataValue, 13.07, 0.25, 1.1330000000000001E-11, 3.569E-11, , , , 
DataValue, 13.18, 0.25, 1.1730000000000001E-11, 3.565E-11, , , , 
DataValue, 13.290000000000001, 0.25, 1.1350000000000002E-11, 3.4620000000000006E-11, , , , 
DataValue, 13.4, 0.25, 1.147E-11, 3.379E-11, , , , 
DataValue, 13.51, 0.25, 1.22E-11, 3.5E-11, , , , 
DataValue, 13.620000000000001, 0.25, 1.1230000000000001E-11, 3.628E-11, , , , 
DataValue, 13.73, 0.25, 1.1950000000000001E-11, 3.4720000000000004E-11, , , , 
DataValue, 13.84, 0.25, 1.1740000000000001E-11, 3.314E-11, , , , 
DataValue, 13.950000000000001, 0.25, 1.2570000000000002E-11, 3.4980000000000005E-11, , , , 
DataValue, 14.06, 0.25, 1.228E-11, 3.599E-11, , , , 
DataValue, 14.17, 0.25, 1.2470000000000002E-11, 3.517E-11, , , , 
DataValue, 14.280000000000001, 0.25, 1.2480000000000002E-11, 3.4250000000000005E-11, , , , 
DataValue, 14.39, 0.25, 1.2940000000000001E-11, 3.54E-11, , , , 
DataValue, 14.5, 0.25, 1.2930000000000001E-11, 3.6430000000000004E-11, , , , 
DataValue, 14.61, 0.25, 1.3350000000000001E-11, 3.55E-11, , , , 
DataValue, 14.72, 0.25, 1.2440000000000001E-11, 3.555E-11, , , , 
DataValue, 14.83, 0.25, 1.3060000000000001E-11, 3.599E-11, , , , 
DataValue, 14.94, 0.25, 1.3060000000000001E-11, 3.7490000000000004E-11, , , , 
DataValue, 15.05, 0.25, 1.414E-11, 3.6650000000000004E-11, , , , 
DataValue, 15.16, 0.25, 1.404E-11, 3.5810000000000004E-11, , , , 
DataValue, 15.27, 0.25, 1.3660000000000001E-11, 3.6730000000000005E-11, , , , 
DataValue, 15.38, 0.25, 1.3440000000000001E-11, 3.8980000000000004E-11, , , , 
DataValue, 15.49, 0.25, 1.452E-11, 3.9600000000000004E-11, , , , 
DataValue, 15.6, 0.25, 1.4380000000000001E-11, 3.875E-11, , , , 
DataValue, 15.71, 0.25, 1.475E-11, 3.9560000000000003E-11, , , , 
DataValue, 15.82, 0.25, 1.4470000000000001E-11, 4.206E-11, , , , 
DataValue, 15.93, 0.25, 1.531E-11, 4.3710000000000003E-11, , , , 
DataValue, 16.04, 0.25, 1.475E-11, 4.406E-11, , , , 
DataValue, 16.15, 0.25, 1.489E-11, 4.6040000000000003E-11, , , , 
DataValue, 16.26, 0.25, 1.5760000000000002E-11, 4.974E-11, , , , 
DataValue, 16.37, 0.25, 1.67E-11, 5.266E-11, , , , 
DataValue, 16.48, 0.25, 1.548E-11, 5.55E-11, , , , 
DataValue, 16.59, 0.25, 1.6450000000000002E-11, 5.922E-11, , , , 
DataValue, 16.7, 0.25, 1.619E-11, 6.667E-11, , , , 
DataValue, 16.81, 0.25, 1.6470000000000002E-11, 7.38E-11, , , , 
DataValue, 16.92, 0.25, 1.713E-11, 7.943E-11, , , , 
DataValue, 17.03, 0.25, 1.7140000000000002E-11, 8.792E-11, , , , 
DataValue, 17.14, 0.25, 1.6560000000000002E-11, 1.0088E-10, , , , 
DataValue, 17.25, 0.25, 1.702E-11, 1.153E-10, , , , 
DataValue, 17.36, 0.25, 1.808E-11, 1.2916000000000002E-10, , , , 
DataValue, 17.47, 0.25, 1.797E-11, 1.4805000000000002E-10, , , , 
DataValue, 17.580000000000002, 0.25, 1.8400000000000002E-11, 1.7323E-10, , , , 
DataValue, 17.69, 0.25, 1.808E-11, 2.0181000000000003E-10, , , , 
DataValue, 17.8, 0.25, 1.894E-11, 2.3315E-10, , , , 
DataValue, 17.91, 0.25, 1.857E-11, 2.7179E-10, , , , 
DataValue, 18.02, 0.25, 1.89E-11, 3.2214000000000004E-10, , , , 
DataValue, 18.13, 0.25, 1.8870000000000002E-11, 3.8113E-10, , , , 
DataValue, 18.240000000000002, 0.25, 2.023E-11, 4.4795000000000004E-10, , , , 
DataValue, 18.35, 0.25, 1.9620000000000002E-11, 5.3023E-10, , , , 
DataValue, 18.46, 0.25, 2.041E-11, 6.2885000000000006E-10, , , , 
DataValue, 18.57, 0.25, 2.041E-11, 7.495E-10, , , , 
DataValue, 18.68, 0.25, 2.1550000000000002E-11, 8.9004000000000006E-10, , , , 
DataValue, 18.79, 0.25, 2.1090000000000002E-11, 1.05857E-09, , , , 
DataValue, 18.900000000000002, 0.25, 2.112E-11, 1.278E-09, , , , 
DataValue, 19.01, 0.25, 2.1200000000000002E-11, 1.5218E-09, , , , 
DataValue, 19.12, 0.25, 2.2240000000000002E-11, 1.8111E-09, , , , 
DataValue, 19.23, 0.25, 2.2660000000000002E-11, 2.1561E-09, , , , 
DataValue, 19.34, 0.25, 2.287E-11, 2.5704E-09, , , , 
DataValue, 19.45, 0.25, 2.269E-11, 3.0625E-09, , , , 
DataValue, 19.56, 0.25, 2.3230000000000003E-11, 3.6543E-09, , , , 
DataValue, 19.67, 0.25, 2.3280000000000003E-11, 4.3559E-09, , , , 
DataValue, 19.78, 0.25, 2.413E-11, 5.1857E-09, , , , 
DataValue, 19.89, 0.25, 2.418E-11, 6.1875E-09, , , , 
DataValue, 20, 0.25, 2.5430000000000003E-11, 7.3618E-09, , , , 
DataValue, 20, 0.25, 2.462E-11, 7.3879E-09, , , , 
DataValue, 19.89, 0.25, 2.2260000000000002E-11, 6.3861E-09, , , , 
DataValue, 19.78, 0.25, 2.1310000000000002E-11, 5.4952E-09, , , , 
DataValue, 19.67, 0.25, 1.994E-11, 4.7123E-09, , , , 
DataValue, 19.56, 0.25, 1.872E-11, 4.0397E-09, , , , 
DataValue, 19.45, 0.25, 1.7380000000000002E-11, 3.453E-09, , , , 
DataValue, 19.34, 0.25, 1.7340000000000002E-11, 2.9471E-09, , , , 
