
SetupTitle, R-V
ApplicationTest, R-V, Public
TestParameter, Name, Port1, Port2, V1Start, V1Stop, V1Step, V2, I1Limit, IntegTime, HoldTime, DelayTime, Port1MinRng
TestParameter, Value, SMU1:MP	MPSMU, SMU2:MP	MPSMU, 0, 1, 0.05, 0, 0.01, MEDIUM, 0, 0, 1nA
DutParameter, Name, L, W, Temp
DutParameter, Value, 1E-05, 1E-06, 25
MetaData, TestRecord.EntryPoint, true
MetaData, TestRecord.RecordTime, 03/04/2023 16:01:27
MetaData, TestRecord.TestTarget, 
MetaData, TestRecord.IterationIndex, 12
MetaData, TestRecord.Preservation, true
MetaData, TestRecord.Flag, 
MetaData, TestRecord.Remarks, 
MetaData, TestRecord.LinkKey, febff9fc-4ede-419e-982c-65774522f8c7
Dimension1, 21, 21, 21, 21
Dimension2, 1, 1, 1, 1
DataName, V1, I1, R, Rsheet
DataValue, 0, -8.2605000000000006E-10, -0, -0
DataValue, 0.05, 2.17671E-06, 22970.446223888346, 2297.0446223888343
DataValue, 0.1, 4.3513200000000007E-06, 22981.532040851969, 2298.1532040851966
DataValue, 0.15, 6.52942E-06, 22972.943998088649, 2297.2943998088649
DataValue, 0.2, 8.7033100000000009E-06, 22979.762871826926, 2297.9762871826924
DataValue, 0.25, 1.0881290000000001E-05, 22975.217092826308, 2297.5217092826306
DataValue, 0.3, 1.3056400000000001E-05, 22977.237216997026, 2297.7237216997023
DataValue, 0.35000000000000003, 1.52346E-05, 22974.019665760836, 2297.4019665760834
DataValue, 0.4, 1.74107E-05, 22974.377825130527, 2297.4377825130523
DataValue, 0.45, 1.95857E-05, 22975.946736649697, 2297.5946736649694
DataValue, 0.5, 2.1763400000000002E-05, 22974.351434059015, 2297.4351434059013
DataValue, 0.55, 2.3938800000000002E-05, 22975.253563252962, 2297.5253563252959
DataValue, 0.6, 2.61142E-05, 22976.005391702598, 2297.6005391702597
DataValue, 0.65, 2.8291500000000002E-05, 22975.09852782638, 2297.5098527826376
DataValue, 0.70000000000000007, 3.04695E-05, 22973.793465596747, 2297.3793465596746
DataValue, 0.75, 3.26442E-05, 22974.984836510008, 2297.4984836510007
DataValue, 0.8, 3.4820900000000004E-05, 22974.707718640242, 2297.4707718640238
DataValue, 0.85000000000000009, 3.69956E-05, 22975.705218999017, 2297.5705218999015
DataValue, 0.9, 3.91736E-05, 22974.65640124982, 2297.4656401249817
DataValue, 0.95000000000000007, 4.13502E-05, 22974.495891192786, 2297.4495891192782
DataValue, 1, 4.35247E-05, 22975.459911268772, 2297.5459911268772
SetupTitle, R-V
PrimitiveTest, I/V Sweep
TestParameter, Context.MainFrame, B1500A
TestParameter, Channel.UnitType, SMU, SMU
TestParameter, Channel.Unit, Port1, Port2
TestParameter, Channel.IName, I1, I2
TestParameter, Channel.VName, V1, V2
TestParameter, Channel.Mode, V, V
TestParameter, Channel.Func, VAR1, CONST
TestParameter, Channel.Index, 
TestParameter, Channel.Time, 
TestParameter, Measurement.Port.Unit, Port1, Port2
TestParameter, Measurement.Port.SeriesResistor, NONE, NONE
TestParameter, Measurement.Port.Filter, OFF, OFF
TestParameter, Measurement.Port.OutputVoltageComparison, 0, 0
TestParameter, Measurement.Primary.Locus, Single
TestParameter, Measurement.Primary.Scale, LINEAR
TestParameter, Measurement.Primary.Start, V1Start
TestParameter, Measurement.Primary.Stop, V1Stop
TestParameter, Measurement.Primary.Step, V1Step
TestParameter, Measurement.Primary.Compliance, I1Limit
TestParameter, Measurement.Primary.PowerCompliance, 0
TestParameter, Measurement.Aborting.Condition, CONTINUE AT ANY
TestParameter, Measurement.PostOutput.Value, START
TestParameter, Measurement.PostOutput.Retention, OFF
TestParameter, Measurement.Bias.Source, 0, V2
TestParameter, Measurement.Bias.Compliance, 0.01, I1Limit
TestParameter, Measurement.Monitor.Unit, SMU:=Port1, SMU:=Port2
TestParameter, Measurement.Monitor.Adc, HR ADC, HR ADC
TestParameter, Measurement.Monitor.Measurement, Compliance Side, Compliance Side
TestParameter, Measurement.Monitor.RangingMode, LIMITED, LIMITED
TestParameter, Measurement.Monitor.RangeBoundary, Port1MinRng, 1nA
TestParameter, Measurement.Monitor.RangeRating, BY FULL RANGE, BY FULL RANGE
TestParameter, Measurement.Monitor.RangeRatingCoeff, 50, 50
TestParameter, Measurement.Timing.Hold, HoldTime
TestParameter, Measurement.Timing.Delay, DelayTime
TestParameter, Measurement.Adc.HighSpeed.Mode, AUTO
TestParameter, Measurement.Adc.HighSpeed.Coeff, 1
TestParameter, Measurement.Adc.HighResolution.AutoZero, ON
TestParameter, Measurement.Adc.HighResolution.Mode, IntegMode
TestParameter, Measurement.Adc.HighResolution.Coeff, AdcFactor
TestParameter, Measurement.WaitTime.Source.Coeff, 1
TestParameter, Measurement.WaitTime.Source.Offset, 0
TestParameter, Measurement.WaitTime.Monitor.Coeff, 1
TestParameter, Measurement.WaitTime.Monitor.Offset, 0
TestParameter, Function.User.Name, R, Rsheet
TestParameter, Function.User.Unit, ohm, ohm/sheet
TestParameter, Function.User.Definition, V1/I1, R*W/L
TestParameter, Output.Graph.Enabled, true
TestParameter, Output.Graph.AutoScaling, false
TestParameter, Output.Graph.XAxis.Data, V1
TestParameter, Output.Graph.XAxis.Scale, Linear
TestParameter, Output.Graph.XAxis.Left, V1Start
TestParameter, Output.Graph.XAxis.Right, V1Stop
TestParameter, Output.Graph.XAxis.RunTimeAutoScale, false
TestParameter, Output.Graph.YAxis.Data, R, I1
TestParameter, Output.Graph.YAxis.Scale, Linear, Linear
TestParameter, Output.Graph.YAxis.Bottom, 0, 0
TestParameter, Output.Graph.YAxis.Top, V1Stop/I1Limit, I1Limit
TestParameter, Output.Graph.YAxis.Group, , 
TestParameter, Output.Graph.YAxis.RunTimeAutoScale, false, false
TestParameter, Output.List.Data, V1, I1, R, Rsheet
TestParameter, AutoAnalysis.Interpolation, false
TestParameter, AutoAnalysis.Line1.Enabled, false
TestParameter, AutoAnalysis.Line1.Type, 1
TestParameter, AutoAnalysis.Line1.Fix, False
TestParameter, AutoAnalysis.Line1.YAxis, 0
TestParameter, AutoAnalysis.Line1.Point1.Type, 0
TestParameter, AutoAnalysis.Line1.Point1.XY.X, 
TestParameter, AutoAnalysis.Line1.Point1.XY.Y, 
TestParameter, AutoAnalysis.Line1.Point1.Data.Var, 
TestParameter, AutoAnalysis.Line1.Point1.Data.Condition, 
TestParameter, AutoAnalysis.Line1.Point1.Data.Start, false
TestParameter, AutoAnalysis.Line1.Point1.Data.StartVar, 
TestParameter, AutoAnalysis.Line1.Point1.Data.StartCondition, 
TestParameter, AutoAnalysis.Line1.Point2.Type, 0
TestParameter, AutoAnalysis.Line1.Point2.XY.X, 
TestParameter, AutoAnalysis.Line1.Point2.XY.Y, 
TestParameter, AutoAnalysis.Line1.Point2.Data.Var, 
TestParameter, AutoAnalysis.Line1.Point2.Data.Condition, 
TestParameter, AutoAnalysis.Line1.Point2.Data.Start, false
TestParameter, AutoAnalysis.Line1.Point2.Data.StartVar, 
TestParameter, AutoAnalysis.Line1.Point2.Data.StartCondition, 
TestParameter, AutoAnalysis.Line1.GradientExpr, 0
TestParameter, AutoAnalysis.Line2.Enabled, false
TestParameter, AutoAnalysis.Line2.Type, 1
TestParameter, AutoAnalysis.Line2.Fix, False
TestParameter, AutoAnalysis.Line2.YAxis, 0
TestParameter, AutoAnalysis.Line2.Point1.Type, 0
TestParameter, AutoAnalysis.Line2.Point1.XY.X, 
TestParameter, AutoAnalysis.Line2.Point1.XY.Y, 
TestParameter, AutoAnalysis.Line2.Point1.Data.Var, 
TestParameter, AutoAnalysis.Line2.Point1.Data.Condition, 
TestParameter, AutoAnalysis.Line2.Point1.Data.Start, false
TestParameter, AutoAnalysis.Line2.Point1.Data.StartVar, 
TestParameter, AutoAnalysis.Line2.Point1.Data.StartCondition, 
TestParameter, AutoAnalysis.Line2.Point2.Type, 0
TestParameter, AutoAnalysis.Line2.Point2.XY.X, 
TestParameter, AutoAnalysis.Line2.Point2.XY.Y, 
TestParameter, AutoAnalysis.Line2.Point2.Data.Var, 
TestParameter, AutoAnalysis.Line2.Point2.Data.Condition, 
TestParameter, AutoAnalysis.Line2.Point2.Data.Start, false
TestParameter, AutoAnalysis.Line2.Point2.Data.StartVar, 
TestParameter, AutoAnalysis.Line2.Point2.Data.StartCondition, 
TestParameter, AutoAnalysis.Line2.GradientExpr, 0
TestParameter, AutoAnalysis.Marker.Enabled, false
TestParameter, AutoAnalysis.Marker.Data.Var, 
TestParameter, AutoAnalysis.Marker.Data.Condition, 
TestParameter, AutoAnalysis.Marker.Data.Start, false
TestParameter, AutoAnalysis.Marker.Data.StartVar, 
TestParameter, AutoAnalysis.Marker.Data.StartCondition, 
MetaData, TestRecord.EntryPoint, false
MetaData, TestRecord.RecordTime, 03/04/2023 16:01:27
MetaData, TestRecord.TestTarget, 
MetaData, TestRecord.IterationIndex, 12
MetaData, TestRecord.Preservation, true
MetaData, TestRecord.Flag, 
MetaData, TestRecord.Remarks, 
MetaData, TestRecord.LinkKey, febff9fc-4ede-419e-982c-65774522f8c7
Dimension1, 21, 21, 21, 21
Dimension2, 1, 1, 1, 1
DataName, V1, I1, R, Rsheet
DataValue, 0, -8.2605000000000006E-10, -0, -0
DataValue, 0.05, 2.17671E-06, 22970.446223888346, 2297.0446223888343
DataValue, 0.1, 4.3513200000000007E-06, 22981.532040851969, 2298.1532040851966
DataValue, 0.15, 6.52942E-06, 22972.943998088649, 2297.2943998088649
DataValue, 0.2, 8.7033100000000009E-06, 22979.762871826926, 2297.9762871826924
DataValue, 0.25, 1.0881290000000001E-05, 22975.217092826308, 2297.5217092826306
DataValue, 0.3, 1.3056400000000001E-05, 22977.237216997026, 2297.7237216997023
DataValue, 0.35000000000000003, 1.52346E-05, 22974.019665760836, 2297.4019665760834
DataValue, 0.4, 1.74107E-05, 22974.377825130527, 2297.4377825130523
DataValue, 0.45, 1.95857E-05, 22975.946736649697, 2297.5946736649694
DataValue, 0.5, 2.1763400000000002E-05, 22974.351434059015, 2297.4351434059013
DataValue, 0.55, 2.3938800000000002E-05, 22975.253563252962, 2297.5253563252959
DataValue, 0.6, 2.61142E-05, 22976.005391702598, 2297.6005391702597
DataValue, 0.65, 2.8291500000000002E-05, 22975.09852782638, 2297.5098527826376
DataValue, 0.70000000000000007, 3.04695E-05, 22973.793465596747, 2297.3793465596746
DataValue, 0.75, 3.26442E-05, 22974.984836510008, 2297.4984836510007
DataValue, 0.8, 3.4820900000000004E-05, 22974.707718640242, 2297.4707718640238
DataValue, 0.85000000000000009, 3.69956E-05, 22975.705218999017, 2297.5705218999015
DataValue, 0.9, 3.91736E-05, 22974.65640124982, 2297.4656401249817
DataValue, 0.95000000000000007, 4.13502E-05, 22974.495891192786, 2297.4495891192782
DataValue, 1, 4.35247E-05, 22975.459911268772, 2297.5459911268772