
SetupTitle, R-V
ApplicationTest, R-V, Public
TestParameter, Name, Port1, Port2, V1Start, V1Stop, V1Step, V2, I1Limit, IntegTime, HoldTime, DelayTime, Port1MinRng
TestParameter, Value, SMU1:MP	MPSMU, SMU2:MP	MPSMU, 0, 1, 0.05, 0, 0.01, MEDIUM, 0, 0, 1nA
DutParameter, Name, L, W, Temp
DutParameter, Value, 1E-05, 1E-06, 25
MetaData, TestRecord.EntryPoint, true
MetaData, TestRecord.RecordTime, 03/04/2023 18:30:43
MetaData, TestRecord.TestTarget, 
MetaData, TestRecord.IterationIndex, 232
MetaData, TestRecord.Preservation, true
MetaData, TestRecord.Flag, 
MetaData, TestRecord.Remarks, 
MetaData, TestRecord.LinkKey, 96d90029-4f3b-4e98-88fb-ab66907c03e3
Dimension1, 21, 21, 21, 21
Dimension2, 1, 1, 1, 1
DataName, V1, I1, R, Rsheet
DataValue, 0, 2.4000000000000004E-13, 0, 0
DataValue, 0.05, 6.57E-13, 76103500761.035, 7610350076.1034994
DataValue, 0.1, 8.3500000000000008E-13, 119760479041.91617, 11976047904.191614
DataValue, 0.15, 8.7500000000000011E-13, 171428571428.57141, 17142857142.857138
DataValue, 0.2, 9.55E-13, 209424083769.63351, 20942408376.963348
DataValue, 0.25, 9.34E-13, 267665952890.79227, 26766595289.079227
DataValue, 0.3, 1.0270000000000002E-12, 292112950340.7984, 29211295034.079838
DataValue, 0.35000000000000003, 1.14E-12, 307017543859.64917, 30701754385.964912
DataValue, 0.4, 1.18E-12, 338983050847.45764, 33898305084.745758
DataValue, 0.45, 1.2290000000000001E-12, 366151342554.92267, 36615134255.492256
DataValue, 0.5, 1.1460000000000002E-12, 436300174520.06976, 43630017452.006973
DataValue, 0.55, 1.345E-12, 408921933085.50189, 40892193308.550186
DataValue, 0.6, 1.377E-12, 435729847494.55334, 43572984749.45533
DataValue, 0.65, 1.387E-12, 468637346791.6366, 46863734679.163651
DataValue, 0.70000000000000007, 1.4690000000000001E-12, 476514635806.6712, 47651463580.667114
DataValue, 0.75, 1.517E-12, 494396835860.25049, 49439683586.02504
DataValue, 0.8, 1.5470000000000002E-12, 517129928894.63477, 51712992889.46347
DataValue, 0.85000000000000009, 1.5550000000000001E-12, 546623794212.21863, 54662379421.221855
DataValue, 0.9, 1.6090000000000001E-12, 559353635798.63269, 55935363579.863258
DataValue, 0.95000000000000007, 1.652E-12, 575060532687.65137, 57506053268.765129
DataValue, 1, 1.732E-12, 577367205542.7251, 57736720554.2725
SetupTitle, R-V
PrimitiveTest, I/V Sweep
TestParameter, Context.MainFrame, B1500A
TestParameter, Channel.UnitType, SMU, SMU
TestParameter, Channel.Unit, Port1, Port2
TestParameter, Channel.IName, I1, I2
TestParameter, Channel.VName, V1, V2
TestParameter, Channel.Mode, V, V
TestParameter, Channel.Func, VAR1, CONST
TestParameter, Channel.Index, 
TestParameter, Channel.Time, 
TestParameter, Measurement.Port.Unit, Port1, Port2
TestParameter, Measurement.Port.SeriesResistor, NONE, NONE
TestParameter, Measurement.Port.Filter, OFF, OFF
TestParameter, Measurement.Port.OutputVoltageComparison, 0, 0
TestParameter, Measurement.Primary.Locus, Single
TestParameter, Measurement.Primary.Scale, LINEAR
TestParameter, Measurement.Primary.Start, V1Start
TestParameter, Measurement.Primary.Stop, V1Stop
TestParameter, Measurement.Primary.Step, V1Step
TestParameter, Measurement.Primary.Compliance, I1Limit
TestParameter, Measurement.Primary.PowerCompliance, 0
TestParameter, Measurement.Aborting.Condition, CONTINUE AT ANY
TestParameter, Measurement.PostOutput.Value, START
TestParameter, Measurement.PostOutput.Retention, OFF
TestParameter, Measurement.Bias.Source, 0, V2
TestParameter, Measurement.Bias.Compliance, 0.01, I1Limit
TestParameter, Measurement.Monitor.Unit, SMU:=Port1, SMU:=Port2
TestParameter, Measurement.Monitor.Adc, HR ADC, HR ADC
TestParameter, Measurement.Monitor.Measurement, Compliance Side, Compliance Side
TestParameter, Measurement.Monitor.RangingMode, LIMITED, LIMITED
TestParameter, Measurement.Monitor.RangeBoundary, Port1MinRng, 1nA
TestParameter, Measurement.Monitor.RangeRating, BY FULL RANGE, BY FULL RANGE
TestParameter, Measurement.Monitor.RangeRatingCoeff, 50, 50
TestParameter, Measurement.Timing.Hold, HoldTime
TestParameter, Measurement.Timing.Delay, DelayTime
TestParameter, Measurement.Adc.HighSpeed.Mode, AUTO
TestParameter, Measurement.Adc.HighSpeed.Coeff, 1
TestParameter, Measurement.Adc.HighResolution.AutoZero, ON
TestParameter, Measurement.Adc.HighResolution.Mode, IntegMode
TestParameter, Measurement.Adc.HighResolution.Coeff, AdcFactor
TestParameter, Measurement.WaitTime.Source.Coeff, 1
TestParameter, Measurement.WaitTime.Source.Offset, 0
TestParameter, Measurement.WaitTime.Monitor.Coeff, 1
TestParameter, Measurement.WaitTime.Monitor.Offset, 0
TestParameter, Function.User.Name, R, Rsheet
TestParameter, Function.User.Unit, ohm, ohm/sheet
TestParameter, Function.User.Definition, V1/I1, R*W/L
TestParameter, Output.Graph.Enabled, true
TestParameter, Output.Graph.AutoScaling, false
TestParameter, Output.Graph.XAxis.Data, V1
TestParameter, Output.Graph.XAxis.Scale, Linear
TestParameter, Output.Graph.XAxis.Left, V1Start
TestParameter, Output.Graph.XAxis.Right, V1Stop
TestParameter, Output.Graph.XAxis.RunTimeAutoScale, false
TestParameter, Output.Graph.YAxis.Data, R, I1
TestParameter, Output.Graph.YAxis.Scale, Linear, Linear
TestParameter, Output.Graph.YAxis.Bottom, 0, 0
TestParameter, Output.Graph.YAxis.Top, V1Stop/I1Limit, I1Limit
TestParameter, Output.Graph.YAxis.Group, , 
TestParameter, Output.Graph.YAxis.RunTimeAutoScale, false, false
TestParameter, Output.List.Data, V1, I1, R, Rsheet
TestParameter, AutoAnalysis.Interpolation, false
TestParameter, AutoAnalysis.Line1.Enabled, false
TestParameter, AutoAnalysis.Line1.Type, 1
TestParameter, AutoAnalysis.Line1.Fix, False
TestParameter, AutoAnalysis.Line1.YAxis, 0
TestParameter, AutoAnalysis.Line1.Point1.Type, 0
TestParameter, AutoAnalysis.Line1.Point1.XY.X, 
TestParameter, AutoAnalysis.Line1.Point1.XY.Y, 
TestParameter, AutoAnalysis.Line1.Point1.Data.Var, 
TestParameter, AutoAnalysis.Line1.Point1.Data.Condition, 
TestParameter, AutoAnalysis.Line1.Point1.Data.Start, false
TestParameter, AutoAnalysis.Line1.Point1.Data.StartVar, 
TestParameter, AutoAnalysis.Line1.Point1.Data.StartCondition, 
TestParameter, AutoAnalysis.Line1.Point2.Type, 0
TestParameter, AutoAnalysis.Line1.Point2.XY.X, 
TestParameter, AutoAnalysis.Line1.Point2.XY.Y, 
TestParameter, AutoAnalysis.Line1.Point2.Data.Var, 
TestParameter, AutoAnalysis.Line1.Point2.Data.Condition, 
TestParameter, AutoAnalysis.Line1.Point2.Data.Start, false
TestParameter, AutoAnalysis.Line1.Point2.Data.StartVar, 
TestParameter, AutoAnalysis.Line1.Point2.Data.StartCondition, 
TestParameter, AutoAnalysis.Line1.GradientExpr, 0
TestParameter, AutoAnalysis.Line2.Enabled, false
TestParameter, AutoAnalysis.Line2.Type, 1
TestParameter, AutoAnalysis.Line2.Fix, False
TestParameter, AutoAnalysis.Line2.YAxis, 0
TestParameter, AutoAnalysis.Line2.Point1.Type, 0
TestParameter, AutoAnalysis.Line2.Point1.XY.X, 
TestParameter, AutoAnalysis.Line2.Point1.XY.Y, 
TestParameter, AutoAnalysis.Line2.Point1.Data.Var, 
TestParameter, AutoAnalysis.Line2.Point1.Data.Condition, 
TestParameter, AutoAnalysis.Line2.Point1.Data.Start, false
TestParameter, AutoAnalysis.Line2.Point1.Data.StartVar, 
TestParameter, AutoAnalysis.Line2.Point1.Data.StartCondition, 
TestParameter, AutoAnalysis.Line2.Point2.Type, 0
TestParameter, AutoAnalysis.Line2.Point2.XY.X, 
TestParameter, AutoAnalysis.Line2.Point2.XY.Y, 
TestParameter, AutoAnalysis.Line2.Point2.Data.Var, 
TestParameter, AutoAnalysis.Line2.Point2.Data.Condition, 
TestParameter, AutoAnalysis.Line2.Point2.Data.Start, false
TestParameter, AutoAnalysis.Line2.Point2.Data.StartVar, 
TestParameter, AutoAnalysis.Line2.Point2.Data.StartCondition, 
TestParameter, AutoAnalysis.Line2.GradientExpr, 0
TestParameter, AutoAnalysis.Marker.Enabled, false
TestParameter, AutoAnalysis.Marker.Data.Var, 
TestParameter, AutoAnalysis.Marker.Data.Condition, 
TestParameter, AutoAnalysis.Marker.Data.Start, false
TestParameter, AutoAnalysis.Marker.Data.StartVar, 
TestParameter, AutoAnalysis.Marker.Data.StartCondition, 
MetaData, TestRecord.EntryPoint, false
MetaData, TestRecord.RecordTime, 03/04/2023 18:30:43
MetaData, TestRecord.TestTarget, 
MetaData, TestRecord.IterationIndex, 232
MetaData, TestRecord.Preservation, true
MetaData, TestRecord.Flag, 
MetaData, TestRecord.Remarks, 
MetaData, TestRecord.LinkKey, 96d90029-4f3b-4e98-88fb-ab66907c03e3
Dimension1, 21, 21, 21, 21
Dimension2, 1, 1, 1, 1
DataName, V1, I1, R, Rsheet
DataValue, 0, 2.4000000000000004E-13, 0, 0
DataValue, 0.05, 6.57E-13, 76103500761.035, 7610350076.1034994
DataValue, 0.1, 8.3500000000000008E-13, 119760479041.91617, 11976047904.191614
DataValue, 0.15, 8.7500000000000011E-13, 171428571428.57141, 17142857142.857138
DataValue, 0.2, 9.55E-13, 209424083769.63351, 20942408376.963348
DataValue, 0.25, 9.34E-13, 267665952890.79227, 26766595289.079227
DataValue, 0.3, 1.0270000000000002E-12, 292112950340.7984, 29211295034.079838
DataValue, 0.35000000000000003, 1.14E-12, 307017543859.64917, 30701754385.964912
DataValue, 0.4, 1.18E-12, 338983050847.45764, 33898305084.745758
DataValue, 0.45, 1.2290000000000001E-12, 366151342554.92267, 36615134255.492256
DataValue, 0.5, 1.1460000000000002E-12, 436300174520.06976, 43630017452.006973
DataValue, 0.55, 1.345E-12, 408921933085.50189, 40892193308.550186
DataValue, 0.6, 1.377E-12, 435729847494.55334, 43572984749.45533
DataValue, 0.65, 1.387E-12, 468637346791.6366, 46863734679.163651
DataValue, 0.70000000000000007, 1.4690000000000001E-12, 476514635806.6712, 47651463580.667114
DataValue, 0.75, 1.517E-12, 494396835860.25049, 49439683586.02504
DataValue, 0.8, 1.5470000000000002E-12, 517129928894.63477, 51712992889.46347
DataValue, 0.85000000000000009, 1.5550000000000001E-12, 546623794212.21863, 54662379421.221855
DataValue, 0.9, 1.6090000000000001E-12, 559353635798.63269, 55935363579.863258
DataValue, 0.95000000000000007, 1.652E-12, 575060532687.65137, 57506053268.765129
DataValue, 1, 1.732E-12, 577367205542.7251, 57736720554.2725