
SetupTitle, R-V
ApplicationTest, R-V, Public
TestParameter, Name, Port1, Port2, V1Start, V1Stop, V1Step, V2, I1Limit, IntegTime, HoldTime, DelayTime, Port1MinRng
TestParameter, Value, SMU1:MP	MPSMU, SMU2:MP	MPSMU, 0, 1, 0.05, 0, 0.01, MEDIUM, 0, 0, 1nA
DutParameter, Name, L, W, Temp
DutParameter, Value, 1E-05, 1E-06, 25
MetaData, TestRecord.EntryPoint, true
MetaData, TestRecord.RecordTime, 03/04/2023 14:38:32
MetaData, TestRecord.TestTarget, 
MetaData, TestRecord.IterationIndex, 24
MetaData, TestRecord.Preservation, true
MetaData, TestRecord.Flag, 
MetaData, TestRecord.Remarks, 
MetaData, TestRecord.LinkKey, de22c2ed-cd30-477f-8ceb-98f4f9b9ec26
Dimension1, 21, 21, 21, 21
Dimension2, 1, 1, 1, 1
DataName, V1, I1, R, Rsheet
DataValue, 0, -1.0427100000000001E-10, -0, -0
DataValue, 0.05, 1.51875E-07, 329218.10699588479, 32921.810699588474
DataValue, 0.1, 3.03595E-07, 329386.18883710209, 32938.6188837102
DataValue, 0.15, 4.5554599999999997E-07, 329275.19943101244, 32927.519943101237
DataValue, 0.2, 6.07171E-07, 329396.4962094698, 32939.64962094697
DataValue, 0.25, 7.5904E-07, 329363.40640809445, 32936.340640809438
DataValue, 0.3, 9.10649E-07, 329435.38070101652, 32943.538070101647
DataValue, 0.35000000000000003, 1.062475E-06, 329419.51575331192, 32941.951575331186
DataValue, 0.4, 1.2135800000000002E-06, 329603.32240148977, 32960.332240148971
DataValue, 0.45, 1.3650100000000001E-06, 329667.9145207727, 32966.791452077268
DataValue, 0.5, 1.51661E-06, 329682.64748353232, 32968.264748353227
DataValue, 0.55, 1.6681800000000003E-06, 329700.63182630169, 32970.063182630161
DataValue, 0.6, 1.8195200000000002E-06, 329757.29862820957, 32975.729862820954
DataValue, 0.65, 1.9710000000000003E-06, 329781.83663115167, 32978.183663115167
DataValue, 0.70000000000000007, 2.1226000000000002E-06, 329784.22689154808, 32978.4226891548
DataValue, 0.75, 2.27389E-06, 329831.25832823926, 32983.12583282392
DataValue, 0.8, 2.42525E-06, 329862.9007318833, 32986.290073188327
DataValue, 0.85000000000000009, 2.5764600000000004E-06, 329910.03159373713, 32991.003159373708
DataValue, 0.9, 2.7279500000000003E-06, 329918.07034586411, 32991.8070345864
DataValue, 0.95000000000000007, 2.8791600000000005E-06, 329957.34867114015, 32995.734867114013
DataValue, 1, 3.03032E-06, 329998.15201034874, 32999.815201034871
SetupTitle, R-V
PrimitiveTest, I/V Sweep
TestParameter, Context.MainFrame, B1500A
TestParameter, Channel.UnitType, SMU, SMU
TestParameter, Channel.Unit, Port1, Port2
TestParameter, Channel.IName, I1, I2
TestParameter, Channel.VName, V1, V2
TestParameter, Channel.Mode, V, V
TestParameter, Channel.Func, VAR1, CONST
TestParameter, Channel.Index, 
TestParameter, Channel.Time, 
TestParameter, Measurement.Port.Unit, Port1, Port2
TestParameter, Measurement.Port.SeriesResistor, NONE, NONE
TestParameter, Measurement.Port.Filter, OFF, OFF
TestParameter, Measurement.Port.OutputVoltageComparison, 0, 0
TestParameter, Measurement.Primary.Locus, Single
TestParameter, Measurement.Primary.Scale, LINEAR
TestParameter, Measurement.Primary.Start, V1Start
TestParameter, Measurement.Primary.Stop, V1Stop
TestParameter, Measurement.Primary.Step, V1Step
TestParameter, Measurement.Primary.Compliance, I1Limit
TestParameter, Measurement.Primary.PowerCompliance, 0
TestParameter, Measurement.Aborting.Condition, CONTINUE AT ANY
TestParameter, Measurement.PostOutput.Value, START
TestParameter, Measurement.PostOutput.Retention, OFF
TestParameter, Measurement.Bias.Source, 0, V2
TestParameter, Measurement.Bias.Compliance, 0.01, I1Limit
TestParameter, Measurement.Monitor.Unit, SMU:=Port1, SMU:=Port2
TestParameter, Measurement.Monitor.Adc, HR ADC, HR ADC
TestParameter, Measurement.Monitor.Measurement, Compliance Side, Compliance Side
TestParameter, Measurement.Monitor.RangingMode, LIMITED, LIMITED
TestParameter, Measurement.Monitor.RangeBoundary, Port1MinRng, 1nA
TestParameter, Measurement.Monitor.RangeRating, BY FULL RANGE, BY FULL RANGE
TestParameter, Measurement.Monitor.RangeRatingCoeff, 50, 50
TestParameter, Measurement.Timing.Hold, HoldTime
TestParameter, Measurement.Timing.Delay, DelayTime
TestParameter, Measurement.Adc.HighSpeed.Mode, AUTO
TestParameter, Measurement.Adc.HighSpeed.Coeff, 1
TestParameter, Measurement.Adc.HighResolution.AutoZero, ON
TestParameter, Measurement.Adc.HighResolution.Mode, IntegMode
TestParameter, Measurement.Adc.HighResolution.Coeff, AdcFactor
TestParameter, Measurement.WaitTime.Source.Coeff, 1
TestParameter, Measurement.WaitTime.Source.Offset, 0
TestParameter, Measurement.WaitTime.Monitor.Coeff, 1
TestParameter, Measurement.WaitTime.Monitor.Offset, 0
TestParameter, Function.User.Name, R, Rsheet
TestParameter, Function.User.Unit, ohm, ohm/sheet
TestParameter, Function.User.Definition, V1/I1, R*W/L
TestParameter, Output.Graph.Enabled, true
TestParameter, Output.Graph.AutoScaling, false
TestParameter, Output.Graph.XAxis.Data, V1
TestParameter, Output.Graph.XAxis.Scale, Linear
TestParameter, Output.Graph.XAxis.Left, V1Start
TestParameter, Output.Graph.XAxis.Right, V1Stop
TestParameter, Output.Graph.XAxis.RunTimeAutoScale, false
TestParameter, Output.Graph.YAxis.Data, R, I1
TestParameter, Output.Graph.YAxis.Scale, Linear, Linear
TestParameter, Output.Graph.YAxis.Bottom, 0, 0
TestParameter, Output.Graph.YAxis.Top, V1Stop/I1Limit, I1Limit
TestParameter, Output.Graph.YAxis.Group, , 
TestParameter, Output.Graph.YAxis.RunTimeAutoScale, false, false
TestParameter, Output.List.Data, V1, I1, R, Rsheet
TestParameter, AutoAnalysis.Interpolation, false
TestParameter, AutoAnalysis.Line1.Enabled, false
TestParameter, AutoAnalysis.Line1.Type, 1
TestParameter, AutoAnalysis.Line1.Fix, False
TestParameter, AutoAnalysis.Line1.YAxis, 0
TestParameter, AutoAnalysis.Line1.Point1.Type, 0
TestParameter, AutoAnalysis.Line1.Point1.XY.X, 
TestParameter, AutoAnalysis.Line1.Point1.XY.Y, 
TestParameter, AutoAnalysis.Line1.Point1.Data.Var, 
TestParameter, AutoAnalysis.Line1.Point1.Data.Condition, 
TestParameter, AutoAnalysis.Line1.Point1.Data.Start, false
TestParameter, AutoAnalysis.Line1.Point1.Data.StartVar, 
TestParameter, AutoAnalysis.Line1.Point1.Data.StartCondition, 
TestParameter, AutoAnalysis.Line1.Point2.Type, 0
TestParameter, AutoAnalysis.Line1.Point2.XY.X, 
TestParameter, AutoAnalysis.Line1.Point2.XY.Y, 
TestParameter, AutoAnalysis.Line1.Point2.Data.Var, 
TestParameter, AutoAnalysis.Line1.Point2.Data.Condition, 
TestParameter, AutoAnalysis.Line1.Point2.Data.Start, false
TestParameter, AutoAnalysis.Line1.Point2.Data.StartVar, 
TestParameter, AutoAnalysis.Line1.Point2.Data.StartCondition, 
TestParameter, AutoAnalysis.Line1.GradientExpr, 0
TestParameter, AutoAnalysis.Line2.Enabled, false
TestParameter, AutoAnalysis.Line2.Type, 1
TestParameter, AutoAnalysis.Line2.Fix, False
TestParameter, AutoAnalysis.Line2.YAxis, 0
TestParameter, AutoAnalysis.Line2.Point1.Type, 0
TestParameter, AutoAnalysis.Line2.Point1.XY.X, 
TestParameter, AutoAnalysis.Line2.Point1.XY.Y, 
TestParameter, AutoAnalysis.Line2.Point1.Data.Var, 
TestParameter, AutoAnalysis.Line2.Point1.Data.Condition, 
TestParameter, AutoAnalysis.Line2.Point1.Data.Start, false
TestParameter, AutoAnalysis.Line2.Point1.Data.StartVar, 
TestParameter, AutoAnalysis.Line2.Point1.Data.StartCondition, 
TestParameter, AutoAnalysis.Line2.Point2.Type, 0
TestParameter, AutoAnalysis.Line2.Point2.XY.X, 
TestParameter, AutoAnalysis.Line2.Point2.XY.Y, 
TestParameter, AutoAnalysis.Line2.Point2.Data.Var, 
TestParameter, AutoAnalysis.Line2.Point2.Data.Condition, 
TestParameter, AutoAnalysis.Line2.Point2.Data.Start, false
TestParameter, AutoAnalysis.Line2.Point2.Data.StartVar, 
TestParameter, AutoAnalysis.Line2.Point2.Data.StartCondition, 
TestParameter, AutoAnalysis.Line2.GradientExpr, 0
TestParameter, AutoAnalysis.Marker.Enabled, false
TestParameter, AutoAnalysis.Marker.Data.Var, 
TestParameter, AutoAnalysis.Marker.Data.Condition, 
TestParameter, AutoAnalysis.Marker.Data.Start, false
TestParameter, AutoAnalysis.Marker.Data.StartVar, 
TestParameter, AutoAnalysis.Marker.Data.StartCondition, 
MetaData, TestRecord.EntryPoint, false
MetaData, TestRecord.RecordTime, 03/04/2023 14:38:31
MetaData, TestRecord.TestTarget, 
MetaData, TestRecord.IterationIndex, 24
MetaData, TestRecord.Preservation, true
MetaData, TestRecord.Flag, 
MetaData, TestRecord.Remarks, 
MetaData, TestRecord.LinkKey, de22c2ed-cd30-477f-8ceb-98f4f9b9ec26
Dimension1, 21, 21, 21, 21
Dimension2, 1, 1, 1, 1
DataName, V1, I1, R, Rsheet
DataValue, 0, -1.0427100000000001E-10, -0, -0
DataValue, 0.05, 1.51875E-07, 329218.10699588479, 32921.810699588474
DataValue, 0.1, 3.03595E-07, 329386.18883710209, 32938.6188837102
DataValue, 0.15, 4.5554599999999997E-07, 329275.19943101244, 32927.519943101237
DataValue, 0.2, 6.07171E-07, 329396.4962094698, 32939.64962094697
DataValue, 0.25, 7.5904E-07, 329363.40640809445, 32936.340640809438
DataValue, 0.3, 9.10649E-07, 329435.38070101652, 32943.538070101647
DataValue, 0.35000000000000003, 1.062475E-06, 329419.51575331192, 32941.951575331186
DataValue, 0.4, 1.2135800000000002E-06, 329603.32240148977, 32960.332240148971
DataValue, 0.45, 1.3650100000000001E-06, 329667.9145207727, 32966.791452077268
DataValue, 0.5, 1.51661E-06, 329682.64748353232, 32968.264748353227
DataValue, 0.55, 1.6681800000000003E-06, 329700.63182630169, 32970.063182630161
DataValue, 0.6, 1.8195200000000002E-06, 329757.29862820957, 32975.729862820954
DataValue, 0.65, 1.9710000000000003E-06, 329781.83663115167, 32978.183663115167
DataValue, 0.70000000000000007, 2.1226000000000002E-06, 329784.22689154808, 32978.4226891548
DataValue, 0.75, 2.27389E-06, 329831.25832823926, 32983.12583282392
DataValue, 0.8, 2.42525E-06, 329862.9007318833, 32986.290073188327
DataValue, 0.85000000000000009, 2.5764600000000004E-06, 329910.03159373713, 32991.003159373708
DataValue, 0.9, 2.7279500000000003E-06, 329918.07034586411, 32991.8070345864
DataValue, 0.95000000000000007, 2.8791600000000005E-06, 329957.34867114015, 32995.734867114013
DataValue, 1, 3.03032E-06, 329998.15201034874, 32999.815201034871