
SetupTitle, R-V
ApplicationTest, R-V, Public
TestParameter, Name, Port1, Port2, V1Start, V1Stop, V1Step, V2, I1Limit, IntegTime, HoldTime, DelayTime, Port1MinRng
TestParameter, Value, SMU1:MP	MPSMU, SMU2:MP	MPSMU, 0, 1, 0.05, 0, 0.01, MEDIUM, 0, 0, 1nA
DutParameter, Name, L, W, Temp
DutParameter, Value, 1E-05, 1E-06, 25
MetaData, TestRecord.EntryPoint, true
MetaData, TestRecord.RecordTime, 03/04/2023 14:34:24
MetaData, TestRecord.TestTarget, 
MetaData, TestRecord.IterationIndex, 19
MetaData, TestRecord.Preservation, true
MetaData, TestRecord.Flag, 
MetaData, TestRecord.Remarks, 
MetaData, TestRecord.LinkKey, 30129143-0af7-4189-b03a-ce3e1c423798
Dimension1, 21, 21, 21, 21
Dimension2, 1, 1, 1, 1
DataName, V1, I1, R, Rsheet
DataValue, 0, -1.6191700000000002E-10, -0, -0
DataValue, 0.05, 2.57592E-07, 194105.40700021738, 19410.540700021735
DataValue, 0.1, 5.14911E-07, 194208.31949599058, 19420.831949599054
DataValue, 0.15, 7.72623E-07, 194143.84505768013, 19414.384505768012
DataValue, 0.2, 1.029748E-06, 194222.27574124935, 19422.227574124932
DataValue, 0.25, 1.28673E-06, 194290.95459031808, 19429.095459031807
DataValue, 0.3, 1.5438400000000002E-06, 194320.65499015438, 19432.065499015433
DataValue, 0.35000000000000003, 1.8012100000000003E-06, 194313.82237495904, 19431.3822374959
DataValue, 0.4, 2.0583500000000004E-06, 194330.41028007868, 19433.041028007865
DataValue, 0.45, 2.3152600000000003E-06, 194362.62018088679, 19436.262018088677
DataValue, 0.5, 2.57237E-06, 194373.28222611832, 19437.328222611828
DataValue, 0.55, 2.82916E-06, 194403.99270454835, 19440.399270454833
DataValue, 0.6, 3.086E-06, 194426.44199611145, 19442.644199611143
DataValue, 0.65, 3.3428600000000004E-06, 194444.2782527536, 19444.427825275357
DataValue, 0.70000000000000007, 3.5996700000000005E-06, 194462.27015254175, 19446.227015254175
DataValue, 0.75, 3.8562400000000007E-06, 194489.96950397274, 19448.996950397272
DataValue, 0.8, 4.11295E-06, 194507.59187444535, 19450.759187444535
DataValue, 0.85000000000000009, 4.3692500000000006E-06, 194541.39726497681, 19454.139726497677
DataValue, 0.9, 4.6260300000000007E-06, 194551.26750150774, 19455.126750150772
DataValue, 0.95000000000000007, 4.8824700000000007E-06, 194573.6481739775, 19457.364817397745
DataValue, 1, 5.13865E-06, 194603.64103412375, 19460.364103412372
SetupTitle, R-V
PrimitiveTest, I/V Sweep
TestParameter, Context.MainFrame, B1500A
TestParameter, Channel.UnitType, SMU, SMU
TestParameter, Channel.Unit, Port1, Port2
TestParameter, Channel.IName, I1, I2
TestParameter, Channel.VName, V1, V2
TestParameter, Channel.Mode, V, V
TestParameter, Channel.Func, VAR1, CONST
TestParameter, Channel.Index, 
TestParameter, Channel.Time, 
TestParameter, Measurement.Port.Unit, Port1, Port2
TestParameter, Measurement.Port.SeriesResistor, NONE, NONE
TestParameter, Measurement.Port.Filter, OFF, OFF
TestParameter, Measurement.Port.OutputVoltageComparison, 0, 0
TestParameter, Measurement.Primary.Locus, Single
TestParameter, Measurement.Primary.Scale, LINEAR
TestParameter, Measurement.Primary.Start, V1Start
TestParameter, Measurement.Primary.Stop, V1Stop
TestParameter, Measurement.Primary.Step, V1Step
TestParameter, Measurement.Primary.Compliance, I1Limit
TestParameter, Measurement.Primary.PowerCompliance, 0
TestParameter, Measurement.Aborting.Condition, CONTINUE AT ANY
TestParameter, Measurement.PostOutput.Value, START
TestParameter, Measurement.PostOutput.Retention, OFF
TestParameter, Measurement.Bias.Source, 0, V2
TestParameter, Measurement.Bias.Compliance, 0.01, I1Limit
TestParameter, Measurement.Monitor.Unit, SMU:=Port1, SMU:=Port2
TestParameter, Measurement.Monitor.Adc, HR ADC, HR ADC
TestParameter, Measurement.Monitor.Measurement, Compliance Side, Compliance Side
TestParameter, Measurement.Monitor.RangingMode, LIMITED, LIMITED
TestParameter, Measurement.Monitor.RangeBoundary, Port1MinRng, 1nA
TestParameter, Measurement.Monitor.RangeRating, BY FULL RANGE, BY FULL RANGE
TestParameter, Measurement.Monitor.RangeRatingCoeff, 50, 50
TestParameter, Measurement.Timing.Hold, HoldTime
TestParameter, Measurement.Timing.Delay, DelayTime
TestParameter, Measurement.Adc.HighSpeed.Mode, AUTO
TestParameter, Measurement.Adc.HighSpeed.Coeff, 1
TestParameter, Measurement.Adc.HighResolution.AutoZero, ON
TestParameter, Measurement.Adc.HighResolution.Mode, IntegMode
TestParameter, Measurement.Adc.HighResolution.Coeff, AdcFactor
TestParameter, Measurement.WaitTime.Source.Coeff, 1
TestParameter, Measurement.WaitTime.Source.Offset, 0
TestParameter, Measurement.WaitTime.Monitor.Coeff, 1
TestParameter, Measurement.WaitTime.Monitor.Offset, 0
TestParameter, Function.User.Name, R, Rsheet
TestParameter, Function.User.Unit, ohm, ohm/sheet
TestParameter, Function.User.Definition, V1/I1, R*W/L
TestParameter, Output.Graph.Enabled, true
TestParameter, Output.Graph.AutoScaling, false
TestParameter, Output.Graph.XAxis.Data, V1
TestParameter, Output.Graph.XAxis.Scale, Linear
TestParameter, Output.Graph.XAxis.Left, V1Start
TestParameter, Output.Graph.XAxis.Right, V1Stop
TestParameter, Output.Graph.XAxis.RunTimeAutoScale, false
TestParameter, Output.Graph.YAxis.Data, R, I1
TestParameter, Output.Graph.YAxis.Scale, Linear, Linear
TestParameter, Output.Graph.YAxis.Bottom, 0, 0
TestParameter, Output.Graph.YAxis.Top, V1Stop/I1Limit, I1Limit
TestParameter, Output.Graph.YAxis.Group, , 
TestParameter, Output.Graph.YAxis.RunTimeAutoScale, false, false
TestParameter, Output.List.Data, V1, I1, R, Rsheet
TestParameter, AutoAnalysis.Interpolation, false
TestParameter, AutoAnalysis.Line1.Enabled, false
TestParameter, AutoAnalysis.Line1.Type, 1
TestParameter, AutoAnalysis.Line1.Fix, False
TestParameter, AutoAnalysis.Line1.YAxis, 0
TestParameter, AutoAnalysis.Line1.Point1.Type, 0
TestParameter, AutoAnalysis.Line1.Point1.XY.X, 
TestParameter, AutoAnalysis.Line1.Point1.XY.Y, 
TestParameter, AutoAnalysis.Line1.Point1.Data.Var, 
TestParameter, AutoAnalysis.Line1.Point1.Data.Condition, 
TestParameter, AutoAnalysis.Line1.Point1.Data.Start, false
TestParameter, AutoAnalysis.Line1.Point1.Data.StartVar, 
TestParameter, AutoAnalysis.Line1.Point1.Data.StartCondition, 
TestParameter, AutoAnalysis.Line1.Point2.Type, 0
TestParameter, AutoAnalysis.Line1.Point2.XY.X, 
TestParameter, AutoAnalysis.Line1.Point2.XY.Y, 
TestParameter, AutoAnalysis.Line1.Point2.Data.Var, 
TestParameter, AutoAnalysis.Line1.Point2.Data.Condition, 
TestParameter, AutoAnalysis.Line1.Point2.Data.Start, false
TestParameter, AutoAnalysis.Line1.Point2.Data.StartVar, 
TestParameter, AutoAnalysis.Line1.Point2.Data.StartCondition, 
TestParameter, AutoAnalysis.Line1.GradientExpr, 0
TestParameter, AutoAnalysis.Line2.Enabled, false
TestParameter, AutoAnalysis.Line2.Type, 1
TestParameter, AutoAnalysis.Line2.Fix, False
TestParameter, AutoAnalysis.Line2.YAxis, 0
TestParameter, AutoAnalysis.Line2.Point1.Type, 0
TestParameter, AutoAnalysis.Line2.Point1.XY.X, 
TestParameter, AutoAnalysis.Line2.Point1.XY.Y, 
TestParameter, AutoAnalysis.Line2.Point1.Data.Var, 
TestParameter, AutoAnalysis.Line2.Point1.Data.Condition, 
TestParameter, AutoAnalysis.Line2.Point1.Data.Start, false
TestParameter, AutoAnalysis.Line2.Point1.Data.StartVar, 
TestParameter, AutoAnalysis.Line2.Point1.Data.StartCondition, 
TestParameter, AutoAnalysis.Line2.Point2.Type, 0
TestParameter, AutoAnalysis.Line2.Point2.XY.X, 
TestParameter, AutoAnalysis.Line2.Point2.XY.Y, 
TestParameter, AutoAnalysis.Line2.Point2.Data.Var, 
TestParameter, AutoAnalysis.Line2.Point2.Data.Condition, 
TestParameter, AutoAnalysis.Line2.Point2.Data.Start, false
TestParameter, AutoAnalysis.Line2.Point2.Data.StartVar, 
TestParameter, AutoAnalysis.Line2.Point2.Data.StartCondition, 
TestParameter, AutoAnalysis.Line2.GradientExpr, 0
TestParameter, AutoAnalysis.Marker.Enabled, false
TestParameter, AutoAnalysis.Marker.Data.Var, 
TestParameter, AutoAnalysis.Marker.Data.Condition, 
TestParameter, AutoAnalysis.Marker.Data.Start, false
TestParameter, AutoAnalysis.Marker.Data.StartVar, 
TestParameter, AutoAnalysis.Marker.Data.StartCondition, 
MetaData, TestRecord.EntryPoint, false
MetaData, TestRecord.RecordTime, 03/04/2023 14:34:24
MetaData, TestRecord.TestTarget, 
MetaData, TestRecord.IterationIndex, 19
MetaData, TestRecord.Preservation, true
MetaData, TestRecord.Flag, 
MetaData, TestRecord.Remarks, 
MetaData, TestRecord.LinkKey, 30129143-0af7-4189-b03a-ce3e1c423798
Dimension1, 21, 21, 21, 21
Dimension2, 1, 1, 1, 1
DataName, V1, I1, R, Rsheet
DataValue, 0, -1.6191700000000002E-10, -0, -0
DataValue, 0.05, 2.57592E-07, 194105.40700021738, 19410.540700021735
DataValue, 0.1, 5.14911E-07, 194208.31949599058, 19420.831949599054
DataValue, 0.15, 7.72623E-07, 194143.84505768013, 19414.384505768012
DataValue, 0.2, 1.029748E-06, 194222.27574124935, 19422.227574124932
DataValue, 0.25, 1.28673E-06, 194290.95459031808, 19429.095459031807
DataValue, 0.3, 1.5438400000000002E-06, 194320.65499015438, 19432.065499015433
DataValue, 0.35000000000000003, 1.8012100000000003E-06, 194313.82237495904, 19431.3822374959
DataValue, 0.4, 2.0583500000000004E-06, 194330.41028007868, 19433.041028007865
DataValue, 0.45, 2.3152600000000003E-06, 194362.62018088679, 19436.262018088677
DataValue, 0.5, 2.57237E-06, 194373.28222611832, 19437.328222611828
DataValue, 0.55, 2.82916E-06, 194403.99270454835, 19440.399270454833
DataValue, 0.6, 3.086E-06, 194426.44199611145, 19442.644199611143
DataValue, 0.65, 3.3428600000000004E-06, 194444.2782527536, 19444.427825275357
DataValue, 0.70000000000000007, 3.5996700000000005E-06, 194462.27015254175, 19446.227015254175
DataValue, 0.75, 3.8562400000000007E-06, 194489.96950397274, 19448.996950397272
DataValue, 0.8, 4.11295E-06, 194507.59187444535, 19450.759187444535
DataValue, 0.85000000000000009, 4.3692500000000006E-06, 194541.39726497681, 19454.139726497677
DataValue, 0.9, 4.6260300000000007E-06, 194551.26750150774, 19455.126750150772
DataValue, 0.95000000000000007, 4.8824700000000007E-06, 194573.6481739775, 19457.364817397745
DataValue, 1, 5.13865E-06, 194603.64103412375, 19460.364103412372