
SetupTitle, R-V
ApplicationTest, R-V, Public
TestParameter, Name, Port1, Port2, V1Start, V1Stop, V1Step, V2, I1Limit, IntegTime, HoldTime, DelayTime, Port1MinRng
TestParameter, Value, SMU1:MP	MPSMU, SMU2:MP	MPSMU, 0, 1, 0.05, 0, 0.01, MEDIUM, 0, 0, 1nA
DutParameter, Name, L, W, Temp
DutParameter, Value, 1E-05, 1E-06, 25
MetaData, TestRecord.EntryPoint, true
MetaData, TestRecord.RecordTime, 03/04/2023 14:40:32
MetaData, TestRecord.TestTarget, 
MetaData, TestRecord.IterationIndex, 27
MetaData, TestRecord.Preservation, true
MetaData, TestRecord.Flag, 
MetaData, TestRecord.Remarks, 
MetaData, TestRecord.LinkKey, 9c6dede4-feb0-441b-9bec-885efa78dfa9
Dimension1, 21, 21, 21, 21
Dimension2, 1, 1, 1, 1
DataName, V1, I1, R, Rsheet
DataValue, 0, -2.57E-13, -0, -0
DataValue, 0.05, 7.8000000000000008E-14, 641025641025.641, 64102564102.564095
DataValue, 0.1, 1.4300000000000002E-13, 699300699300.69922, 69930069930.069916
DataValue, 0.15, 3.4800000000000003E-13, 431034482758.62061, 43103448275.862053
DataValue, 0.2, 3.0000000000000003E-13, 666666666666.66663, 66666666666.666656
DataValue, 0.25, 2.9900000000000004E-13, 836120401337.79248, 83612040133.779236
DataValue, 0.3, 5.9500000000000009E-13, 504201680672.2688, 50420168067.226875
DataValue, 0.35000000000000003, 2.61E-13, 1340996168582.3757, 134099616858.23755
DataValue, 0.4, 4.0500000000000004E-13, 987654320987.6543, 98765432098.765411
DataValue, 0.45, 4.5800000000000007E-13, 982532751091.70288, 98253275109.170273
DataValue, 0.5, 1.41E-13, 3546099290780.1416, 354609929078.0141
DataValue, 0.55, 6.9600000000000006E-13, 790229885057.47131, 79022988505.747116
DataValue, 0.6, 4.01E-13, 1496259351620.9475, 149625935162.09473
DataValue, 0.65, 3.65E-13, 1780821917808.2192, 178082191780.8219
DataValue, 0.70000000000000007, 1.0710000000000002E-12, 653594771241.83, 65359477124.182991
DataValue, 0.75, 5.0200000000000008E-13, 1494023904382.47, 149402390438.24698
DataValue, 0.8, 3.4400000000000005E-13, 2325581395348.8369, 232558139534.88364
DataValue, 0.85000000000000009, 6.400000000000001E-13, 1328125000000, 132812499999.99999
DataValue, 0.9, 3.87E-13, 2325581395348.8374, 232558139534.8837
DataValue, 0.95000000000000007, 3.65E-13, 2602739726027.3975, 260273972602.73972
DataValue, 1, 6.4600000000000007E-13, 1547987616099.071, 154798761609.90707
SetupTitle, R-V
PrimitiveTest, I/V Sweep
TestParameter, Context.MainFrame, B1500A
TestParameter, Channel.UnitType, SMU, SMU
TestParameter, Channel.Unit, Port1, Port2
TestParameter, Channel.IName, I1, I2
TestParameter, Channel.VName, V1, V2
TestParameter, Channel.Mode, V, V
TestParameter, Channel.Func, VAR1, CONST
TestParameter, Channel.Index, 
TestParameter, Channel.Time, 
TestParameter, Measurement.Port.Unit, Port1, Port2
TestParameter, Measurement.Port.SeriesResistor, NONE, NONE
TestParameter, Measurement.Port.Filter, OFF, OFF
TestParameter, Measurement.Port.OutputVoltageComparison, 0, 0
TestParameter, Measurement.Primary.Locus, Single
TestParameter, Measurement.Primary.Scale, LINEAR
TestParameter, Measurement.Primary.Start, V1Start
TestParameter, Measurement.Primary.Stop, V1Stop
TestParameter, Measurement.Primary.Step, V1Step
TestParameter, Measurement.Primary.Compliance, I1Limit
TestParameter, Measurement.Primary.PowerCompliance, 0
TestParameter, Measurement.Aborting.Condition, CONTINUE AT ANY
TestParameter, Measurement.PostOutput.Value, START
TestParameter, Measurement.PostOutput.Retention, OFF
TestParameter, Measurement.Bias.Source, 0, V2
TestParameter, Measurement.Bias.Compliance, 0.01, I1Limit
TestParameter, Measurement.Monitor.Unit, SMU:=Port1, SMU:=Port2
TestParameter, Measurement.Monitor.Adc, HR ADC, HR ADC
TestParameter, Measurement.Monitor.Measurement, Compliance Side, Compliance Side
TestParameter, Measurement.Monitor.RangingMode, LIMITED, LIMITED
TestParameter, Measurement.Monitor.RangeBoundary, Port1MinRng, 1nA
TestParameter, Measurement.Monitor.RangeRating, BY FULL RANGE, BY FULL RANGE
TestParameter, Measurement.Monitor.RangeRatingCoeff, 50, 50
TestParameter, Measurement.Timing.Hold, HoldTime
TestParameter, Measurement.Timing.Delay, DelayTime
TestParameter, Measurement.Adc.HighSpeed.Mode, AUTO
TestParameter, Measurement.Adc.HighSpeed.Coeff, 1
TestParameter, Measurement.Adc.HighResolution.AutoZero, ON
TestParameter, Measurement.Adc.HighResolution.Mode, IntegMode
TestParameter, Measurement.Adc.HighResolution.Coeff, AdcFactor
TestParameter, Measurement.WaitTime.Source.Coeff, 1
TestParameter, Measurement.WaitTime.Source.Offset, 0
TestParameter, Measurement.WaitTime.Monitor.Coeff, 1
TestParameter, Measurement.WaitTime.Monitor.Offset, 0
TestParameter, Function.User.Name, R, Rsheet
TestParameter, Function.User.Unit, ohm, ohm/sheet
TestParameter, Function.User.Definition, V1/I1, R*W/L
TestParameter, Output.Graph.Enabled, true
TestParameter, Output.Graph.AutoScaling, false
TestParameter, Output.Graph.XAxis.Data, V1
TestParameter, Output.Graph.XAxis.Scale, Linear
TestParameter, Output.Graph.XAxis.Left, V1Start
TestParameter, Output.Graph.XAxis.Right, V1Stop
TestParameter, Output.Graph.XAxis.RunTimeAutoScale, false
TestParameter, Output.Graph.YAxis.Data, R, I1
TestParameter, Output.Graph.YAxis.Scale, Linear, Linear
TestParameter, Output.Graph.YAxis.Bottom, 0, 0
TestParameter, Output.Graph.YAxis.Top, V1Stop/I1Limit, I1Limit
TestParameter, Output.Graph.YAxis.Group, , 
TestParameter, Output.Graph.YAxis.RunTimeAutoScale, false, false
TestParameter, Output.List.Data, V1, I1, R, Rsheet
TestParameter, AutoAnalysis.Interpolation, false
TestParameter, AutoAnalysis.Line1.Enabled, false
TestParameter, AutoAnalysis.Line1.Type, 1
TestParameter, AutoAnalysis.Line1.Fix, False
TestParameter, AutoAnalysis.Line1.YAxis, 0
TestParameter, AutoAnalysis.Line1.Point1.Type, 0
TestParameter, AutoAnalysis.Line1.Point1.XY.X, 
TestParameter, AutoAnalysis.Line1.Point1.XY.Y, 
TestParameter, AutoAnalysis.Line1.Point1.Data.Var, 
TestParameter, AutoAnalysis.Line1.Point1.Data.Condition, 
TestParameter, AutoAnalysis.Line1.Point1.Data.Start, false
TestParameter, AutoAnalysis.Line1.Point1.Data.StartVar, 
TestParameter, AutoAnalysis.Line1.Point1.Data.StartCondition, 
TestParameter, AutoAnalysis.Line1.Point2.Type, 0
TestParameter, AutoAnalysis.Line1.Point2.XY.X, 
TestParameter, AutoAnalysis.Line1.Point2.XY.Y, 
TestParameter, AutoAnalysis.Line1.Point2.Data.Var, 
TestParameter, AutoAnalysis.Line1.Point2.Data.Condition, 
TestParameter, AutoAnalysis.Line1.Point2.Data.Start, false
TestParameter, AutoAnalysis.Line1.Point2.Data.StartVar, 
TestParameter, AutoAnalysis.Line1.Point2.Data.StartCondition, 
TestParameter, AutoAnalysis.Line1.GradientExpr, 0
TestParameter, AutoAnalysis.Line2.Enabled, false
TestParameter, AutoAnalysis.Line2.Type, 1
TestParameter, AutoAnalysis.Line2.Fix, False
TestParameter, AutoAnalysis.Line2.YAxis, 0
TestParameter, AutoAnalysis.Line2.Point1.Type, 0
TestParameter, AutoAnalysis.Line2.Point1.XY.X, 
TestParameter, AutoAnalysis.Line2.Point1.XY.Y, 
TestParameter, AutoAnalysis.Line2.Point1.Data.Var, 
TestParameter, AutoAnalysis.Line2.Point1.Data.Condition, 
TestParameter, AutoAnalysis.Line2.Point1.Data.Start, false
TestParameter, AutoAnalysis.Line2.Point1.Data.StartVar, 
TestParameter, AutoAnalysis.Line2.Point1.Data.StartCondition, 
TestParameter, AutoAnalysis.Line2.Point2.Type, 0
TestParameter, AutoAnalysis.Line2.Point2.XY.X, 
TestParameter, AutoAnalysis.Line2.Point2.XY.Y, 
TestParameter, AutoAnalysis.Line2.Point2.Data.Var, 
TestParameter, AutoAnalysis.Line2.Point2.Data.Condition, 
TestParameter, AutoAnalysis.Line2.Point2.Data.Start, false
TestParameter, AutoAnalysis.Line2.Point2.Data.StartVar, 
TestParameter, AutoAnalysis.Line2.Point2.Data.StartCondition, 
TestParameter, AutoAnalysis.Line2.GradientExpr, 0
TestParameter, AutoAnalysis.Marker.Enabled, false
TestParameter, AutoAnalysis.Marker.Data.Var, 
TestParameter, AutoAnalysis.Marker.Data.Condition, 
TestParameter, AutoAnalysis.Marker.Data.Start, false
TestParameter, AutoAnalysis.Marker.Data.StartVar, 
TestParameter, AutoAnalysis.Marker.Data.StartCondition, 
MetaData, TestRecord.EntryPoint, false
MetaData, TestRecord.RecordTime, 03/04/2023 14:40:32
MetaData, TestRecord.TestTarget, 
MetaData, TestRecord.IterationIndex, 27
MetaData, TestRecord.Preservation, true
MetaData, TestRecord.Flag, 
MetaData, TestRecord.Remarks, 
MetaData, TestRecord.LinkKey, 9c6dede4-feb0-441b-9bec-885efa78dfa9
Dimension1, 21, 21, 21, 21
Dimension2, 1, 1, 1, 1
DataName, V1, I1, R, Rsheet
DataValue, 0, -2.57E-13, -0, -0
DataValue, 0.05, 7.8000000000000008E-14, 641025641025.641, 64102564102.564095
DataValue, 0.1, 1.4300000000000002E-13, 699300699300.69922, 69930069930.069916
DataValue, 0.15, 3.4800000000000003E-13, 431034482758.62061, 43103448275.862053
DataValue, 0.2, 3.0000000000000003E-13, 666666666666.66663, 66666666666.666656
DataValue, 0.25, 2.9900000000000004E-13, 836120401337.79248, 83612040133.779236
DataValue, 0.3, 5.9500000000000009E-13, 504201680672.2688, 50420168067.226875
DataValue, 0.35000000000000003, 2.61E-13, 1340996168582.3757, 134099616858.23755
DataValue, 0.4, 4.0500000000000004E-13, 987654320987.6543, 98765432098.765411
DataValue, 0.45, 4.5800000000000007E-13, 982532751091.70288, 98253275109.170273
DataValue, 0.5, 1.41E-13, 3546099290780.1416, 354609929078.0141
DataValue, 0.55, 6.9600000000000006E-13, 790229885057.47131, 79022988505.747116
DataValue, 0.6, 4.01E-13, 1496259351620.9475, 149625935162.09473
DataValue, 0.65, 3.65E-13, 1780821917808.2192, 178082191780.8219
DataValue, 0.70000000000000007, 1.0710000000000002E-12, 653594771241.83, 65359477124.182991
DataValue, 0.75, 5.0200000000000008E-13, 1494023904382.47, 149402390438.24698
DataValue, 0.8, 3.4400000000000005E-13, 2325581395348.8369, 232558139534.88364
DataValue, 0.85000000000000009, 6.400000000000001E-13, 1328125000000, 132812499999.99999
DataValue, 0.9, 3.87E-13, 2325581395348.8374, 232558139534.8837
DataValue, 0.95000000000000007, 3.65E-13, 2602739726027.3975, 260273972602.73972
DataValue, 1, 6.4600000000000007E-13, 1547987616099.071, 154798761609.90707