
SetupTitle, R-V
ApplicationTest, R-V, Public
TestParameter, Name, Port1, Port2, V1Start, V1Stop, V1Step, V2, I1Limit, IntegTime, HoldTime, DelayTime, Port1MinRng
TestParameter, Value, SMU1:MP	MPSMU, SMU2:MP	MPSMU, 0, 1, 0.05, 0, 0.01, MEDIUM, 0, 0, 1nA
DutParameter, Name, L, W, Temp
DutParameter, Value, 1E-05, 1E-06, 25
MetaData, TestRecord.EntryPoint, true
MetaData, TestRecord.RecordTime, 03/04/2023 14:37:52
MetaData, TestRecord.TestTarget, 
MetaData, TestRecord.IterationIndex, 23
MetaData, TestRecord.Preservation, true
MetaData, TestRecord.Flag, 
MetaData, TestRecord.Remarks, 
MetaData, TestRecord.LinkKey, 0c0260da-98ed-4f09-a01c-336a1c11c91a
Dimension1, 21, 21, 21, 21
Dimension2, 1, 1, 1, 1
DataName, V1, I1, R, Rsheet
DataValue, 0, -1.06385E-10, -0, -0
DataValue, 0.05, 1.80661E-07, 276761.44823730632, 27676.144823730629
DataValue, 0.1, 3.6114E-07, 276900.924849089, 27690.0924849089
DataValue, 0.15, 5.4189E-07, 276808.94646514975, 27680.894646514975
DataValue, 0.2, 7.22243E-07, 276915.11028836557, 27691.511028836554
DataValue, 0.25, 9.02889E-07, 276888.96420268714, 27688.896420268709
DataValue, 0.3, 1.083241E-06, 276946.6813017602, 27694.668130176018
DataValue, 0.35000000000000003, 1.2633200000000002E-06, 277047.77886837855, 27704.777886837852
DataValue, 0.4, 1.4435900000000002E-06, 277086.98453161906, 27708.698453161905
DataValue, 0.45, 1.6237600000000002E-06, 277134.55190422229, 27713.455190422224
DataValue, 0.5, 1.80418E-06, 277134.21055548778, 27713.421055548773
DataValue, 0.55, 1.9842400000000002E-06, 277184.211587308, 27718.421158730791
DataValue, 0.6, 2.1644100000000003E-06, 277211.80367860058, 27721.180367860052
DataValue, 0.65, 2.3445500000000003E-06, 277238.70252287219, 27723.870252287215
DataValue, 0.70000000000000007, 2.52476E-06, 277254.07563491183, 27725.407563491182
DataValue, 0.75, 2.7046600000000003E-06, 277299.17993389186, 27729.917993389183
DataValue, 0.8, 2.88481E-06, 277314.62384004495, 27731.462384004495
DataValue, 0.85000000000000009, 3.0646200000000004E-06, 277359.02004163648, 27735.902004163647
DataValue, 0.9, 3.2446800000000003E-06, 277377.12193498277, 27737.712193498275
DataValue, 0.95000000000000007, 3.4245700000000002E-06, 277407.09052523383, 27740.70905252338
DataValue, 1, 3.6043900000000003E-06, 277439.45577476354, 27743.945577476352
SetupTitle, R-V
PrimitiveTest, I/V Sweep
TestParameter, Context.MainFrame, B1500A
TestParameter, Channel.UnitType, SMU, SMU
TestParameter, Channel.Unit, Port1, Port2
TestParameter, Channel.IName, I1, I2
TestParameter, Channel.VName, V1, V2
TestParameter, Channel.Mode, V, V
TestParameter, Channel.Func, VAR1, CONST
TestParameter, Channel.Index, 
TestParameter, Channel.Time, 
TestParameter, Measurement.Port.Unit, Port1, Port2
TestParameter, Measurement.Port.SeriesResistor, NONE, NONE
TestParameter, Measurement.Port.Filter, OFF, OFF
TestParameter, Measurement.Port.OutputVoltageComparison, 0, 0
TestParameter, Measurement.Primary.Locus, Single
TestParameter, Measurement.Primary.Scale, LINEAR
TestParameter, Measurement.Primary.Start, V1Start
TestParameter, Measurement.Primary.Stop, V1Stop
TestParameter, Measurement.Primary.Step, V1Step
TestParameter, Measurement.Primary.Compliance, I1Limit
TestParameter, Measurement.Primary.PowerCompliance, 0
TestParameter, Measurement.Aborting.Condition, CONTINUE AT ANY
TestParameter, Measurement.PostOutput.Value, START
TestParameter, Measurement.PostOutput.Retention, OFF
TestParameter, Measurement.Bias.Source, 0, V2
TestParameter, Measurement.Bias.Compliance, 0.01, I1Limit
TestParameter, Measurement.Monitor.Unit, SMU:=Port1, SMU:=Port2
TestParameter, Measurement.Monitor.Adc, HR ADC, HR ADC
TestParameter, Measurement.Monitor.Measurement, Compliance Side, Compliance Side
TestParameter, Measurement.Monitor.RangingMode, LIMITED, LIMITED
TestParameter, Measurement.Monitor.RangeBoundary, Port1MinRng, 1nA
TestParameter, Measurement.Monitor.RangeRating, BY FULL RANGE, BY FULL RANGE
TestParameter, Measurement.Monitor.RangeRatingCoeff, 50, 50
TestParameter, Measurement.Timing.Hold, HoldTime
TestParameter, Measurement.Timing.Delay, DelayTime
TestParameter, Measurement.Adc.HighSpeed.Mode, AUTO
TestParameter, Measurement.Adc.HighSpeed.Coeff, 1
TestParameter, Measurement.Adc.HighResolution.AutoZero, ON
TestParameter, Measurement.Adc.HighResolution.Mode, IntegMode
TestParameter, Measurement.Adc.HighResolution.Coeff, AdcFactor
TestParameter, Measurement.WaitTime.Source.Coeff, 1
TestParameter, Measurement.WaitTime.Source.Offset, 0
TestParameter, Measurement.WaitTime.Monitor.Coeff, 1
TestParameter, Measurement.WaitTime.Monitor.Offset, 0
TestParameter, Function.User.Name, R, Rsheet
TestParameter, Function.User.Unit, ohm, ohm/sheet
TestParameter, Function.User.Definition, V1/I1, R*W/L
TestParameter, Output.Graph.Enabled, true
TestParameter, Output.Graph.AutoScaling, false
TestParameter, Output.Graph.XAxis.Data, V1
TestParameter, Output.Graph.XAxis.Scale, Linear
TestParameter, Output.Graph.XAxis.Left, V1Start
TestParameter, Output.Graph.XAxis.Right, V1Stop
TestParameter, Output.Graph.XAxis.RunTimeAutoScale, false
TestParameter, Output.Graph.YAxis.Data, R, I1
TestParameter, Output.Graph.YAxis.Scale, Linear, Linear
TestParameter, Output.Graph.YAxis.Bottom, 0, 0
TestParameter, Output.Graph.YAxis.Top, V1Stop/I1Limit, I1Limit
TestParameter, Output.Graph.YAxis.Group, , 
TestParameter, Output.Graph.YAxis.RunTimeAutoScale, false, false
TestParameter, Output.List.Data, V1, I1, R, Rsheet
TestParameter, AutoAnalysis.Interpolation, false
TestParameter, AutoAnalysis.Line1.Enabled, false
TestParameter, AutoAnalysis.Line1.Type, 1
TestParameter, AutoAnalysis.Line1.Fix, False
TestParameter, AutoAnalysis.Line1.YAxis, 0
TestParameter, AutoAnalysis.Line1.Point1.Type, 0
TestParameter, AutoAnalysis.Line1.Point1.XY.X, 
TestParameter, AutoAnalysis.Line1.Point1.XY.Y, 
TestParameter, AutoAnalysis.Line1.Point1.Data.Var, 
TestParameter, AutoAnalysis.Line1.Point1.Data.Condition, 
TestParameter, AutoAnalysis.Line1.Point1.Data.Start, false
TestParameter, AutoAnalysis.Line1.Point1.Data.StartVar, 
TestParameter, AutoAnalysis.Line1.Point1.Data.StartCondition, 
TestParameter, AutoAnalysis.Line1.Point2.Type, 0
TestParameter, AutoAnalysis.Line1.Point2.XY.X, 
TestParameter, AutoAnalysis.Line1.Point2.XY.Y, 
TestParameter, AutoAnalysis.Line1.Point2.Data.Var, 
TestParameter, AutoAnalysis.Line1.Point2.Data.Condition, 
TestParameter, AutoAnalysis.Line1.Point2.Data.Start, false
TestParameter, AutoAnalysis.Line1.Point2.Data.StartVar, 
TestParameter, AutoAnalysis.Line1.Point2.Data.StartCondition, 
TestParameter, AutoAnalysis.Line1.GradientExpr, 0
TestParameter, AutoAnalysis.Line2.Enabled, false
TestParameter, AutoAnalysis.Line2.Type, 1
TestParameter, AutoAnalysis.Line2.Fix, False
TestParameter, AutoAnalysis.Line2.YAxis, 0
TestParameter, AutoAnalysis.Line2.Point1.Type, 0
TestParameter, AutoAnalysis.Line2.Point1.XY.X, 
TestParameter, AutoAnalysis.Line2.Point1.XY.Y, 
TestParameter, AutoAnalysis.Line2.Point1.Data.Var, 
TestParameter, AutoAnalysis.Line2.Point1.Data.Condition, 
TestParameter, AutoAnalysis.Line2.Point1.Data.Start, false
TestParameter, AutoAnalysis.Line2.Point1.Data.StartVar, 
TestParameter, AutoAnalysis.Line2.Point1.Data.StartCondition, 
TestParameter, AutoAnalysis.Line2.Point2.Type, 0
TestParameter, AutoAnalysis.Line2.Point2.XY.X, 
TestParameter, AutoAnalysis.Line2.Point2.XY.Y, 
TestParameter, AutoAnalysis.Line2.Point2.Data.Var, 
TestParameter, AutoAnalysis.Line2.Point2.Data.Condition, 
TestParameter, AutoAnalysis.Line2.Point2.Data.Start, false
TestParameter, AutoAnalysis.Line2.Point2.Data.StartVar, 
TestParameter, AutoAnalysis.Line2.Point2.Data.StartCondition, 
TestParameter, AutoAnalysis.Line2.GradientExpr, 0
TestParameter, AutoAnalysis.Marker.Enabled, false
TestParameter, AutoAnalysis.Marker.Data.Var, 
TestParameter, AutoAnalysis.Marker.Data.Condition, 
TestParameter, AutoAnalysis.Marker.Data.Start, false
TestParameter, AutoAnalysis.Marker.Data.StartVar, 
TestParameter, AutoAnalysis.Marker.Data.StartCondition, 
MetaData, TestRecord.EntryPoint, false
MetaData, TestRecord.RecordTime, 03/04/2023 14:37:52
MetaData, TestRecord.TestTarget, 
MetaData, TestRecord.IterationIndex, 23
MetaData, TestRecord.Preservation, true
MetaData, TestRecord.Flag, 
MetaData, TestRecord.Remarks, 
MetaData, TestRecord.LinkKey, 0c0260da-98ed-4f09-a01c-336a1c11c91a
Dimension1, 21, 21, 21, 21
Dimension2, 1, 1, 1, 1
DataName, V1, I1, R, Rsheet
DataValue, 0, -1.06385E-10, -0, -0
DataValue, 0.05, 1.80661E-07, 276761.44823730632, 27676.144823730629
DataValue, 0.1, 3.6114E-07, 276900.924849089, 27690.0924849089
DataValue, 0.15, 5.4189E-07, 276808.94646514975, 27680.894646514975
DataValue, 0.2, 7.22243E-07, 276915.11028836557, 27691.511028836554
DataValue, 0.25, 9.02889E-07, 276888.96420268714, 27688.896420268709
DataValue, 0.3, 1.083241E-06, 276946.6813017602, 27694.668130176018
DataValue, 0.35000000000000003, 1.2633200000000002E-06, 277047.77886837855, 27704.777886837852
DataValue, 0.4, 1.4435900000000002E-06, 277086.98453161906, 27708.698453161905
DataValue, 0.45, 1.6237600000000002E-06, 277134.55190422229, 27713.455190422224
DataValue, 0.5, 1.80418E-06, 277134.21055548778, 27713.421055548773
DataValue, 0.55, 1.9842400000000002E-06, 277184.211587308, 27718.421158730791
DataValue, 0.6, 2.1644100000000003E-06, 277211.80367860058, 27721.180367860052
DataValue, 0.65, 2.3445500000000003E-06, 277238.70252287219, 27723.870252287215
DataValue, 0.70000000000000007, 2.52476E-06, 277254.07563491183, 27725.407563491182
DataValue, 0.75, 2.7046600000000003E-06, 277299.17993389186, 27729.917993389183
DataValue, 0.8, 2.88481E-06, 277314.62384004495, 27731.462384004495
DataValue, 0.85000000000000009, 3.0646200000000004E-06, 277359.02004163648, 27735.902004163647
DataValue, 0.9, 3.2446800000000003E-06, 277377.12193498277, 27737.712193498275
DataValue, 0.95000000000000007, 3.4245700000000002E-06, 277407.09052523383, 27740.70905252338
DataValue, 1, 3.6043900000000003E-06, 277439.45577476354, 27743.945577476352