
SetupTitle, R-V
ApplicationTest, R-V, Public
TestParameter, Name, Port1, Port2, V1Start, V1Stop, V1Step, V2, I1Limit, IntegTime, HoldTime, DelayTime, Port1MinRng
TestParameter, Value, SMU1:MP	MPSMU, SMU2:MP	MPSMU, 0, 1, 0.05, 0, 0.01, MEDIUM, 0, 0, 1nA
DutParameter, Name, L, W, Temp
DutParameter, Value, 1E-05, 1E-06, 25
MetaData, TestRecord.EntryPoint, true
MetaData, TestRecord.RecordTime, 03/04/2023 14:37:02
MetaData, TestRecord.TestTarget, 
MetaData, TestRecord.IterationIndex, 22
MetaData, TestRecord.Preservation, true
MetaData, TestRecord.Flag, 
MetaData, TestRecord.Remarks, 
MetaData, TestRecord.LinkKey, e95ac828-87f9-4517-82a6-586dce4e3c85
Dimension1, 21, 21, 21, 21
Dimension2, 1, 1, 1, 1
DataName, V1, I1, R, Rsheet
DataValue, 0, -1.24369E-10, -0, -0
DataValue, 0.05, 1.9588E-07, 255258.32142127835, 25525.832142127834
DataValue, 0.1, 3.91554E-07, 255392.61506714273, 25539.261506714269
DataValue, 0.15, 5.87527E-07, 255307.41565919522, 25530.741565919518
DataValue, 0.2, 7.83062E-07, 255407.61778760815, 25540.761778760811
DataValue, 0.25, 9.78916E-07, 255384.52737517824, 25538.452737517822
DataValue, 0.3, 1.17392E-06, 255554.04116123755, 25555.404116123751
DataValue, 0.35000000000000003, 1.3696700000000002E-06, 255536.00502310775, 25553.600502310772
DataValue, 0.4, 1.5651500000000002E-06, 255566.55911573969, 25556.655911573966
DataValue, 0.45, 1.7605900000000003E-06, 255596.13538643293, 25559.613538643291
DataValue, 0.5, 1.9560600000000004E-06, 255615.88090344871, 25561.588090344863
DataValue, 0.55, 2.15141E-06, 255646.29707958968, 25564.629707958968
DataValue, 0.6, 2.3467000000000003E-06, 255678.18638939783, 25567.818638939782
DataValue, 0.65, 2.5421200000000003E-06, 255692.09950749765, 25569.209950749762
DataValue, 0.70000000000000007, 2.7374800000000003E-06, 255709.63075529318, 25570.963075529315
DataValue, 0.75, 2.9325300000000003E-06, 255751.85931601722, 25575.185931601714
DataValue, 0.8, 3.1279400000000004E-06, 255759.38157381534, 25575.93815738153
DataValue, 0.85000000000000009, 3.3229000000000004E-06, 255800.65605344728, 25580.065605344724
DataValue, 0.9, 3.5181100000000005E-06, 255819.17563691866, 25581.917563691863
DataValue, 0.95000000000000007, 3.7132300000000003E-06, 255841.9489231747, 25584.194892317468
DataValue, 1, 3.9081600000000007E-06, 255874.88741504948, 25587.488741504945
SetupTitle, R-V
PrimitiveTest, I/V Sweep
TestParameter, Context.MainFrame, B1500A
TestParameter, Channel.UnitType, SMU, SMU
TestParameter, Channel.Unit, Port1, Port2
TestParameter, Channel.IName, I1, I2
TestParameter, Channel.VName, V1, V2
TestParameter, Channel.Mode, V, V
TestParameter, Channel.Func, VAR1, CONST
TestParameter, Channel.Index, 
TestParameter, Channel.Time, 
TestParameter, Measurement.Port.Unit, Port1, Port2
TestParameter, Measurement.Port.SeriesResistor, NONE, NONE
TestParameter, Measurement.Port.Filter, OFF, OFF
TestParameter, Measurement.Port.OutputVoltageComparison, 0, 0
TestParameter, Measurement.Primary.Locus, Single
TestParameter, Measurement.Primary.Scale, LINEAR
TestParameter, Measurement.Primary.Start, V1Start
TestParameter, Measurement.Primary.Stop, V1Stop
TestParameter, Measurement.Primary.Step, V1Step
TestParameter, Measurement.Primary.Compliance, I1Limit
TestParameter, Measurement.Primary.PowerCompliance, 0
TestParameter, Measurement.Aborting.Condition, CONTINUE AT ANY
TestParameter, Measurement.PostOutput.Value, START
TestParameter, Measurement.PostOutput.Retention, OFF
TestParameter, Measurement.Bias.Source, 0, V2
TestParameter, Measurement.Bias.Compliance, 0.01, I1Limit
TestParameter, Measurement.Monitor.Unit, SMU:=Port1, SMU:=Port2
TestParameter, Measurement.Monitor.Adc, HR ADC, HR ADC
TestParameter, Measurement.Monitor.Measurement, Compliance Side, Compliance Side
TestParameter, Measurement.Monitor.RangingMode, LIMITED, LIMITED
TestParameter, Measurement.Monitor.RangeBoundary, Port1MinRng, 1nA
TestParameter, Measurement.Monitor.RangeRating, BY FULL RANGE, BY FULL RANGE
TestParameter, Measurement.Monitor.RangeRatingCoeff, 50, 50
TestParameter, Measurement.Timing.Hold, HoldTime
TestParameter, Measurement.Timing.Delay, DelayTime
TestParameter, Measurement.Adc.HighSpeed.Mode, AUTO
TestParameter, Measurement.Adc.HighSpeed.Coeff, 1
TestParameter, Measurement.Adc.HighResolution.AutoZero, ON
TestParameter, Measurement.Adc.HighResolution.Mode, IntegMode
TestParameter, Measurement.Adc.HighResolution.Coeff, AdcFactor
TestParameter, Measurement.WaitTime.Source.Coeff, 1
TestParameter, Measurement.WaitTime.Source.Offset, 0
TestParameter, Measurement.WaitTime.Monitor.Coeff, 1
TestParameter, Measurement.WaitTime.Monitor.Offset, 0
TestParameter, Function.User.Name, R, Rsheet
TestParameter, Function.User.Unit, ohm, ohm/sheet
TestParameter, Function.User.Definition, V1/I1, R*W/L
TestParameter, Output.Graph.Enabled, true
TestParameter, Output.Graph.AutoScaling, false
TestParameter, Output.Graph.XAxis.Data, V1
TestParameter, Output.Graph.XAxis.Scale, Linear
TestParameter, Output.Graph.XAxis.Left, V1Start
TestParameter, Output.Graph.XAxis.Right, V1Stop
TestParameter, Output.Graph.XAxis.RunTimeAutoScale, false
TestParameter, Output.Graph.YAxis.Data, R, I1
TestParameter, Output.Graph.YAxis.Scale, Linear, Linear
TestParameter, Output.Graph.YAxis.Bottom, 0, 0
TestParameter, Output.Graph.YAxis.Top, V1Stop/I1Limit, I1Limit
TestParameter, Output.Graph.YAxis.Group, , 
TestParameter, Output.Graph.YAxis.RunTimeAutoScale, false, false
TestParameter, Output.List.Data, V1, I1, R, Rsheet
TestParameter, AutoAnalysis.Interpolation, false
TestParameter, AutoAnalysis.Line1.Enabled, false
TestParameter, AutoAnalysis.Line1.Type, 1
TestParameter, AutoAnalysis.Line1.Fix, False
TestParameter, AutoAnalysis.Line1.YAxis, 0
TestParameter, AutoAnalysis.Line1.Point1.Type, 0
TestParameter, AutoAnalysis.Line1.Point1.XY.X, 
TestParameter, AutoAnalysis.Line1.Point1.XY.Y, 
TestParameter, AutoAnalysis.Line1.Point1.Data.Var, 
TestParameter, AutoAnalysis.Line1.Point1.Data.Condition, 
TestParameter, AutoAnalysis.Line1.Point1.Data.Start, false
TestParameter, AutoAnalysis.Line1.Point1.Data.StartVar, 
TestParameter, AutoAnalysis.Line1.Point1.Data.StartCondition, 
TestParameter, AutoAnalysis.Line1.Point2.Type, 0
TestParameter, AutoAnalysis.Line1.Point2.XY.X, 
TestParameter, AutoAnalysis.Line1.Point2.XY.Y, 
TestParameter, AutoAnalysis.Line1.Point2.Data.Var, 
TestParameter, AutoAnalysis.Line1.Point2.Data.Condition, 
TestParameter, AutoAnalysis.Line1.Point2.Data.Start, false
TestParameter, AutoAnalysis.Line1.Point2.Data.StartVar, 
TestParameter, AutoAnalysis.Line1.Point2.Data.StartCondition, 
TestParameter, AutoAnalysis.Line1.GradientExpr, 0
TestParameter, AutoAnalysis.Line2.Enabled, false
TestParameter, AutoAnalysis.Line2.Type, 1
TestParameter, AutoAnalysis.Line2.Fix, False
TestParameter, AutoAnalysis.Line2.YAxis, 0
TestParameter, AutoAnalysis.Line2.Point1.Type, 0
TestParameter, AutoAnalysis.Line2.Point1.XY.X, 
TestParameter, AutoAnalysis.Line2.Point1.XY.Y, 
TestParameter, AutoAnalysis.Line2.Point1.Data.Var, 
TestParameter, AutoAnalysis.Line2.Point1.Data.Condition, 
TestParameter, AutoAnalysis.Line2.Point1.Data.Start, false
TestParameter, AutoAnalysis.Line2.Point1.Data.StartVar, 
TestParameter, AutoAnalysis.Line2.Point1.Data.StartCondition, 
TestParameter, AutoAnalysis.Line2.Point2.Type, 0
TestParameter, AutoAnalysis.Line2.Point2.XY.X, 
TestParameter, AutoAnalysis.Line2.Point2.XY.Y, 
TestParameter, AutoAnalysis.Line2.Point2.Data.Var, 
TestParameter, AutoAnalysis.Line2.Point2.Data.Condition, 
TestParameter, AutoAnalysis.Line2.Point2.Data.Start, false
TestParameter, AutoAnalysis.Line2.Point2.Data.StartVar, 
TestParameter, AutoAnalysis.Line2.Point2.Data.StartCondition, 
TestParameter, AutoAnalysis.Line2.GradientExpr, 0
TestParameter, AutoAnalysis.Marker.Enabled, false
TestParameter, AutoAnalysis.Marker.Data.Var, 
TestParameter, AutoAnalysis.Marker.Data.Condition, 
TestParameter, AutoAnalysis.Marker.Data.Start, false
TestParameter, AutoAnalysis.Marker.Data.StartVar, 
TestParameter, AutoAnalysis.Marker.Data.StartCondition, 
MetaData, TestRecord.EntryPoint, false
MetaData, TestRecord.RecordTime, 03/04/2023 14:37:02
MetaData, TestRecord.TestTarget, 
MetaData, TestRecord.IterationIndex, 22
MetaData, TestRecord.Preservation, true
MetaData, TestRecord.Flag, 
MetaData, TestRecord.Remarks, 
MetaData, TestRecord.LinkKey, e95ac828-87f9-4517-82a6-586dce4e3c85
Dimension1, 21, 21, 21, 21
Dimension2, 1, 1, 1, 1
DataName, V1, I1, R, Rsheet
DataValue, 0, -1.24369E-10, -0, -0
DataValue, 0.05, 1.9588E-07, 255258.32142127835, 25525.832142127834
DataValue, 0.1, 3.91554E-07, 255392.61506714273, 25539.261506714269
DataValue, 0.15, 5.87527E-07, 255307.41565919522, 25530.741565919518
DataValue, 0.2, 7.83062E-07, 255407.61778760815, 25540.761778760811
DataValue, 0.25, 9.78916E-07, 255384.52737517824, 25538.452737517822
DataValue, 0.3, 1.17392E-06, 255554.04116123755, 25555.404116123751
DataValue, 0.35000000000000003, 1.3696700000000002E-06, 255536.00502310775, 25553.600502310772
DataValue, 0.4, 1.5651500000000002E-06, 255566.55911573969, 25556.655911573966
DataValue, 0.45, 1.7605900000000003E-06, 255596.13538643293, 25559.613538643291
DataValue, 0.5, 1.9560600000000004E-06, 255615.88090344871, 25561.588090344863
DataValue, 0.55, 2.15141E-06, 255646.29707958968, 25564.629707958968
DataValue, 0.6, 2.3467000000000003E-06, 255678.18638939783, 25567.818638939782
DataValue, 0.65, 2.5421200000000003E-06, 255692.09950749765, 25569.209950749762
DataValue, 0.70000000000000007, 2.7374800000000003E-06, 255709.63075529318, 25570.963075529315
DataValue, 0.75, 2.9325300000000003E-06, 255751.85931601722, 25575.185931601714
DataValue, 0.8, 3.1279400000000004E-06, 255759.38157381534, 25575.93815738153
DataValue, 0.85000000000000009, 3.3229000000000004E-06, 255800.65605344728, 25580.065605344724
DataValue, 0.9, 3.5181100000000005E-06, 255819.17563691866, 25581.917563691863
DataValue, 0.95000000000000007, 3.7132300000000003E-06, 255841.9489231747, 25584.194892317468
DataValue, 1, 3.9081600000000007E-06, 255874.88741504948, 25587.488741504945