
SetupTitle, ID-VG Postbreak
PrimitiveTest, I/V Sweep
TestParameter, Context.MainFrame, B1500A
TestParameter, Channel.UnitType, SMU, SMU
TestParameter, Channel.Unit, SMU1:MP, SMU2:MP
TestParameter, Channel.IName, I1, I2
TestParameter, Channel.VName, V1, V2
TestParameter, Channel.Mode, V, V
TestParameter, Channel.Func, VAR1, CONST
TestParameter, Channel.Index, 
TestParameter, Channel.Time, 
TestParameter, Measurement.Port.Unit, SMU1:MP, SMU2:MP
TestParameter, Measurement.Port.SeriesResistor, NONE, NONE
TestParameter, Measurement.Port.Filter, ON, ON
TestParameter, Measurement.Port.OutputVoltageComparison, 0, 0
TestParameter, Measurement.Primary.Locus, Double
TestParameter, Measurement.Primary.Scale, LINEAR
TestParameter, Measurement.Primary.Start, -2
TestParameter, Measurement.Primary.Stop, 20
TestParameter, Measurement.Primary.Step, 0.11
TestParameter, Measurement.Primary.Compliance, 0.1
TestParameter, Measurement.Primary.PowerCompliance, 0
TestParameter, Measurement.Aborting.Condition, CONTINUE AT ANY
TestParameter, Measurement.PostOutput.Value, START
TestParameter, Measurement.PostOutput.Retention, OFF
TestParameter, Measurement.Bias.Source, -2, 0.25
TestParameter, Measurement.Bias.Compliance, 0.1, 0.1
TestParameter, Measurement.Monitor.Unit, SMU1:MP, SMU2:MP
TestParameter, Measurement.Monitor.Adc, HR ADC, HR ADC
TestParameter, Measurement.Monitor.Measurement, Compliance Side, Compliance Side
TestParameter, Measurement.Monitor.RangingMode, LIMITED, LIMITED
TestParameter, Measurement.Monitor.RangeBoundary, 1nA, 1nA
TestParameter, Measurement.Monitor.RangeRating, BY FULL RANGE, BY FULL RANGE
TestParameter, Measurement.Monitor.RangeRatingCoeff, 50, 50
TestParameter, Measurement.Timing.Hold, 0
TestParameter, Measurement.Timing.Delay, 0
TestParameter, Measurement.Adc.HighSpeed.Mode, AUTO
TestParameter, Measurement.Adc.HighSpeed.Coeff, 1
TestParameter, Measurement.Adc.HighResolution.AutoZero, OFF
TestParameter, Measurement.Adc.HighResolution.Mode, AUTO
TestParameter, Measurement.Adc.HighResolution.Coeff, 6
TestParameter, Measurement.WaitTime.Source.Coeff, 1
TestParameter, Measurement.WaitTime.Source.Offset, 0
TestParameter, Measurement.WaitTime.Monitor.Coeff, 1
TestParameter, Measurement.WaitTime.Monitor.Offset, 0
TestParameter, Output.Graph.Enabled, true
TestParameter, Output.Graph.AutoScaling, false
TestParameter, Output.Graph.XAxis.Data, V1
TestParameter, Output.Graph.XAxis.Scale, Linear
TestParameter, Output.Graph.XAxis.Left, -2
TestParameter, Output.Graph.XAxis.Right, 6
TestParameter, Output.Graph.XAxis.RunTimeAutoScale, true
TestParameter, Output.Graph.YAxis.Data, I2
TestParameter, Output.Graph.YAxis.Scale, Linear
TestParameter, Output.Graph.YAxis.Bottom, -0.1
TestParameter, Output.Graph.YAxis.Top, 0.1
TestParameter, Output.Graph.YAxis.Group, 
TestParameter, Output.Graph.YAxis.RunTimeAutoScale, true
TestParameter, Output.List.Data, V1, I1, V2, I2, V3, I3, V4, I4
TestParameter, AutoAnalysis.Interpolation, false
TestParameter, AutoAnalysis.Line1.Enabled, false
TestParameter, AutoAnalysis.Line1.Type, 1
TestParameter, AutoAnalysis.Line1.Fix, True
TestParameter, AutoAnalysis.Line1.YAxis, 0
TestParameter, AutoAnalysis.Line1.Point1.Type, 0
TestParameter, AutoAnalysis.Line1.Point1.XY.X, 
TestParameter, AutoAnalysis.Line1.Point1.XY.Y, 
TestParameter, AutoAnalysis.Line1.Point1.Data.Var, 
TestParameter, AutoAnalysis.Line1.Point1.Data.Condition, 
TestParameter, AutoAnalysis.Line1.Point1.Data.Start, false
TestParameter, AutoAnalysis.Line1.Point1.Data.StartVar, 
TestParameter, AutoAnalysis.Line1.Point1.Data.StartCondition, 
TestParameter, AutoAnalysis.Line1.Point2.Type, 0
TestParameter, AutoAnalysis.Line1.Point2.XY.X, 
TestParameter, AutoAnalysis.Line1.Point2.XY.Y, 
TestParameter, AutoAnalysis.Line1.Point2.Data.Var, 
TestParameter, AutoAnalysis.Line1.Point2.Data.Condition, 
TestParameter, AutoAnalysis.Line1.Point2.Data.Start, false
TestParameter, AutoAnalysis.Line1.Point2.Data.StartVar, 
TestParameter, AutoAnalysis.Line1.Point2.Data.StartCondition, 
TestParameter, AutoAnalysis.Line1.GradientExpr, 0
TestParameter, AutoAnalysis.Line2.Enabled, false
TestParameter, AutoAnalysis.Line2.Type, 1
TestParameter, AutoAnalysis.Line2.Fix, True
TestParameter, AutoAnalysis.Line2.YAxis, 0
TestParameter, AutoAnalysis.Line2.Point1.Type, 0
TestParameter, AutoAnalysis.Line2.Point1.XY.X, 
TestParameter, AutoAnalysis.Line2.Point1.XY.Y, 
TestParameter, AutoAnalysis.Line2.Point1.Data.Var, 
TestParameter, AutoAnalysis.Line2.Point1.Data.Condition, 
TestParameter, AutoAnalysis.Line2.Point1.Data.Start, false
TestParameter, AutoAnalysis.Line2.Point1.Data.StartVar, 
TestParameter, AutoAnalysis.Line2.Point1.Data.StartCondition, 
TestParameter, AutoAnalysis.Line2.Point2.Type, 0
TestParameter, AutoAnalysis.Line2.Point2.XY.X, 
TestParameter, AutoAnalysis.Line2.Point2.XY.Y, 
TestParameter, AutoAnalysis.Line2.Point2.Data.Var, 
TestParameter, AutoAnalysis.Line2.Point2.Data.Condition, 
TestParameter, AutoAnalysis.Line2.Point2.Data.Start, false
TestParameter, AutoAnalysis.Line2.Point2.Data.StartVar, 
TestParameter, AutoAnalysis.Line2.Point2.Data.StartCondition, 
TestParameter, AutoAnalysis.Line2.GradientExpr, 0
TestParameter, AutoAnalysis.Marker.Enabled, false
TestParameter, AutoAnalysis.Marker.Data.Var, 
TestParameter, AutoAnalysis.Marker.Data.Condition, 
TestParameter, AutoAnalysis.Marker.Data.Start, false
TestParameter, AutoAnalysis.Marker.Data.StartVar, 
TestParameter, AutoAnalysis.Marker.Data.StartCondition, 
MetaData, TestRecord.EntryPoint, true
MetaData, TestRecord.RecordTime, 03/10/2023 17:15:59
MetaData, TestRecord.TestTarget, 
MetaData, TestRecord.IterationIndex, 50
MetaData, TestRecord.Preservation, true
MetaData, TestRecord.Flag, 
MetaData, TestRecord.Remarks, 
MetaData, TestRecord.LinkKey, 655d7b0a-914f-443e-8a85-183eae424afd
Dimension1, 402, 402, 402, 402, 402, 402, 402, 402
Dimension2, 1, 1, 1, 1, 1, 1, 1, 1
DataName, V1, V2, I1, I2, V3, I3, V4, I4
DataValue, -2, 0.25, -1.1840000000000001E-11, 0.00021754, , , , 
DataValue, -1.8900000000000001, 0.25, -7.0800000000000005E-12, 0.00021756000000000002, , , , 
DataValue, -1.78, 0.25, -4.9100000000000007E-12, 0.00021752000000000002, , , , 
DataValue, -1.67, 0.25, -3.4400000000000003E-12, 0.00021756000000000002, , , , 
DataValue, -1.56, 0.25, -2.1700000000000002E-12, 0.00021756000000000002, , , , 
DataValue, -1.45, 0.25, -1.27E-12, 0.00021756000000000002, , , , 
DataValue, -1.34, 0.25, -2.2000000000000002E-13, 0.00021756000000000002, , , , 
DataValue, -1.23, 0.25, 2.1000000000000001E-13, 0.00021754, , , , 
DataValue, -1.12, 0.25, 7.6000000000000009E-13, 0.00021752000000000002, , , , 
DataValue, -1.01, 0.25, 1.41E-12, 0.00021756000000000002, , , , 
DataValue, -0.9, 0.25, 1.93E-12, 0.00021756000000000002, , , , 
DataValue, -0.79, 0.25, 1.5800000000000001E-12, 0.00021756000000000002, , , , 
DataValue, -0.68, 0.25, 2.0700000000000003E-12, 0.00021754, , , , 
DataValue, -0.57000000000000006, 0.25, 1.5700000000000002E-12, 0.00021754, , , , 
DataValue, -0.46, 0.25, 3.0900000000000004E-12, 0.00021756000000000002, , , , 
DataValue, -0.35000000000000003, 0.25, 3.71E-12, 0.00021754, , , , 
DataValue, -0.24, 0.25, 3.65E-12, 0.00021754, , , , 
DataValue, -0.13, 0.25, 3.9900000000000006E-12, 0.00021754, , , , 
DataValue, -0.02, 0.25, 4.07E-12, 0.00021754, , , , 
DataValue, 0.09, 0.25, 4.67E-12, 0.00021754, , , , 
DataValue, 0.2, 0.25, 4.92E-12, 0.00021754, , , , 
DataValue, 0.31, 0.25, 4.9600000000000007E-12, 0.00021756000000000002, , , , 
DataValue, 0.42, 0.25, 4.93E-12, 0.00021756000000000002, , , , 
DataValue, 0.53, 0.25, 5.8100000000000005E-12, 0.00021756000000000002, , , , 
DataValue, 0.64, 0.25, 4.9100000000000007E-12, 0.00021754, , , , 
DataValue, 0.75, 0.25, 5.53E-12, 0.00021754, , , , 
DataValue, 0.86, 0.25, 5.6700000000000007E-12, 0.00021754, , , , 
DataValue, 0.97, 0.25, 6.05E-12, 0.00021754, , , , 
DataValue, 1.08, 0.25, 6.4E-12, 0.00021756000000000002, , , , 
DataValue, 1.19, 0.25, 6.97E-12, 0.00021752000000000002, , , , 
DataValue, 1.3, 0.25, 6.04E-12, 0.00021752000000000002, , , , 
DataValue, 1.41, 0.25, 7.33E-12, 0.00021754, , , , 
DataValue, 1.52, 0.25, 7.72E-12, 0.00021756000000000002, , , , 
DataValue, 1.6300000000000001, 0.25, 6.4900000000000008E-12, 0.00021756000000000002, , , , 
DataValue, 1.74, 0.25, 7.54E-12, 0.00021756000000000002, , , , 
DataValue, 1.85, 0.25, 7.8600000000000008E-12, 0.00021756000000000002, , , , 
DataValue, 1.96, 0.25, 7.94E-12, 0.00021754, , , , 
DataValue, 2.07, 0.25, 8.7900000000000011E-12, 0.00021754, , , , 
DataValue, 2.18, 0.25, 8.8900000000000011E-12, 0.00021756000000000002, , , , 
DataValue, 2.29, 0.25, 8.56E-12, 0.00021754, , , , 
DataValue, 2.4, 0.25, 9.9100000000000012E-12, 0.00021754, , , , 
DataValue, 2.5100000000000002, 0.25, 8.92E-12, 0.00021754, , , , 
DataValue, 2.62, 0.25, 9.1800000000000009E-12, 0.00021756000000000002, , , , 
DataValue, 2.73, 0.25, 1.0700000000000001E-11, 0.00021754, , , , 
DataValue, 2.84, 0.25, 1.0730000000000001E-11, 0.00021756000000000002, , , , 
DataValue, 2.95, 0.25, 1.045E-11, 0.00021756000000000002, , , , 
DataValue, 3.06, 0.25, 1.0090000000000001E-11, 0.00021756000000000002, , , , 
DataValue, 3.17, 0.25, 1.076E-11, 0.00021754, , , , 
DataValue, 3.2800000000000002, 0.25, 1.1420000000000001E-11, 0.00021756000000000002, , , , 
DataValue, 3.39, 0.25, 1.158E-11, 0.00021756000000000002, , , , 
DataValue, 3.5, 0.25, 1.116E-11, 0.00021756000000000002, , , , 
DataValue, 3.61, 0.25, 1.2050000000000001E-11, 0.00021754, , , , 
DataValue, 3.72, 0.25, 1.2230000000000001E-11, 0.00021754, , , , 
DataValue, 3.83, 0.25, 1.211E-11, 0.00021754, , , , 
DataValue, 3.94, 0.25, 1.3190000000000002E-11, 0.00021754, , , , 
DataValue, 4.05, 0.25, 1.3240000000000001E-11, 0.00021756000000000002, , , , 
DataValue, 4.16, 0.25, 1.3540000000000001E-11, 0.00021756000000000002, , , , 
DataValue, 4.2700000000000005, 0.25, 1.3490000000000002E-11, 0.00021754, , , , 
DataValue, 4.38, 0.25, 1.47E-11, 0.00021756000000000002, , , , 
DataValue, 4.49, 0.25, 1.4290000000000002E-11, 0.00021754, , , , 
DataValue, 4.6000000000000005, 0.25, 1.506E-11, 0.00021756000000000002, , , , 
DataValue, 4.71, 0.25, 1.4480000000000001E-11, 0.00021756000000000002, , , , 
DataValue, 4.82, 0.25, 1.4390000000000002E-11, 0.00021756000000000002, , , , 
DataValue, 4.93, 0.25, 1.5380000000000003E-11, 0.00021754, , , , 
DataValue, 5.04, 0.25, 1.478E-11, 0.00021756000000000002, , , , 
DataValue, 5.15, 0.25, 1.537E-11, 0.00021754, , , , 
DataValue, 5.26, 0.25, 1.6560000000000002E-11, 0.00021752000000000002, , , , 
DataValue, 5.37, 0.25, 1.7270000000000002E-11, 0.00021754, , , , 
DataValue, 5.48, 0.25, 1.722E-11, 0.00021754, , , , 
DataValue, 5.59, 0.25, 1.7110000000000003E-11, 0.00021754, , , , 
DataValue, 5.7, 0.25, 1.768E-11, 0.00021754, , , , 
DataValue, 5.8100000000000005, 0.25, 1.857E-11, 0.00021754, , , , 
DataValue, 5.92, 0.25, 1.8200000000000002E-11, 0.00021754, , , , 
DataValue, 6.03, 0.25, 1.8270000000000002E-11, 0.00021756000000000002, , , , 
DataValue, 6.1400000000000006, 0.25, 1.863E-11, 0.00021756000000000002, , , , 
DataValue, 6.25, 0.25, 1.9580000000000002E-11, 0.00021754, , , , 
DataValue, 6.36, 0.25, 1.8910000000000002E-11, 0.00021754, , , , 
DataValue, 6.47, 0.25, 1.9860000000000003E-11, 0.00021756000000000002, , , , 
DataValue, 6.58, 0.25, 2.0600000000000002E-11, 0.00021754, , , , 
DataValue, 6.69, 0.25, 2.01E-11, 0.00021754, , , , 
DataValue, 6.8, 0.25, 2.1130000000000002E-11, 0.00021756000000000002, , , , 
DataValue, 6.91, 0.25, 2.127E-11, 0.0002175, , , , 
DataValue, 7.0200000000000005, 0.25, 2.1280000000000003E-11, 0.00021754, , , , 
DataValue, 7.13, 0.25, 2.252E-11, 0.00021754, , , , 
DataValue, 7.24, 0.25, 2.247E-11, 0.00021756000000000002, , , , 
DataValue, 7.3500000000000005, 0.25, 2.294E-11, 0.00021756000000000002, , , , 
DataValue, 7.46, 0.25, 2.331E-11, 0.00021754, , , , 
DataValue, 7.57, 0.25, 2.2550000000000002E-11, 0.00021754, , , , 
DataValue, 7.68, 0.25, 2.3500000000000003E-11, 0.00021754, , , , 
DataValue, 7.79, 0.25, 2.4060000000000002E-11, 0.00021754, , , , 
DataValue, 7.9, 0.25, 2.4410000000000003E-11, 0.00021754, , , , 
DataValue, 8.01, 0.25, 2.513E-11, 0.00021754, , , , 
DataValue, 8.120000000000001, 0.25, 2.542E-11, 0.0002175, , , , 
DataValue, 8.23, 0.25, 2.524E-11, 0.00021754, , , , 
DataValue, 8.34, 0.25, 2.6120000000000003E-11, 0.00021754, , , , 
DataValue, 8.45, 0.25, 2.6520000000000003E-11, 0.00021754, , , , 
DataValue, 8.56, 0.25, 2.702E-11, 0.00021752000000000002, , , , 
DataValue, 8.67, 0.25, 2.6480000000000002E-11, 0.00021754, , , , 
DataValue, 8.78, 0.25, 2.7510000000000004E-11, 0.0002175, , , , 
DataValue, 8.89, 0.25, 2.7540000000000003E-11, 0.00021754, , , , 
DataValue, 9, 0.25, 2.753E-11, 0.0002175, , , , 
DataValue, 9.11, 0.25, 2.929E-11, 0.00021752000000000002, , , , 
DataValue, 9.22, 0.25, 2.8650000000000003E-11, 0.00021754, , , , 
DataValue, 9.33, 0.25, 2.932E-11, 0.00021756000000000002, , , , 
DataValue, 9.44, 0.25, 2.967E-11, 0.00021756000000000002, , , , 
DataValue, 9.55, 0.25, 2.991E-11, 0.0002175, , , , 
DataValue, 9.66, 0.25, 3.031E-11, 0.00021754, , , , 
DataValue, 9.77, 0.25, 3.171E-11, 0.00021754, , , , 
DataValue, 9.88, 0.25, 3.073E-11, 0.00021752000000000002, , , , 
DataValue, 9.99, 0.25, 3.117E-11, 0.00021752000000000002, , , , 
DataValue, 10.1, 0.25, 3.223E-11, 0.00021754, , , , 
DataValue, 10.21, 0.25, 3.2400000000000006E-11, 0.00021752000000000002, , , , 
DataValue, 10.32, 0.25, 3.2390000000000004E-11, 0.00021754, , , , 
DataValue, 10.43, 0.25, 3.3780000000000005E-11, 0.00021754, , , , 
DataValue, 10.540000000000001, 0.25, 3.365E-11, 0.00021754, , , , 
DataValue, 10.65, 0.25, 3.376E-11, 0.00021754, , , , 
DataValue, 10.76, 0.25, 3.4680000000000003E-11, 0.00021754, , , , 
DataValue, 10.870000000000001, 0.25, 3.397E-11, 0.00021754, , , , 
DataValue, 10.98, 0.25, 3.579E-11, 0.0002175, , , , 
DataValue, 11.09, 0.25, 3.6070000000000004E-11, 0.00021754, , , , 
DataValue, 11.200000000000001, 0.25, 3.597E-11, 0.00021754, , , , 
DataValue, 11.31, 0.25, 3.682E-11, 0.00021754, , , , 
DataValue, 11.42, 0.25, 3.707E-11, 0.00021754, , , , 
DataValue, 11.53, 0.25, 3.718E-11, 0.00021754, , , , 
DataValue, 11.64, 0.25, 3.853E-11, 0.0002175, , , , 
DataValue, 11.75, 0.25, 3.893E-11, 0.00021754, , , , 
DataValue, 11.86, 0.25, 3.991E-11, 0.00021754, , , , 
DataValue, 11.97, 0.25, 3.976E-11, 0.00021754, , , , 
DataValue, 12.08, 0.25, 3.951E-11, 0.00021754, , , , 
DataValue, 12.19, 0.25, 4.065E-11, 0.00021754, , , , 
DataValue, 12.3, 0.25, 4.1710000000000004E-11, 0.0002175, , , , 
DataValue, 12.41, 0.25, 4.151E-11, 0.00021754, , , , 
DataValue, 12.52, 0.25, 4.249E-11, 0.00021754, , , , 
DataValue, 12.63, 0.25, 4.228E-11, 0.00021754, , , , 
DataValue, 12.74, 0.25, 4.341E-11, 0.0002175, , , , 
DataValue, 12.85, 0.25, 4.3910000000000007E-11, 0.0002175, , , , 
DataValue, 12.96, 0.25, 4.505E-11, 0.00021754, , , , 
DataValue, 13.07, 0.25, 4.5540000000000005E-11, 0.00021752000000000002, , , , 
DataValue, 13.18, 0.25, 4.6230000000000005E-11, 0.00021754, , , , 
DataValue, 13.290000000000001, 0.25, 4.6080000000000004E-11, 0.00021752000000000002, , , , 
DataValue, 13.4, 0.25, 4.669E-11, 0.00021754, , , , 
DataValue, 13.51, 0.25, 4.7980000000000005E-11, 0.0002175, , , , 
DataValue, 13.620000000000001, 0.25, 4.854E-11, 0.0002175, , , , 
DataValue, 13.73, 0.25, 4.9370000000000006E-11, 0.00021754, , , , 
DataValue, 13.84, 0.25, 4.974E-11, 0.00021752000000000002, , , , 
DataValue, 13.950000000000001, 0.25, 4.9810000000000007E-11, 0.00021752000000000002, , , , 
DataValue, 14.06, 0.25, 5.1210000000000003E-11, 0.00021754, , , , 
DataValue, 14.17, 0.25, 5.1770000000000006E-11, 0.00021752000000000002, , , , 
DataValue, 14.280000000000001, 0.25, 5.2850000000000004E-11, 0.0002175, , , , 
DataValue, 14.39, 0.25, 5.321E-11, 0.00021754, , , , 
DataValue, 14.5, 0.25, 5.4420000000000004E-11, 0.00021754, , , , 
DataValue, 14.61, 0.25, 5.474E-11, 0.00021752000000000002, , , , 
DataValue, 14.72, 0.25, 5.601E-11, 0.00021754, , , , 
DataValue, 14.83, 0.25, 5.6790000000000005E-11, 0.0002175, , , , 
DataValue, 14.94, 0.25, 5.816E-11, 0.00021752000000000002, , , , 
DataValue, 15.05, 0.25, 5.884E-11, 0.00021754, , , , 
DataValue, 15.16, 0.25, 6.0010000000000008E-11, 0.00021754, , , , 
DataValue, 15.27, 0.25, 5.947E-11, 0.00021754, , , , 
DataValue, 15.38, 0.25, 6.1300000000000011E-11, 0.0002175, , , , 
DataValue, 15.49, 0.25, 6.281E-11, 0.00021752000000000002, , , , 
DataValue, 15.6, 0.25, 6.3980000000000008E-11, 0.00021754, , , , 
DataValue, 15.71, 0.25, 6.4170000000000009E-11, 0.00021754, , , , 
DataValue, 15.82, 0.25, 6.579E-11, 0.00021754, , , , 
DataValue, 15.93, 0.25, 6.612E-11, 0.0002175, , , , 
DataValue, 16.04, 0.25, 6.768E-11, 0.0002175, , , , 
DataValue, 16.15, 0.25, 6.975E-11, 0.00021754, , , , 
DataValue, 16.26, 0.25, 7.074E-11, 0.00021752000000000002, , , , 
DataValue, 16.37, 0.25, 7.207E-11, 0.00021754, , , , 
DataValue, 16.48, 0.25, 7.246E-11, 0.00021752000000000002, , , , 
DataValue, 16.59, 0.25, 7.397E-11, 0.00021754, , , , 
DataValue, 16.7, 0.25, 7.5950000000000007E-11, 0.00021752000000000002, , , , 
DataValue, 16.81, 0.25, 7.748E-11, 0.00021752000000000002, , , , 
DataValue, 16.92, 0.25, 7.814E-11, 0.0002175, , , , 
DataValue, 17.03, 0.25, 8.039E-11, 0.0002175, , , , 
DataValue, 17.14, 0.25, 8.1630000000000007E-11, 0.00021754, , , , 
DataValue, 17.25, 0.25, 8.2540000000000007E-11, 0.0002175, , , , 
DataValue, 17.36, 0.25, 8.575E-11, 0.0002175, , , , 
DataValue, 17.47, 0.25, 8.653000000000001E-11, 0.00021752000000000002, , , , 
DataValue, 17.580000000000002, 0.25, 8.817E-11, 0.00021754, , , , 
DataValue, 17.69, 0.25, 9.008E-11, 0.00021752000000000002, , , , 
DataValue, 17.8, 0.25, 9.2290000000000012E-11, 0.00021752000000000002, , , , 
DataValue, 17.91, 0.25, 9.44E-11, 0.00021752000000000002, , , , 
DataValue, 18.02, 0.25, 9.567E-11, 0.00021752000000000002, , , , 
DataValue, 18.13, 0.25, 9.7970000000000012E-11, 0.00021752000000000002, , , , 
DataValue, 18.240000000000002, 0.25, 1.0022E-10, 0.00021754, , , , 
DataValue, 18.35, 0.25, 1.0162000000000001E-10, 0.00021754, , , , 
DataValue, 18.46, 0.25, 1.0393000000000001E-10, 0.00021754, , , , 
DataValue, 18.57, 0.25, 1.0633000000000001E-10, 0.00021752000000000002, , , , 
DataValue, 18.68, 0.25, 1.0840000000000001E-10, 0.0002175, , , , 
DataValue, 18.79, 0.25, 1.1039E-10, 0.00021754, , , , 
DataValue, 18.900000000000002, 0.25, 1.129E-10, 0.0002175, , , , 
DataValue, 19.01, 0.25, 1.1540000000000001E-10, 0.00021752000000000002, , , , 
DataValue, 19.12, 0.25, 1.1814000000000002E-10, 0.00021754, , , , 
DataValue, 19.23, 0.25, 1.2108E-10, 0.00021754, , , , 
DataValue, 19.34, 0.25, 1.2301E-10, 0.00021752000000000002, , , , 
DataValue, 19.45, 0.25, 1.2642000000000001E-10, 0.00021754, , , , 
DataValue, 19.56, 0.25, 1.287E-10, 0.00021754, , , , 
DataValue, 19.67, 0.25, 1.3148000000000002E-10, 0.00021752000000000002, , , , 
DataValue, 19.78, 0.25, 1.3485E-10, 0.00021754, , , , 
DataValue, 19.89, 0.25, 1.3701E-10, 0.00021752000000000002, , , , 
DataValue, 20, 0.25, 1.4085E-10, 0.00021754, , , , 
DataValue, 20, 0.25, 1.3938000000000001E-10, 0.00021756000000000002, , , , 
DataValue, 19.89, 0.25, 1.2757E-10, 0.00021754, , , , 
DataValue, 19.78, 0.25, 1.1773000000000002E-10, 0.00021754, , , , 
DataValue, 19.67, 0.25, 1.0965E-10, 0.00021754, , , , 
DataValue, 19.56, 0.25, 1.0306E-10, 0.00021752000000000002, , , , 
DataValue, 19.45, 0.25, 9.551E-11, 0.00021752000000000002, , , , 
DataValue, 19.34, 0.25, 9.0340000000000008E-11, 0.00021754, , , , 
DataValue, 19.23, 0.25, 8.518000000000001E-11, 0.00021754, , , , 
DataValue, 19.12, 0.25, 8.01E-11, 0.00021754, , , , 
