
SetupTitle, ID-VG Postbreak
PrimitiveTest, I/V Sweep
TestParameter, Context.MainFrame, B1500A
TestParameter, Channel.UnitType, SMU, SMU
TestParameter, Channel.Unit, SMU1:MP, SMU2:MP
TestParameter, Channel.IName, I1, I2
TestParameter, Channel.VName, V1, V2
TestParameter, Channel.Mode, V, V
TestParameter, Channel.Func, VAR1, CONST
TestParameter, Channel.Index, 
TestParameter, Channel.Time, 
TestParameter, Measurement.Port.Unit, SMU1:MP, SMU2:MP
TestParameter, Measurement.Port.SeriesResistor, NONE, NONE
TestParameter, Measurement.Port.Filter, ON, ON
TestParameter, Measurement.Port.OutputVoltageComparison, 0, 0
TestParameter, Measurement.Primary.Locus, Double
TestParameter, Measurement.Primary.Scale, LINEAR
TestParameter, Measurement.Primary.Start, -2
TestParameter, Measurement.Primary.Stop, 20
TestParameter, Measurement.Primary.Step, 0.11
TestParameter, Measurement.Primary.Compliance, 0.1
TestParameter, Measurement.Primary.PowerCompliance, 0
TestParameter, Measurement.Aborting.Condition, CONTINUE AT ANY
TestParameter, Measurement.PostOutput.Value, START
TestParameter, Measurement.PostOutput.Retention, OFF
TestParameter, Measurement.Bias.Source, -2, 0.25
TestParameter, Measurement.Bias.Compliance, 0.1, 0.1
TestParameter, Measurement.Monitor.Unit, SMU1:MP, SMU2:MP
TestParameter, Measurement.Monitor.Adc, HR ADC, HR ADC
TestParameter, Measurement.Monitor.Measurement, Compliance Side, Compliance Side
TestParameter, Measurement.Monitor.RangingMode, LIMITED, LIMITED
TestParameter, Measurement.Monitor.RangeBoundary, 1nA, 1nA
TestParameter, Measurement.Monitor.RangeRating, BY FULL RANGE, BY FULL RANGE
TestParameter, Measurement.Monitor.RangeRatingCoeff, 50, 50
TestParameter, Measurement.Timing.Hold, 0
TestParameter, Measurement.Timing.Delay, 0
TestParameter, Measurement.Adc.HighSpeed.Mode, AUTO
TestParameter, Measurement.Adc.HighSpeed.Coeff, 1
TestParameter, Measurement.Adc.HighResolution.AutoZero, OFF
TestParameter, Measurement.Adc.HighResolution.Mode, AUTO
TestParameter, Measurement.Adc.HighResolution.Coeff, 6
TestParameter, Measurement.WaitTime.Source.Coeff, 1
TestParameter, Measurement.WaitTime.Source.Offset, 0
TestParameter, Measurement.WaitTime.Monitor.Coeff, 1
TestParameter, Measurement.WaitTime.Monitor.Offset, 0
TestParameter, Output.Graph.Enabled, true
TestParameter, Output.Graph.AutoScaling, false
TestParameter, Output.Graph.XAxis.Data, V1
TestParameter, Output.Graph.XAxis.Scale, Linear
TestParameter, Output.Graph.XAxis.Left, -2
TestParameter, Output.Graph.XAxis.Right, 6
TestParameter, Output.Graph.XAxis.RunTimeAutoScale, true
TestParameter, Output.Graph.YAxis.Data, I2
TestParameter, Output.Graph.YAxis.Scale, Linear
TestParameter, Output.Graph.YAxis.Bottom, -0.1
TestParameter, Output.Graph.YAxis.Top, 0.1
TestParameter, Output.Graph.YAxis.Group, 
TestParameter, Output.Graph.YAxis.RunTimeAutoScale, true
TestParameter, Output.List.Data, V1, I1, V2, I2, V3, I3, V4, I4
TestParameter, AutoAnalysis.Interpolation, false
TestParameter, AutoAnalysis.Line1.Enabled, false
TestParameter, AutoAnalysis.Line1.Type, 1
TestParameter, AutoAnalysis.Line1.Fix, True
TestParameter, AutoAnalysis.Line1.YAxis, 0
TestParameter, AutoAnalysis.Line1.Point1.Type, 0
TestParameter, AutoAnalysis.Line1.Point1.XY.X, 
TestParameter, AutoAnalysis.Line1.Point1.XY.Y, 
TestParameter, AutoAnalysis.Line1.Point1.Data.Var, 
TestParameter, AutoAnalysis.Line1.Point1.Data.Condition, 
TestParameter, AutoAnalysis.Line1.Point1.Data.Start, false
TestParameter, AutoAnalysis.Line1.Point1.Data.StartVar, 
TestParameter, AutoAnalysis.Line1.Point1.Data.StartCondition, 
TestParameter, AutoAnalysis.Line1.Point2.Type, 0
TestParameter, AutoAnalysis.Line1.Point2.XY.X, 
TestParameter, AutoAnalysis.Line1.Point2.XY.Y, 
TestParameter, AutoAnalysis.Line1.Point2.Data.Var, 
TestParameter, AutoAnalysis.Line1.Point2.Data.Condition, 
TestParameter, AutoAnalysis.Line1.Point2.Data.Start, false
TestParameter, AutoAnalysis.Line1.Point2.Data.StartVar, 
TestParameter, AutoAnalysis.Line1.Point2.Data.StartCondition, 
TestParameter, AutoAnalysis.Line1.GradientExpr, 0
TestParameter, AutoAnalysis.Line2.Enabled, false
TestParameter, AutoAnalysis.Line2.Type, 1
TestParameter, AutoAnalysis.Line2.Fix, True
TestParameter, AutoAnalysis.Line2.YAxis, 0
TestParameter, AutoAnalysis.Line2.Point1.Type, 0
TestParameter, AutoAnalysis.Line2.Point1.XY.X, 
TestParameter, AutoAnalysis.Line2.Point1.XY.Y, 
TestParameter, AutoAnalysis.Line2.Point1.Data.Var, 
TestParameter, AutoAnalysis.Line2.Point1.Data.Condition, 
TestParameter, AutoAnalysis.Line2.Point1.Data.Start, false
TestParameter, AutoAnalysis.Line2.Point1.Data.StartVar, 
TestParameter, AutoAnalysis.Line2.Point1.Data.StartCondition, 
TestParameter, AutoAnalysis.Line2.Point2.Type, 0
TestParameter, AutoAnalysis.Line2.Point2.XY.X, 
TestParameter, AutoAnalysis.Line2.Point2.XY.Y, 
TestParameter, AutoAnalysis.Line2.Point2.Data.Var, 
TestParameter, AutoAnalysis.Line2.Point2.Data.Condition, 
TestParameter, AutoAnalysis.Line2.Point2.Data.Start, false
TestParameter, AutoAnalysis.Line2.Point2.Data.StartVar, 
TestParameter, AutoAnalysis.Line2.Point2.Data.StartCondition, 
TestParameter, AutoAnalysis.Line2.GradientExpr, 0
TestParameter, AutoAnalysis.Marker.Enabled, false
TestParameter, AutoAnalysis.Marker.Data.Var, 
TestParameter, AutoAnalysis.Marker.Data.Condition, 
TestParameter, AutoAnalysis.Marker.Data.Start, false
TestParameter, AutoAnalysis.Marker.Data.StartVar, 
TestParameter, AutoAnalysis.Marker.Data.StartCondition, 
MetaData, TestRecord.EntryPoint, true
MetaData, TestRecord.RecordTime, 03/10/2023 17:17:08
MetaData, TestRecord.TestTarget, 
MetaData, TestRecord.IterationIndex, 52
MetaData, TestRecord.Preservation, true
MetaData, TestRecord.Flag, 
MetaData, TestRecord.Remarks, 
MetaData, TestRecord.LinkKey, b10c0150-c007-4321-9349-76cc10606598
Dimension1, 402, 402, 402, 402, 402, 402, 402, 402
Dimension2, 1, 1, 1, 1, 1, 1, 1, 1
DataName, V1, V2, I1, I2, V3, I3, V4, I4
DataValue, -2, 0.25, -6.5200000000000005E-12, 3.125E-11, , , , 
DataValue, -1.8900000000000001, 0.25, -3.1200000000000004E-12, 3.02E-11, , , , 
DataValue, -1.78, 0.25, -2.01E-12, 3.245E-11, , , , 
DataValue, -1.67, 0.25, -2.18E-12, 3.149E-11, , , , 
DataValue, -1.56, 0.25, -5.9E-13, 2.991E-11, , , , 
DataValue, -1.45, 0.25, -1.4700000000000002E-12, 3.1010000000000005E-11, , , , 
DataValue, -1.34, 0.25, 1.5000000000000002E-13, 3.223E-11, , , , 
DataValue, -1.23, 0.25, 7E-14, 3.092E-11, , , , 
DataValue, -1.12, 0.25, 4.2000000000000003E-13, 2.9050000000000002E-11, , , , 
DataValue, -1.01, 0.25, -8.6000000000000007E-13, 2.8670000000000003E-11, , , , 
DataValue, -0.9, 0.25, 5.3000000000000006E-13, 3.143E-11, , , , 
DataValue, -0.79, 0.25, 2.6E-13, 3.0640000000000004E-11, , , , 
DataValue, -0.68, 0.25, 1E-12, 3.048E-11, , , , 
DataValue, -0.57000000000000006, 0.25, 1.09E-12, 2.828E-11, , , , 
DataValue, -0.46, 0.25, 9.1000000000000016E-13, 3.0610000000000005E-11, , , , 
DataValue, -0.35000000000000003, 0.25, 1.79E-12, 3.117E-11, , , , 
DataValue, -0.24, 0.25, 1E-12, 2.918E-11, , , , 
DataValue, -0.13, 0.25, 1.17E-12, 2.8700000000000002E-11, , , , 
DataValue, -0.02, 0.25, 2.0500000000000004E-12, 2.9740000000000005E-11, , , , 
DataValue, 0.09, 0.25, 2.4300000000000003E-12, 3.038E-11, , , , 
DataValue, 0.2, 0.25, 2.1000000000000003E-12, 2.931E-11, , , , 
DataValue, 0.31, 0.25, 2.7300000000000003E-12, 2.8760000000000003E-11, , , , 
DataValue, 0.42, 0.25, 2.42E-12, 2.956E-11, , , , 
DataValue, 0.53, 0.25, 3.15E-12, 3.099E-11, , , , 
DataValue, 0.64, 0.25, 2.9800000000000002E-12, 2.935E-11, , , , 
DataValue, 0.75, 0.25, 1.96E-12, 2.8380000000000003E-11, , , , 
DataValue, 0.86, 0.25, 2.9800000000000002E-12, 2.993E-11, , , , 
DataValue, 0.97, 0.25, 3.2900000000000003E-12, 3.078E-11, , , , 
DataValue, 1.08, 0.25, 3.0900000000000004E-12, 2.975E-11, , , , 
DataValue, 1.19, 0.25, 2.6500000000000002E-12, 2.9090000000000003E-11, , , , 
DataValue, 1.3, 0.25, 2.8300000000000003E-12, 2.994E-11, , , , 
DataValue, 1.41, 0.25, 4E-12, 3.049E-11, , , , 
DataValue, 1.52, 0.25, 3.61E-12, 2.946E-11, , , , 
DataValue, 1.6300000000000001, 0.25, 3.3600000000000002E-12, 2.859E-11, , , , 
DataValue, 1.74, 0.25, 3.4500000000000004E-12, 2.9410000000000005E-11, , , , 
DataValue, 1.85, 0.25, 3.9400000000000006E-12, 3.0140000000000005E-11, , , , 
DataValue, 1.96, 0.25, 3.86E-12, 2.96E-11, , , , 
DataValue, 2.07, 0.25, 4.6600000000000007E-12, 2.8090000000000003E-11, , , , 
DataValue, 2.18, 0.25, 4.06E-12, 2.938E-11, , , , 
DataValue, 2.29, 0.25, 4.32E-12, 3.044E-11, , , , 
DataValue, 2.4, 0.25, 4.1400000000000005E-12, 3.012E-11, , , , 
DataValue, 2.5100000000000002, 0.25, 4.22E-12, 2.8810000000000002E-11, , , , 
DataValue, 2.62, 0.25, 3.9400000000000006E-12, 2.8030000000000002E-11, , , , 
DataValue, 2.73, 0.25, 4.93E-12, 2.9150000000000004E-11, , , , 
DataValue, 2.84, 0.25, 4.4400000000000005E-12, 3.033E-11, , , , 
DataValue, 2.95, 0.25, 4.9100000000000007E-12, 2.8760000000000003E-11, , , , 
DataValue, 3.06, 0.25, 5.08E-12, 2.806E-11, , , , 
DataValue, 3.17, 0.25, 5.29E-12, 2.9880000000000004E-11, , , , 
DataValue, 3.2800000000000002, 0.25, 5.2700000000000008E-12, 2.953E-11, , , , 
DataValue, 3.39, 0.25, 4.8000000000000005E-12, 2.8380000000000003E-11, , , , 
DataValue, 3.5, 0.25, 4.92E-12, 2.7270000000000003E-11, , , , 
DataValue, 3.61, 0.25, 5.07E-12, 2.913E-11, , , , 
DataValue, 3.72, 0.25, 5.2100000000000006E-12, 2.978E-11, , , , 
DataValue, 3.83, 0.25, 5.5600000000000005E-12, 2.9010000000000002E-11, , , , 
DataValue, 3.94, 0.25, 5.8600000000000005E-12, 2.7610000000000002E-11, , , , 
DataValue, 4.05, 0.25, 5.5600000000000005E-12, 2.859E-11, , , , 
DataValue, 4.16, 0.25, 6.0700000000000006E-12, 2.98E-11, , , , 
DataValue, 4.2700000000000005, 0.25, 5.2000000000000005E-12, 2.8420000000000004E-11, , , , 
DataValue, 4.38, 0.25, 6.5700000000000005E-12, 2.8200000000000003E-11, , , , 
DataValue, 4.49, 0.25, 5.6700000000000007E-12, 2.808E-11, , , , 
DataValue, 4.6000000000000005, 0.25, 6.6300000000000006E-12, 2.9660000000000004E-11, , , , 
DataValue, 4.71, 0.25, 6.35E-12, 2.8710000000000003E-11, , , , 
DataValue, 4.82, 0.25, 6.9400000000000007E-12, 2.8100000000000002E-11, , , , 
DataValue, 4.93, 0.25, 6.0800000000000008E-12, 2.837E-11, , , , 
DataValue, 5.04, 0.25, 7.34E-12, 2.978E-11, , , , 
DataValue, 5.15, 0.25, 6.8000000000000009E-12, 2.868E-11, , , , 
DataValue, 5.26, 0.25, 7.4E-12, 2.7580000000000003E-11, , , , 
DataValue, 5.37, 0.25, 6.7700000000000004E-12, 2.884E-11, , , , 
DataValue, 5.48, 0.25, 8.03E-12, 2.916E-11, , , , 
DataValue, 5.59, 0.25, 7.2400000000000007E-12, 2.8500000000000002E-11, , , , 
DataValue, 5.7, 0.25, 7.91E-12, 2.773E-11, , , , 
DataValue, 5.8100000000000005, 0.25, 7.6900000000000014E-12, 2.7510000000000004E-11, , , , 
DataValue, 5.92, 0.25, 8.26E-12, 2.94E-11, , , , 
DataValue, 6.03, 0.25, 7.44E-12, 2.848E-11, , , , 
DataValue, 6.1400000000000006, 0.25, 7.5800000000000012E-12, 2.7510000000000004E-11, , , , 
DataValue, 6.25, 0.25, 7.64E-12, 2.7410000000000002E-11, , , , 
DataValue, 6.36, 0.25, 8.4700000000000009E-12, 2.817E-11, , , , 
DataValue, 6.47, 0.25, 8.23E-12, 2.795E-11, , , , 
DataValue, 6.58, 0.25, 8.5700000000000008E-12, 2.653E-11, , , , 
DataValue, 6.69, 0.25, 8.04E-12, 2.7080000000000002E-11, , , , 
DataValue, 6.8, 0.25, 8.55E-12, 2.8380000000000003E-11, , , , 
DataValue, 6.91, 0.25, 9.02E-12, 2.742E-11, , , , 
DataValue, 7.0200000000000005, 0.25, 9.5900000000000009E-12, 2.666E-11, , , , 
DataValue, 7.13, 0.25, 8.7900000000000011E-12, 2.591E-11, , , , 
DataValue, 7.24, 0.25, 9.13E-12, 2.9020000000000004E-11, , , , 
DataValue, 7.3500000000000005, 0.25, 9.23E-12, 2.8090000000000003E-11, , , , 
DataValue, 7.46, 0.25, 1.0020000000000001E-11, 2.631E-11, , , , 
DataValue, 7.57, 0.25, 9.0900000000000011E-12, 2.7010000000000002E-11, , , , 
DataValue, 7.68, 0.25, 9.94E-12, 2.8730000000000004E-11, , , , 
DataValue, 7.79, 0.25, 9.9100000000000012E-12, 2.8180000000000003E-11, , , , 
DataValue, 7.9, 0.25, 1.0210000000000001E-11, 2.706E-11, , , , 
DataValue, 8.01, 0.25, 1.0020000000000001E-11, 2.6610000000000002E-11, , , , 
DataValue, 8.120000000000001, 0.25, 1.0420000000000001E-11, 2.7160000000000003E-11, , , , 
DataValue, 8.23, 0.25, 1.097E-11, 2.7920000000000002E-11, , , , 
DataValue, 8.34, 0.25, 1.026E-11, 2.582E-11, , , , 
DataValue, 8.45, 0.25, 1.0220000000000001E-11, 2.5830000000000003E-11, , , , 
DataValue, 8.56, 0.25, 1.0710000000000001E-11, 2.7670000000000003E-11, , , , 
DataValue, 8.67, 0.25, 1.047E-11, 2.8320000000000002E-11, , , , 
DataValue, 8.78, 0.25, 1.149E-11, 2.593E-11, , , , 
DataValue, 8.89, 0.25, 1.17E-11, 2.5740000000000003E-11, , , , 
DataValue, 9, 0.25, 1.147E-11, 2.6480000000000002E-11, , , , 
DataValue, 9.11, 0.25, 1.1750000000000001E-11, 2.7600000000000004E-11, , , , 
DataValue, 9.22, 0.25, 1.1840000000000001E-11, 2.6590000000000002E-11, , , , 
DataValue, 9.33, 0.25, 1.1E-11, 2.6E-11, , , , 
DataValue, 9.44, 0.25, 1.22E-11, 2.6830000000000003E-11, , , , 
DataValue, 9.55, 0.25, 1.2150000000000001E-11, 2.7360000000000003E-11, , , , 
DataValue, 9.66, 0.25, 1.333E-11, 2.655E-11, , , , 
DataValue, 9.77, 0.25, 1.2170000000000002E-11, 2.564E-11, , , , 
DataValue, 9.88, 0.25, 1.3380000000000002E-11, 2.6690000000000004E-11, , , , 
DataValue, 9.99, 0.25, 1.2770000000000002E-11, 2.7080000000000002E-11, , , , 
DataValue, 10.1, 0.25, 1.3190000000000002E-11, 2.5940000000000003E-11, , , , 
DataValue, 10.21, 0.25, 1.2640000000000001E-11, 2.482E-11, , , , 
DataValue, 10.32, 0.25, 1.312E-11, 2.6390000000000002E-11, , , , 
DataValue, 10.43, 0.25, 1.4090000000000002E-11, 2.733E-11, , , , 
DataValue, 10.540000000000001, 0.25, 1.3980000000000001E-11, 2.6170000000000002E-11, , , , 
DataValue, 10.65, 0.25, 1.3600000000000002E-11, 2.4660000000000002E-11, , , , 
DataValue, 10.76, 0.25, 1.3680000000000002E-11, 2.735E-11, , , , 
DataValue, 10.870000000000001, 0.25, 1.4260000000000001E-11, 2.6990000000000002E-11, , , , 
DataValue, 10.98, 0.25, 1.51E-11, 2.5980000000000004E-11, , , , 
DataValue, 11.09, 0.25, 1.455E-11, 2.4830000000000003E-11, , , , 
DataValue, 11.200000000000001, 0.25, 1.537E-11, 2.6340000000000003E-11, , , , 
DataValue, 11.31, 0.25, 1.46E-11, 2.7590000000000002E-11, , , , 
DataValue, 11.42, 0.25, 1.4960000000000002E-11, 2.5010000000000003E-11, , , , 
DataValue, 11.53, 0.25, 1.4490000000000002E-11, 2.442E-11, , , , 
DataValue, 11.64, 0.25, 1.575E-11, 2.5590000000000002E-11, , , , 
DataValue, 11.75, 0.25, 1.5720000000000002E-11, 2.6410000000000002E-11, , , , 
DataValue, 11.86, 0.25, 1.6290000000000003E-11, 2.5850000000000003E-11, , , , 
DataValue, 11.97, 0.25, 1.548E-11, 2.4390000000000002E-11, , , , 
DataValue, 12.08, 0.25, 1.5740000000000002E-11, 2.562E-11, , , , 
DataValue, 12.19, 0.25, 1.644E-11, 2.5770000000000002E-11, , , , 
DataValue, 12.3, 0.25, 1.679E-11, 2.489E-11, , , , 
DataValue, 12.41, 0.25, 1.595E-11, 2.3830000000000003E-11, , , , 
DataValue, 12.52, 0.25, 1.6230000000000002E-11, 2.531E-11, , , , 
DataValue, 12.63, 0.25, 1.697E-11, 2.591E-11, , , , 
DataValue, 12.74, 0.25, 1.799E-11, 2.4770000000000002E-11, , , , 
DataValue, 12.85, 0.25, 1.7450000000000002E-11, 2.3660000000000002E-11, , , , 
DataValue, 12.96, 0.25, 1.732E-11, 2.4320000000000003E-11, , , , 
DataValue, 13.07, 0.25, 1.768E-11, 2.591E-11, , , , 
DataValue, 13.18, 0.25, 1.775E-11, 2.4120000000000003E-11, , , , 
DataValue, 13.290000000000001, 0.25, 1.777E-11, 2.4080000000000002E-11, , , , 
DataValue, 13.4, 0.25, 1.7800000000000003E-11, 2.4120000000000003E-11, , , , 
DataValue, 13.51, 0.25, 1.8760000000000002E-11, 2.5030000000000003E-11, , , , 
DataValue, 13.620000000000001, 0.25, 1.861E-11, 2.3920000000000003E-11, , , , 
DataValue, 13.73, 0.25, 1.9200000000000002E-11, 2.3720000000000003E-11, , , , 
DataValue, 13.84, 0.25, 1.879E-11, 2.4640000000000002E-11, , , , 
DataValue, 13.950000000000001, 0.25, 1.9640000000000003E-11, 2.491E-11, , , , 
DataValue, 14.06, 0.25, 1.948E-11, 2.3590000000000003E-11, , , , 
DataValue, 14.17, 0.25, 2.0490000000000002E-11, 2.3330000000000002E-11, , , , 
DataValue, 14.280000000000001, 0.25, 1.932E-11, 2.2330000000000002E-11, , , , 
DataValue, 14.39, 0.25, 1.992E-11, 2.44E-11, , , , 
DataValue, 14.5, 0.25, 2.0840000000000002E-11, 2.4640000000000002E-11, , , , 
DataValue, 14.61, 0.25, 2.1400000000000002E-11, 2.276E-11, , , , 
DataValue, 14.72, 0.25, 2.112E-11, 2.2500000000000003E-11, , , , 
DataValue, 14.83, 0.25, 2.2040000000000002E-11, 2.42E-11, , , , 
DataValue, 14.94, 0.25, 2.1550000000000002E-11, 2.416E-11, , , , 
DataValue, 15.05, 0.25, 2.185E-11, 2.2720000000000003E-11, , , , 
DataValue, 15.16, 0.25, 2.1970000000000003E-11, 2.254E-11, , , , 
DataValue, 15.27, 0.25, 2.2860000000000002E-11, 2.462E-11, , , , 
DataValue, 15.38, 0.25, 2.296E-11, 2.367E-11, , , , 
DataValue, 15.49, 0.25, 2.396E-11, 2.2510000000000002E-11, , , , 
DataValue, 15.6, 0.25, 2.298E-11, 2.256E-11, , , , 
DataValue, 15.71, 0.25, 2.436E-11, 2.513E-11, , , , 
DataValue, 15.82, 0.25, 2.427E-11, 2.4410000000000003E-11, , , , 
DataValue, 15.93, 0.25, 2.473E-11, 2.2110000000000002E-11, , , , 
DataValue, 16.04, 0.25, 2.4370000000000002E-11, 2.207E-11, , , , 
DataValue, 16.15, 0.25, 2.5120000000000003E-11, 2.4570000000000002E-11, , , , 
DataValue, 16.26, 0.25, 2.533E-11, 2.4950000000000002E-11, , , , 
DataValue, 16.37, 0.25, 2.6610000000000002E-11, 2.396E-11, , , , 
DataValue, 16.48, 0.25, 2.5770000000000002E-11, 2.3080000000000003E-11, , , , 
DataValue, 16.59, 0.25, 2.675E-11, 2.5860000000000002E-11, , , , 
DataValue, 16.7, 0.25, 2.6940000000000003E-11, 2.6590000000000002E-11, , , , 
DataValue, 16.81, 0.25, 2.7410000000000002E-11, 2.675E-11, , , , 
DataValue, 16.92, 0.25, 2.686E-11, 2.6280000000000002E-11, , , , 
DataValue, 17.03, 0.25, 2.7410000000000002E-11, 2.8820000000000004E-11, , , , 
DataValue, 17.14, 0.25, 2.8820000000000004E-11, 3.056E-11, , , , 
DataValue, 17.25, 0.25, 2.935E-11, 3.172E-11, , , , 
DataValue, 17.36, 0.25, 2.8760000000000003E-11, 3.3740000000000004E-11, , , , 
DataValue, 17.47, 0.25, 2.929E-11, 3.667E-11, , , , 
DataValue, 17.580000000000002, 0.25, 2.954E-11, 4.076E-11, , , , 
DataValue, 17.69, 0.25, 3.019E-11, 4.2960000000000006E-11, , , , 
DataValue, 17.8, 0.25, 3.038E-11, 4.7070000000000005E-11, , , , 
DataValue, 17.91, 0.25, 3.1340000000000005E-11, 5.3580000000000004E-11, , , , 
DataValue, 18.02, 0.25, 3.124E-11, 6.087E-11, , , , 
DataValue, 18.13, 0.25, 3.2500000000000004E-11, 6.8000000000000011E-11, , , , 
DataValue, 18.240000000000002, 0.25, 3.2140000000000005E-11, 7.7490000000000008E-11, , , , 
DataValue, 18.35, 0.25, 3.237E-11, 8.88E-11, , , , 
DataValue, 18.46, 0.25, 3.317E-11, 1.0274000000000001E-10, , , , 
DataValue, 18.57, 0.25, 3.3630000000000004E-11, 1.1835E-10, , , , 
DataValue, 18.68, 0.25, 3.324E-11, 1.3709000000000002E-10, , , , 
DataValue, 18.79, 0.25, 3.437E-11, 1.6099E-10, , , , 
DataValue, 18.900000000000002, 0.25, 3.5130000000000006E-11, 1.8934000000000002E-10, , , , 
DataValue, 19.01, 0.25, 3.566E-11, 2.2179000000000002E-10, , , , 
DataValue, 19.12, 0.25, 3.5420000000000005E-11, 2.6126000000000004E-10, , , , 
DataValue, 19.23, 0.25, 3.5560000000000004E-11, 3.0996000000000003E-10, , , , 
DataValue, 19.34, 0.25, 3.619E-11, 3.6817000000000003E-10, , , , 
DataValue, 19.45, 0.25, 3.7270000000000004E-11, 4.3511E-10, , , , 
DataValue, 19.56, 0.25, 3.765E-11, 5.1567E-10, , , , 
DataValue, 19.67, 0.25, 3.809E-11, 6.1353E-10, , , , 
DataValue, 19.78, 0.25, 3.9090000000000004E-11, 7.3014E-10, , , , 
DataValue, 19.89, 0.25, 3.9380000000000004E-11, 8.6856E-10, , , , 
DataValue, 20, 0.25, 4.0000000000000004E-11, 1.0315200000000002E-09, , , , 
DataValue, 20, 0.25, 4.014E-11, 1.03823E-09, , , , 
DataValue, 19.89, 0.25, 3.6910000000000005E-11, 9.0526E-10, , , , 
