
SetupTitle, ID-VG Postbreak
PrimitiveTest, I/V Sweep
TestParameter, Context.MainFrame, B1500A
TestParameter, Channel.UnitType, SMU, SMU
TestParameter, Channel.Unit, SMU1:MP, SMU2:MP
TestParameter, Channel.IName, I1, I2
TestParameter, Channel.VName, V1, V2
TestParameter, Channel.Mode, V, V
TestParameter, Channel.Func, VAR1, CONST
TestParameter, Channel.Index, 
TestParameter, Channel.Time, 
TestParameter, Measurement.Port.Unit, SMU1:MP, SMU2:MP
TestParameter, Measurement.Port.SeriesResistor, NONE, NONE
TestParameter, Measurement.Port.Filter, ON, ON
TestParameter, Measurement.Port.OutputVoltageComparison, 0, 0
TestParameter, Measurement.Primary.Locus, Double
TestParameter, Measurement.Primary.Scale, LINEAR
TestParameter, Measurement.Primary.Start, -2
TestParameter, Measurement.Primary.Stop, 20
TestParameter, Measurement.Primary.Step, 0.11
TestParameter, Measurement.Primary.Compliance, 0.1
TestParameter, Measurement.Primary.PowerCompliance, 0
TestParameter, Measurement.Aborting.Condition, CONTINUE AT ANY
TestParameter, Measurement.PostOutput.Value, START
TestParameter, Measurement.PostOutput.Retention, OFF
TestParameter, Measurement.Bias.Source, -2, 0.25
TestParameter, Measurement.Bias.Compliance, 0.1, 0.1
TestParameter, Measurement.Monitor.Unit, SMU1:MP, SMU2:MP
TestParameter, Measurement.Monitor.Adc, HR ADC, HR ADC
TestParameter, Measurement.Monitor.Measurement, Compliance Side, Compliance Side
TestParameter, Measurement.Monitor.RangingMode, LIMITED, LIMITED
TestParameter, Measurement.Monitor.RangeBoundary, 1nA, 1nA
TestParameter, Measurement.Monitor.RangeRating, BY FULL RANGE, BY FULL RANGE
TestParameter, Measurement.Monitor.RangeRatingCoeff, 50, 50
TestParameter, Measurement.Timing.Hold, 0
TestParameter, Measurement.Timing.Delay, 0
TestParameter, Measurement.Adc.HighSpeed.Mode, AUTO
TestParameter, Measurement.Adc.HighSpeed.Coeff, 1
TestParameter, Measurement.Adc.HighResolution.AutoZero, OFF
TestParameter, Measurement.Adc.HighResolution.Mode, AUTO
TestParameter, Measurement.Adc.HighResolution.Coeff, 6
TestParameter, Measurement.WaitTime.Source.Coeff, 1
TestParameter, Measurement.WaitTime.Source.Offset, 0
TestParameter, Measurement.WaitTime.Monitor.Coeff, 1
TestParameter, Measurement.WaitTime.Monitor.Offset, 0
TestParameter, Output.Graph.Enabled, true
TestParameter, Output.Graph.AutoScaling, false
TestParameter, Output.Graph.XAxis.Data, V1
TestParameter, Output.Graph.XAxis.Scale, Linear
TestParameter, Output.Graph.XAxis.Left, -2
TestParameter, Output.Graph.XAxis.Right, 6
TestParameter, Output.Graph.XAxis.RunTimeAutoScale, true
TestParameter, Output.Graph.YAxis.Data, I2
TestParameter, Output.Graph.YAxis.Scale, Linear
TestParameter, Output.Graph.YAxis.Bottom, -0.1
TestParameter, Output.Graph.YAxis.Top, 0.1
TestParameter, Output.Graph.YAxis.Group, 
TestParameter, Output.Graph.YAxis.RunTimeAutoScale, true
TestParameter, Output.List.Data, V1, I1, V2, I2, V3, I3, V4, I4
TestParameter, AutoAnalysis.Interpolation, false
TestParameter, AutoAnalysis.Line1.Enabled, false
TestParameter, AutoAnalysis.Line1.Type, 1
TestParameter, AutoAnalysis.Line1.Fix, True
TestParameter, AutoAnalysis.Line1.YAxis, 0
TestParameter, AutoAnalysis.Line1.Point1.Type, 0
TestParameter, AutoAnalysis.Line1.Point1.XY.X, 
TestParameter, AutoAnalysis.Line1.Point1.XY.Y, 
TestParameter, AutoAnalysis.Line1.Point1.Data.Var, 
TestParameter, AutoAnalysis.Line1.Point1.Data.Condition, 
TestParameter, AutoAnalysis.Line1.Point1.Data.Start, false
TestParameter, AutoAnalysis.Line1.Point1.Data.StartVar, 
TestParameter, AutoAnalysis.Line1.Point1.Data.StartCondition, 
TestParameter, AutoAnalysis.Line1.Point2.Type, 0
TestParameter, AutoAnalysis.Line1.Point2.XY.X, 
TestParameter, AutoAnalysis.Line1.Point2.XY.Y, 
TestParameter, AutoAnalysis.Line1.Point2.Data.Var, 
TestParameter, AutoAnalysis.Line1.Point2.Data.Condition, 
TestParameter, AutoAnalysis.Line1.Point2.Data.Start, false
TestParameter, AutoAnalysis.Line1.Point2.Data.StartVar, 
TestParameter, AutoAnalysis.Line1.Point2.Data.StartCondition, 
TestParameter, AutoAnalysis.Line1.GradientExpr, 0
TestParameter, AutoAnalysis.Line2.Enabled, false
TestParameter, AutoAnalysis.Line2.Type, 1
TestParameter, AutoAnalysis.Line2.Fix, True
TestParameter, AutoAnalysis.Line2.YAxis, 0
TestParameter, AutoAnalysis.Line2.Point1.Type, 0
TestParameter, AutoAnalysis.Line2.Point1.XY.X, 
TestParameter, AutoAnalysis.Line2.Point1.XY.Y, 
TestParameter, AutoAnalysis.Line2.Point1.Data.Var, 
TestParameter, AutoAnalysis.Line2.Point1.Data.Condition, 
TestParameter, AutoAnalysis.Line2.Point1.Data.Start, false
TestParameter, AutoAnalysis.Line2.Point1.Data.StartVar, 
TestParameter, AutoAnalysis.Line2.Point1.Data.StartCondition, 
TestParameter, AutoAnalysis.Line2.Point2.Type, 0
TestParameter, AutoAnalysis.Line2.Point2.XY.X, 
TestParameter, AutoAnalysis.Line2.Point2.XY.Y, 
TestParameter, AutoAnalysis.Line2.Point2.Data.Var, 
TestParameter, AutoAnalysis.Line2.Point2.Data.Condition, 
TestParameter, AutoAnalysis.Line2.Point2.Data.Start, false
TestParameter, AutoAnalysis.Line2.Point2.Data.StartVar, 
TestParameter, AutoAnalysis.Line2.Point2.Data.StartCondition, 
TestParameter, AutoAnalysis.Line2.GradientExpr, 0
TestParameter, AutoAnalysis.Marker.Enabled, false
TestParameter, AutoAnalysis.Marker.Data.Var, 
TestParameter, AutoAnalysis.Marker.Data.Condition, 
TestParameter, AutoAnalysis.Marker.Data.Start, false
TestParameter, AutoAnalysis.Marker.Data.StartVar, 
TestParameter, AutoAnalysis.Marker.Data.StartCondition, 
MetaData, TestRecord.EntryPoint, true
MetaData, TestRecord.RecordTime, 03/10/2023 17:17:44
MetaData, TestRecord.TestTarget, 
MetaData, TestRecord.IterationIndex, 53
MetaData, TestRecord.Preservation, true
MetaData, TestRecord.Flag, 
MetaData, TestRecord.Remarks, 
MetaData, TestRecord.LinkKey, 164543dc-b96b-4826-8a37-13e475611e41
Dimension1, 402, 402, 402, 402, 402, 402, 402, 402
Dimension2, 1, 1, 1, 1, 1, 1, 1, 1
DataName, V1, V2, I1, I2, V3, I3, V4, I4
DataValue, -2, 0.25, -5.48E-12, 3.069E-11, , , , 
DataValue, -1.8900000000000001, 0.25, -3.35E-12, 2.8400000000000003E-11, , , , 
DataValue, -1.78, 0.25, -1.6700000000000002E-12, 2.9850000000000005E-11, , , , 
DataValue, -1.67, 0.25, -1.18E-12, 3.08E-11, , , , 
DataValue, -1.56, 0.25, -9.9E-13, 2.8890000000000003E-11, , , , 
DataValue, -1.45, 0.25, -1.1100000000000001E-12, 2.925E-11, , , , 
DataValue, -1.34, 0.25, -9.4E-13, 3.0020000000000003E-11, , , , 
DataValue, -1.23, 0.25, 7E-14, 3.0320000000000005E-11, , , , 
DataValue, -1.12, 0.25, 4.8000000000000008E-13, 2.935E-11, , , , 
DataValue, -1.01, 0.25, 2.6E-13, 2.859E-11, , , , 
DataValue, -0.9, 0.25, 6.1E-13, 2.9620000000000003E-11, , , , 
DataValue, -0.79, 0.25, 8.300000000000001E-13, 2.96E-11, , , , 
DataValue, -0.68, 0.25, 1.8100000000000002E-12, 2.8830000000000002E-11, , , , 
DataValue, -0.57000000000000006, 0.25, 9.8E-13, 2.8290000000000003E-11, , , , 
DataValue, -0.46, 0.25, 1.27E-12, 2.8920000000000002E-11, , , , 
DataValue, -0.35000000000000003, 0.25, 1.13E-12, 2.9660000000000004E-11, , , , 
DataValue, -0.24, 0.25, 2.21E-12, 2.917E-11, , , , 
DataValue, -0.13, 0.25, 1.09E-12, 2.8800000000000003E-11, , , , 
DataValue, -0.02, 0.25, 1.7500000000000002E-12, 2.8430000000000002E-11, , , , 
DataValue, 0.09, 0.25, 2.3000000000000003E-12, 3.0320000000000005E-11, , , , 
DataValue, 0.2, 0.25, 1.98E-12, 2.906E-11, , , , 
DataValue, 0.31, 0.25, 1.8000000000000002E-12, 2.7670000000000003E-11, , , , 
DataValue, 0.42, 0.25, 1.51E-12, 2.991E-11, , , , 
DataValue, 0.53, 0.25, 2.9E-12, 3.0210000000000005E-11, , , , 
DataValue, 0.64, 0.25, 2.8E-12, 2.8740000000000002E-11, , , , 
DataValue, 0.75, 0.25, 2.79E-12, 2.8760000000000003E-11, , , , 
DataValue, 0.86, 0.25, 2.03E-12, 2.8230000000000002E-11, , , , 
DataValue, 0.97, 0.25, 2.9400000000000004E-12, 3.0790000000000004E-11, , , , 
DataValue, 1.08, 0.25, 2.8400000000000004E-12, 2.927E-11, , , , 
DataValue, 1.19, 0.25, 2.9400000000000004E-12, 2.8910000000000003E-11, , , , 
DataValue, 1.3, 0.25, 3.28E-12, 2.7650000000000003E-11, , , , 
DataValue, 1.41, 0.25, 3.65E-12, 2.906E-11, , , , 
DataValue, 1.52, 0.25, 3.5200000000000003E-12, 2.9920000000000005E-11, , , , 
DataValue, 1.6300000000000001, 0.25, 3.1200000000000004E-12, 2.8580000000000003E-11, , , , 
DataValue, 1.74, 0.25, 3.3700000000000004E-12, 2.848E-11, , , , 
DataValue, 1.85, 0.25, 3.5200000000000003E-12, 2.8340000000000002E-11, , , , 
DataValue, 1.96, 0.25, 3.91E-12, 2.9810000000000005E-11, , , , 
DataValue, 2.07, 0.25, 4.2500000000000007E-12, 2.8250000000000003E-11, , , , 
DataValue, 2.18, 0.25, 3.7E-12, 2.6900000000000002E-11, , , , 
DataValue, 2.29, 0.25, 3.6400000000000006E-12, 2.8800000000000003E-11, , , , 
DataValue, 2.4, 0.25, 4.36E-12, 3.004E-11, , , , 
DataValue, 2.5100000000000002, 0.25, 4.0500000000000007E-12, 2.671E-11, , , , 
DataValue, 2.62, 0.25, 4.08E-12, 2.7200000000000004E-11, , , , 
DataValue, 2.73, 0.25, 3.7300000000000005E-12, 2.7810000000000002E-11, , , , 
DataValue, 2.84, 0.25, 4.52E-12, 2.98E-11, , , , 
DataValue, 2.95, 0.25, 4.43E-12, 2.7960000000000003E-11, , , , 
DataValue, 3.06, 0.25, 4.58E-12, 2.746E-11, , , , 
DataValue, 3.17, 0.25, 4.2900000000000005E-12, 2.782E-11, , , , 
DataValue, 3.2800000000000002, 0.25, 5.3000000000000004E-12, 2.8920000000000002E-11, , , , 
DataValue, 3.39, 0.25, 5.02E-12, 2.846E-11, , , , 
DataValue, 3.5, 0.25, 4.6000000000000006E-12, 2.673E-11, , , , 
DataValue, 3.61, 0.25, 4.4400000000000005E-12, 2.782E-11, , , , 
DataValue, 3.72, 0.25, 5.13E-12, 2.833E-11, , , , 
DataValue, 3.83, 0.25, 5.19E-12, 2.7390000000000002E-11, , , , 
DataValue, 3.94, 0.25, 5.3000000000000004E-12, 2.7430000000000002E-11, , , , 
DataValue, 4.05, 0.25, 5.1700000000000008E-12, 2.6940000000000003E-11, , , , 
DataValue, 4.16, 0.25, 5.2200000000000008E-12, 2.884E-11, , , , 
DataValue, 4.2700000000000005, 0.25, 6.15E-12, 2.9010000000000002E-11, , , , 
DataValue, 4.38, 0.25, 5.3500000000000004E-12, 2.7980000000000003E-11, , , , 
DataValue, 4.49, 0.25, 6.05E-12, 2.7010000000000002E-11, , , , 
DataValue, 4.6000000000000005, 0.25, 5.7700000000000007E-12, 2.7850000000000003E-11, , , , 
DataValue, 4.71, 0.25, 6.14E-12, 2.928E-11, , , , 
DataValue, 4.82, 0.25, 5.9200000000000006E-12, 2.693E-11, , , , 
DataValue, 4.93, 0.25, 6.66E-12, 2.611E-11, , , , 
DataValue, 5.04, 0.25, 6.0600000000000004E-12, 2.773E-11, , , , 
DataValue, 5.15, 0.25, 7.34E-12, 2.9020000000000004E-11, , , , 
DataValue, 5.26, 0.25, 6.91E-12, 2.7080000000000002E-11, , , , 
DataValue, 5.37, 0.25, 6.9400000000000007E-12, 2.6140000000000003E-11, , , , 
DataValue, 5.48, 0.25, 5.89E-12, 2.7230000000000003E-11, , , , 
DataValue, 5.59, 0.25, 7.44E-12, 2.848E-11, , , , 
DataValue, 5.7, 0.25, 7.3E-12, 2.6980000000000003E-11, , , , 
DataValue, 5.8100000000000005, 0.25, 6.7900000000000008E-12, 2.6210000000000002E-11, , , , 
DataValue, 5.92, 0.25, 6.51E-12, 2.7090000000000004E-11, , , , 
DataValue, 6.03, 0.25, 7.9E-12, 2.835E-11, , , , 
DataValue, 6.1400000000000006, 0.25, 7.49E-12, 2.7230000000000003E-11, , , , 
DataValue, 6.25, 0.25, 7.65E-12, 2.6690000000000004E-11, , , , 
DataValue, 6.36, 0.25, 7.92E-12, 2.6210000000000002E-11, , , , 
DataValue, 6.47, 0.25, 8.780000000000001E-12, 2.8220000000000004E-11, , , , 
DataValue, 6.58, 0.25, 8.3000000000000014E-12, 2.7610000000000002E-11, , , , 
DataValue, 6.69, 0.25, 8.1700000000000009E-12, 2.6540000000000003E-11, , , , 
DataValue, 6.8, 0.25, 8.14E-12, 2.6470000000000003E-11, , , , 
DataValue, 6.91, 0.25, 8.41E-12, 2.817E-11, , , , 
DataValue, 7.0200000000000005, 0.25, 8.780000000000001E-12, 2.7200000000000004E-11, , , , 
DataValue, 7.13, 0.25, 8.380000000000001E-12, 2.5880000000000002E-11, , , , 
DataValue, 7.24, 0.25, 9.46E-12, 2.62E-11, , , , 
DataValue, 7.3500000000000005, 0.25, 9.14E-12, 2.742E-11, , , , 
DataValue, 7.46, 0.25, 9.75E-12, 2.7180000000000003E-11, , , , 
DataValue, 7.57, 0.25, 9.25E-12, 2.5410000000000003E-11, , , , 
DataValue, 7.68, 0.25, 9.5000000000000011E-12, 2.489E-11, , , , 
DataValue, 7.79, 0.25, 9.33E-12, 2.7080000000000002E-11, , , , 
DataValue, 7.9, 0.25, 1.0520000000000001E-11, 2.7650000000000003E-11, , , , 
DataValue, 8.01, 0.25, 1.0030000000000002E-11, 2.5970000000000002E-11, , , , 
DataValue, 8.120000000000001, 0.25, 9.4100000000000013E-12, 2.5160000000000003E-11, , , , 
DataValue, 8.23, 0.25, 1.028E-11, 2.6870000000000003E-11, , , , 
DataValue, 8.34, 0.25, 1.047E-11, 2.7720000000000002E-11, , , , 
DataValue, 8.45, 0.25, 1.0330000000000001E-11, 2.533E-11, , , , 
DataValue, 8.56, 0.25, 1.046E-11, 2.5E-11, , , , 
DataValue, 8.67, 0.25, 1.0320000000000001E-11, 2.695E-11, , , , 
DataValue, 8.78, 0.25, 1.1360000000000002E-11, 2.6920000000000002E-11, , , , 
DataValue, 8.89, 0.25, 1.109E-11, 2.5590000000000002E-11, , , , 
DataValue, 9, 0.25, 1.1130000000000001E-11, 2.476E-11, , , , 
DataValue, 9.11, 0.25, 1.087E-11, 2.6630000000000003E-11, , , , 
DataValue, 9.22, 0.25, 1.169E-11, 2.735E-11, , , , 
DataValue, 9.33, 0.25, 1.1620000000000001E-11, 2.544E-11, , , , 
DataValue, 9.44, 0.25, 1.2020000000000001E-11, 2.4950000000000002E-11, , , , 
DataValue, 9.55, 0.25, 1.147E-11, 2.4940000000000003E-11, , , , 
DataValue, 9.66, 0.25, 1.2320000000000001E-11, 2.697E-11, , , , 
DataValue, 9.77, 0.25, 1.2020000000000001E-11, 2.646E-11, , , , 
DataValue, 9.88, 0.25, 1.1450000000000002E-11, 2.462E-11, , , , 
DataValue, 9.99, 0.25, 1.1760000000000002E-11, 2.5660000000000002E-11, , , , 
DataValue, 10.1, 0.25, 1.33E-11, 2.6630000000000003E-11, , , , 
DataValue, 10.21, 0.25, 1.2160000000000002E-11, 2.6320000000000003E-11, , , , 
DataValue, 10.32, 0.25, 1.2470000000000002E-11, 2.4830000000000003E-11, , , , 
DataValue, 10.43, 0.25, 1.24E-11, 2.4500000000000003E-11, , , , 
DataValue, 10.540000000000001, 0.25, 1.3370000000000001E-11, 2.664E-11, , , , 
DataValue, 10.65, 0.25, 1.3190000000000002E-11, 2.6140000000000003E-11, , , , 
DataValue, 10.76, 0.25, 1.3480000000000002E-11, 2.509E-11, , , , 
DataValue, 10.870000000000001, 0.25, 1.3460000000000001E-11, 2.484E-11, , , , 
DataValue, 10.98, 0.25, 1.394E-11, 2.6740000000000003E-11, , , , 
DataValue, 11.09, 0.25, 1.4480000000000001E-11, 2.467E-11, , , , 
DataValue, 11.200000000000001, 0.25, 1.402E-11, 2.3920000000000003E-11, , , , 
DataValue, 11.31, 0.25, 1.3870000000000001E-11, 2.4520000000000003E-11, , , , 
DataValue, 11.42, 0.25, 1.3850000000000001E-11, 2.635E-11, , , , 
DataValue, 11.53, 0.25, 1.452E-11, 2.476E-11, , , , 
DataValue, 11.64, 0.25, 1.4760000000000003E-11, 2.358E-11, , , , 
DataValue, 11.75, 0.25, 1.423E-11, 2.4260000000000002E-11, , , , 
DataValue, 11.86, 0.25, 1.553E-11, 2.524E-11, , , , 
DataValue, 11.97, 0.25, 1.464E-11, 2.4720000000000003E-11, , , , 
DataValue, 12.08, 0.25, 1.537E-11, 2.371E-11, , , , 
DataValue, 12.19, 0.25, 1.489E-11, 2.3440000000000002E-11, , , , 
DataValue, 12.3, 0.25, 1.541E-11, 2.5410000000000003E-11, , , , 
DataValue, 12.41, 0.25, 1.6160000000000002E-11, 2.502E-11, , , , 
DataValue, 12.52, 0.25, 1.6E-11, 2.3550000000000002E-11, , , , 
DataValue, 12.63, 0.25, 1.55E-11, 2.378E-11, , , , 
DataValue, 12.74, 0.25, 1.6870000000000002E-11, 2.5830000000000003E-11, , , , 
DataValue, 12.85, 0.25, 1.653E-11, 2.3830000000000003E-11, , , , 
DataValue, 12.96, 0.25, 1.692E-11, 2.3460000000000002E-11, , , , 
DataValue, 13.07, 0.25, 1.684E-11, 2.42E-11, , , , 
DataValue, 13.18, 0.25, 1.757E-11, 2.5100000000000003E-11, , , , 
DataValue, 13.290000000000001, 0.25, 1.726E-11, 2.405E-11, , , , 
DataValue, 13.4, 0.25, 1.8330000000000003E-11, 2.314E-11, , , , 
DataValue, 13.51, 0.25, 1.7050000000000002E-11, 2.3170000000000002E-11, , , , 
DataValue, 13.620000000000001, 0.25, 1.824E-11, 2.4720000000000003E-11, , , , 
DataValue, 13.73, 0.25, 1.8180000000000002E-11, 2.3940000000000003E-11, , , , 
DataValue, 13.84, 0.25, 1.843E-11, 2.2330000000000002E-11, , , , 
DataValue, 13.950000000000001, 0.25, 1.812E-11, 2.3300000000000003E-11, , , , 
DataValue, 14.06, 0.25, 1.954E-11, 2.4550000000000002E-11, , , , 
DataValue, 14.17, 0.25, 1.937E-11, 2.4150000000000002E-11, , , , 
DataValue, 14.280000000000001, 0.25, 1.905E-11, 2.201E-11, , , , 
DataValue, 14.39, 0.25, 1.837E-11, 2.2610000000000003E-11, , , , 
DataValue, 14.5, 0.25, 1.952E-11, 2.471E-11, , , , 
DataValue, 14.61, 0.25, 2.0240000000000003E-11, 2.489E-11, , , , 
DataValue, 14.72, 0.25, 2.012E-11, 2.345E-11, , , , 
DataValue, 14.83, 0.25, 2.025E-11, 2.26E-11, , , , 
DataValue, 14.94, 0.25, 1.9950000000000003E-11, 2.3930000000000002E-11, , , , 
DataValue, 15.05, 0.25, 2.107E-11, 2.4950000000000002E-11, , , , 
DataValue, 15.16, 0.25, 2.112E-11, 2.338E-11, , , , 
DataValue, 15.27, 0.25, 2.0890000000000002E-11, 2.2680000000000003E-11, , , , 
DataValue, 15.38, 0.25, 2.15E-11, 2.551E-11, , , , 
DataValue, 15.49, 0.25, 2.216E-11, 2.549E-11, , , , 
DataValue, 15.6, 0.25, 2.167E-11, 2.4650000000000003E-11, , , , 
DataValue, 15.71, 0.25, 2.2500000000000003E-11, 2.451E-11, , , , 
DataValue, 15.82, 0.25, 2.265E-11, 2.6760000000000003E-11, , , , 
DataValue, 15.93, 0.25, 2.336E-11, 2.7780000000000003E-11, , , , 
DataValue, 16.04, 0.25, 2.3860000000000002E-11, 2.737E-11, , , , 
DataValue, 16.15, 0.25, 2.3080000000000003E-11, 2.7900000000000002E-11, , , , 
DataValue, 16.26, 0.25, 2.427E-11, 3.092E-11, , , , 
DataValue, 16.37, 0.25, 2.369E-11, 3.139E-11, , , , 
DataValue, 16.48, 0.25, 2.491E-11, 3.241E-11, , , , 
DataValue, 16.59, 0.25, 2.4790000000000002E-11, 3.474E-11, , , , 
DataValue, 16.7, 0.25, 2.529E-11, 3.9170000000000005E-11, , , , 
DataValue, 16.81, 0.25, 2.544E-11, 4.1710000000000004E-11, , , , 
DataValue, 16.92, 0.25, 2.529E-11, 4.446E-11, , , , 
DataValue, 17.03, 0.25, 2.5170000000000002E-11, 4.901E-11, , , , 
DataValue, 17.14, 0.25, 2.691E-11, 5.6800000000000007E-11, , , , 
DataValue, 17.25, 0.25, 2.6780000000000003E-11, 6.3900000000000007E-11, , , , 
DataValue, 17.36, 0.25, 2.6690000000000004E-11, 7.0730000000000011E-11, , , , 
DataValue, 17.47, 0.25, 2.6630000000000003E-11, 8.02E-11, , , , 
DataValue, 17.580000000000002, 0.25, 2.7960000000000003E-11, 9.348000000000001E-11, , , , 
DataValue, 17.69, 0.25, 2.7850000000000003E-11, 1.0774000000000001E-10, , , , 
DataValue, 17.8, 0.25, 2.886E-11, 1.2317E-10, , , , 
DataValue, 17.91, 0.25, 2.8230000000000002E-11, 1.4245E-10, , , , 
DataValue, 18.02, 0.25, 2.8600000000000003E-11, 1.6779000000000002E-10, , , , 
DataValue, 18.13, 0.25, 3.0210000000000005E-11, 1.978E-10, , , , 
DataValue, 18.240000000000002, 0.25, 2.9700000000000005E-11, 2.3013E-10, , , , 
DataValue, 18.35, 0.25, 3.0900000000000004E-11, 2.7045000000000003E-10, , , , 
DataValue, 18.46, 0.25, 3.062E-11, 3.1884E-10, , , , 
DataValue, 18.57, 0.25, 3.1990000000000004E-11, 3.7752E-10, , , , 
DataValue, 18.68, 0.25, 3.151E-11, 4.4535E-10, , , , 
DataValue, 18.79, 0.25, 3.2030000000000005E-11, 5.2598000000000008E-10, , , , 
DataValue, 18.900000000000002, 0.25, 3.1960000000000005E-11, 6.241900000000001E-10, , , , 
DataValue, 19.01, 0.25, 3.3700000000000004E-11, 7.3998000000000006E-10, , , , 
DataValue, 19.12, 0.25, 3.333E-11, 8.7623000000000009E-10, , , , 
DataValue, 19.23, 0.25, 3.302E-11, 1.03806E-09, , , , 
DataValue, 19.34, 0.25, 3.424E-11, 1.2474E-09, , , , 
DataValue, 19.45, 0.25, 3.346E-11, 1.4797E-09, , , , 
DataValue, 19.56, 0.25, 3.47E-11, 1.7545E-09, , , , 
DataValue, 19.67, 0.25, 3.598E-11, 2.0759E-09, , , , 
DataValue, 19.78, 0.25, 3.5750000000000006E-11, 2.46E-09, , , , 
DataValue, 19.89, 0.25, 3.707E-11, 2.918E-09, , , , 
DataValue, 20, 0.25, 3.7350000000000005E-11, 3.4568E-09, , , , 
DataValue, 20, 0.25, 3.627E-11, 3.4709E-09, , , , 
DataValue, 19.89, 0.25, 3.5340000000000004E-11, 3.0158E-09, , , , 
DataValue, 19.78, 0.25, 3.278E-11, 2.5996E-09, , , , 
DataValue, 19.67, 0.25, 3.154E-11, 2.2412E-09, , , , 
DataValue, 19.56, 0.25, 2.94E-11, 1.9276E-09, , , , 
