
SetupTitle, ID-VG Postbreak
PrimitiveTest, I/V Sweep
TestParameter, Context.MainFrame, B1500A
TestParameter, Channel.UnitType, SMU, SMU
TestParameter, Channel.Unit, SMU1:MP, SMU2:MP
TestParameter, Channel.IName, I1, I2
TestParameter, Channel.VName, V1, V2
TestParameter, Channel.Mode, V, V
TestParameter, Channel.Func, VAR1, CONST
TestParameter, Channel.Index, 
TestParameter, Channel.Time, 
TestParameter, Measurement.Port.Unit, SMU1:MP, SMU2:MP
TestParameter, Measurement.Port.SeriesResistor, NONE, NONE
TestParameter, Measurement.Port.Filter, ON, ON
TestParameter, Measurement.Port.OutputVoltageComparison, 0, 0
TestParameter, Measurement.Primary.Locus, Double
TestParameter, Measurement.Primary.Scale, LINEAR
TestParameter, Measurement.Primary.Start, -2
TestParameter, Measurement.Primary.Stop, 20
TestParameter, Measurement.Primary.Step, 0.11
TestParameter, Measurement.Primary.Compliance, 0.1
TestParameter, Measurement.Primary.PowerCompliance, 0
TestParameter, Measurement.Aborting.Condition, CONTINUE AT ANY
TestParameter, Measurement.PostOutput.Value, START
TestParameter, Measurement.PostOutput.Retention, OFF
TestParameter, Measurement.Bias.Source, -2, 0.25
TestParameter, Measurement.Bias.Compliance, 0.1, 0.1
TestParameter, Measurement.Monitor.Unit, SMU1:MP, SMU2:MP
TestParameter, Measurement.Monitor.Adc, HR ADC, HR ADC
TestParameter, Measurement.Monitor.Measurement, Compliance Side, Compliance Side
TestParameter, Measurement.Monitor.RangingMode, LIMITED, LIMITED
TestParameter, Measurement.Monitor.RangeBoundary, 1nA, 1nA
TestParameter, Measurement.Monitor.RangeRating, BY FULL RANGE, BY FULL RANGE
TestParameter, Measurement.Monitor.RangeRatingCoeff, 50, 50
TestParameter, Measurement.Timing.Hold, 0
TestParameter, Measurement.Timing.Delay, 0
TestParameter, Measurement.Adc.HighSpeed.Mode, AUTO
TestParameter, Measurement.Adc.HighSpeed.Coeff, 1
TestParameter, Measurement.Adc.HighResolution.AutoZero, OFF
TestParameter, Measurement.Adc.HighResolution.Mode, AUTO
TestParameter, Measurement.Adc.HighResolution.Coeff, 6
TestParameter, Measurement.WaitTime.Source.Coeff, 1
TestParameter, Measurement.WaitTime.Source.Offset, 0
TestParameter, Measurement.WaitTime.Monitor.Coeff, 1
TestParameter, Measurement.WaitTime.Monitor.Offset, 0
TestParameter, Output.Graph.Enabled, true
TestParameter, Output.Graph.AutoScaling, false
TestParameter, Output.Graph.XAxis.Data, V1
TestParameter, Output.Graph.XAxis.Scale, Linear
TestParameter, Output.Graph.XAxis.Left, -2
TestParameter, Output.Graph.XAxis.Right, 6
TestParameter, Output.Graph.XAxis.RunTimeAutoScale, true
TestParameter, Output.Graph.YAxis.Data, I2
TestParameter, Output.Graph.YAxis.Scale, Linear
TestParameter, Output.Graph.YAxis.Bottom, -0.1
TestParameter, Output.Graph.YAxis.Top, 0.1
TestParameter, Output.Graph.YAxis.Group, 
TestParameter, Output.Graph.YAxis.RunTimeAutoScale, true
TestParameter, Output.List.Data, V1, I1, V2, I2, V3, I3, V4, I4
TestParameter, AutoAnalysis.Interpolation, false
TestParameter, AutoAnalysis.Line1.Enabled, false
TestParameter, AutoAnalysis.Line1.Type, 1
TestParameter, AutoAnalysis.Line1.Fix, True
TestParameter, AutoAnalysis.Line1.YAxis, 0
TestParameter, AutoAnalysis.Line1.Point1.Type, 0
TestParameter, AutoAnalysis.Line1.Point1.XY.X, 
TestParameter, AutoAnalysis.Line1.Point1.XY.Y, 
TestParameter, AutoAnalysis.Line1.Point1.Data.Var, 
TestParameter, AutoAnalysis.Line1.Point1.Data.Condition, 
TestParameter, AutoAnalysis.Line1.Point1.Data.Start, false
TestParameter, AutoAnalysis.Line1.Point1.Data.StartVar, 
TestParameter, AutoAnalysis.Line1.Point1.Data.StartCondition, 
TestParameter, AutoAnalysis.Line1.Point2.Type, 0
TestParameter, AutoAnalysis.Line1.Point2.XY.X, 
TestParameter, AutoAnalysis.Line1.Point2.XY.Y, 
TestParameter, AutoAnalysis.Line1.Point2.Data.Var, 
TestParameter, AutoAnalysis.Line1.Point2.Data.Condition, 
TestParameter, AutoAnalysis.Line1.Point2.Data.Start, false
TestParameter, AutoAnalysis.Line1.Point2.Data.StartVar, 
TestParameter, AutoAnalysis.Line1.Point2.Data.StartCondition, 
TestParameter, AutoAnalysis.Line1.GradientExpr, 0
TestParameter, AutoAnalysis.Line2.Enabled, false
TestParameter, AutoAnalysis.Line2.Type, 1
TestParameter, AutoAnalysis.Line2.Fix, True
TestParameter, AutoAnalysis.Line2.YAxis, 0
TestParameter, AutoAnalysis.Line2.Point1.Type, 0
TestParameter, AutoAnalysis.Line2.Point1.XY.X, 
TestParameter, AutoAnalysis.Line2.Point1.XY.Y, 
TestParameter, AutoAnalysis.Line2.Point1.Data.Var, 
TestParameter, AutoAnalysis.Line2.Point1.Data.Condition, 
TestParameter, AutoAnalysis.Line2.Point1.Data.Start, false
TestParameter, AutoAnalysis.Line2.Point1.Data.StartVar, 
TestParameter, AutoAnalysis.Line2.Point1.Data.StartCondition, 
TestParameter, AutoAnalysis.Line2.Point2.Type, 0
TestParameter, AutoAnalysis.Line2.Point2.XY.X, 
TestParameter, AutoAnalysis.Line2.Point2.XY.Y, 
TestParameter, AutoAnalysis.Line2.Point2.Data.Var, 
TestParameter, AutoAnalysis.Line2.Point2.Data.Condition, 
TestParameter, AutoAnalysis.Line2.Point2.Data.Start, false
TestParameter, AutoAnalysis.Line2.Point2.Data.StartVar, 
TestParameter, AutoAnalysis.Line2.Point2.Data.StartCondition, 
TestParameter, AutoAnalysis.Line2.GradientExpr, 0
TestParameter, AutoAnalysis.Marker.Enabled, false
TestParameter, AutoAnalysis.Marker.Data.Var, 
TestParameter, AutoAnalysis.Marker.Data.Condition, 
TestParameter, AutoAnalysis.Marker.Data.Start, false
TestParameter, AutoAnalysis.Marker.Data.StartVar, 
TestParameter, AutoAnalysis.Marker.Data.StartCondition, 
MetaData, TestRecord.EntryPoint, true
MetaData, TestRecord.RecordTime, 03/10/2023 17:16:38
MetaData, TestRecord.TestTarget, 
MetaData, TestRecord.IterationIndex, 51
MetaData, TestRecord.Preservation, true
MetaData, TestRecord.Flag, 
MetaData, TestRecord.Remarks, 
MetaData, TestRecord.LinkKey, 85eeab91-1188-4111-b618-c8f1f59671ee
Dimension1, 402, 402, 402, 402, 402, 402, 402, 402
Dimension2, 1, 1, 1, 1, 1, 1, 1, 1
DataName, V1, V2, I1, I2, V3, I3, V4, I4
DataValue, -2, 0.25, -9.8000000000000011E-12, 0.00031884000000000003, , , , 
DataValue, -1.8900000000000001, 0.25, -6.19E-12, 0.00031886, , , , 
DataValue, -1.78, 0.25, -4.06E-12, 0.00031884000000000003, , , , 
DataValue, -1.67, 0.25, -2.09E-12, 0.00031886, , , , 
DataValue, -1.56, 0.25, -1.91E-12, 0.00031886, , , , 
DataValue, -1.45, 0.25, -1.1500000000000002E-12, 0.00031884000000000003, , , , 
DataValue, -1.34, 0.25, -8.300000000000001E-13, 0.00031884000000000003, , , , 
DataValue, -1.23, 0.25, 1.0000000000000002E-14, 0.00031886, , , , 
DataValue, -1.12, 0.25, 1E-12, 0.00031886, , , , 
DataValue, -1.01, 0.25, 6.5000000000000006E-13, 0.00031888, , , , 
DataValue, -0.9, 0.25, 1.4300000000000002E-12, 0.00031888, , , , 
DataValue, -0.79, 0.25, 1.79E-12, 0.00031886, , , , 
DataValue, -0.68, 0.25, 1.9400000000000002E-12, 0.00031886, , , , 
DataValue, -0.57000000000000006, 0.25, 2.59E-12, 0.00031886, , , , 
DataValue, -0.46, 0.25, 2.8800000000000002E-12, 0.00031886, , , , 
DataValue, -0.35000000000000003, 0.25, 2.08E-12, 0.00031888, , , , 
DataValue, -0.24, 0.25, 2.44E-12, 0.00031884000000000003, , , , 
DataValue, -0.13, 0.25, 3.33E-12, 0.00031886, , , , 
DataValue, -0.02, 0.25, 3.4400000000000003E-12, 0.0003189, , , , 
DataValue, 0.09, 0.25, 3.67E-12, 0.0003189, , , , 
DataValue, 0.2, 0.25, 3.8300000000000004E-12, 0.00031886, , , , 
DataValue, 0.31, 0.25, 4.0900000000000005E-12, 0.00031886, , , , 
DataValue, 0.42, 0.25, 4.73E-12, 0.00031888, , , , 
DataValue, 0.53, 0.25, 4.63E-12, 0.00031886, , , , 
DataValue, 0.64, 0.25, 5.2600000000000006E-12, 0.00031886, , , , 
DataValue, 0.75, 0.25, 4.79E-12, 0.00031886, , , , 
DataValue, 0.86, 0.25, 4.72E-12, 0.00031888, , , , 
DataValue, 0.97, 0.25, 4.73E-12, 0.00031886, , , , 
DataValue, 1.08, 0.25, 5.2500000000000004E-12, 0.0003189, , , , 
DataValue, 1.19, 0.25, 5.59E-12, 0.00031884000000000003, , , , 
DataValue, 1.3, 0.25, 5.5100000000000006E-12, 0.00031888, , , , 
DataValue, 1.41, 0.25, 6.3300000000000007E-12, 0.00031886, , , , 
DataValue, 1.52, 0.25, 6.31E-12, 0.0003189, , , , 
DataValue, 1.6300000000000001, 0.25, 5.84E-12, 0.0003189, , , , 
DataValue, 1.74, 0.25, 6.5900000000000008E-12, 0.00031886, , , , 
DataValue, 1.85, 0.25, 6.6200000000000005E-12, 0.00031888, , , , 
DataValue, 1.96, 0.25, 6.3900000000000008E-12, 0.00031886, , , , 
DataValue, 2.07, 0.25, 7.31E-12, 0.00031886, , , , 
DataValue, 2.18, 0.25, 6.97E-12, 0.0003189, , , , 
DataValue, 2.29, 0.25, 6.8300000000000006E-12, 0.00031886, , , , 
DataValue, 2.4, 0.25, 6.7900000000000008E-12, 0.00031886, , , , 
DataValue, 2.5100000000000002, 0.25, 7.07E-12, 0.00031886, , , , 
DataValue, 2.62, 0.25, 7.0400000000000007E-12, 0.00031886, , , , 
DataValue, 2.73, 0.25, 8.83E-12, 0.00031884000000000003, , , , 
DataValue, 2.84, 0.25, 8.13E-12, 0.00031886, , , , 
DataValue, 2.95, 0.25, 7.92E-12, 0.00031886, , , , 
DataValue, 3.06, 0.25, 7.81E-12, 0.00031886, , , , 
DataValue, 3.17, 0.25, 8.1800000000000011E-12, 0.00031886, , , , 
DataValue, 3.2800000000000002, 0.25, 8.35E-12, 0.00031884000000000003, , , , 
DataValue, 3.39, 0.25, 8.82E-12, 0.0003189, , , , 
DataValue, 3.5, 0.25, 7.83E-12, 0.00031886, , , , 
DataValue, 3.61, 0.25, 9.04E-12, 0.00031884000000000003, , , , 
DataValue, 3.72, 0.25, 8.7000000000000013E-12, 0.00031886, , , , 
DataValue, 3.83, 0.25, 9.7000000000000011E-12, 0.00031888, , , , 
DataValue, 3.94, 0.25, 9.57E-12, 0.00031888, , , , 
DataValue, 4.05, 0.25, 9.04E-12, 0.0003189, , , , 
DataValue, 4.16, 0.25, 9.5900000000000009E-12, 0.00031886, , , , 
DataValue, 4.2700000000000005, 0.25, 9.76E-12, 0.00031886, , , , 
DataValue, 4.38, 0.25, 9.9200000000000014E-12, 0.00031886, , , , 
DataValue, 4.49, 0.25, 1.1310000000000001E-11, 0.0003189, , , , 
DataValue, 4.6000000000000005, 0.25, 1.0200000000000001E-11, 0.00031886, , , , 
DataValue, 4.71, 0.25, 1.028E-11, 0.00031886, , , , 
DataValue, 4.82, 0.25, 1.0640000000000002E-11, 0.0003189, , , , 
DataValue, 4.93, 0.25, 1.047E-11, 0.00031884000000000003, , , , 
DataValue, 5.04, 0.25, 1.1440000000000001E-11, 0.00031886, , , , 
DataValue, 5.15, 0.25, 1.1150000000000002E-11, 0.00031888, , , , 
DataValue, 5.26, 0.25, 1.099E-11, 0.00031886, , , , 
DataValue, 5.37, 0.25, 1.1530000000000001E-11, 0.00031888, , , , 
DataValue, 5.48, 0.25, 1.1830000000000001E-11, 0.00031888, , , , 
DataValue, 5.59, 0.25, 1.1950000000000001E-11, 0.00031886, , , , 
DataValue, 5.7, 0.25, 1.2770000000000002E-11, 0.00031886, , , , 
DataValue, 5.8100000000000005, 0.25, 1.3240000000000001E-11, 0.00031884000000000003, , , , 
DataValue, 5.92, 0.25, 1.2360000000000002E-11, 0.00031886, , , , 
DataValue, 6.03, 0.25, 1.29E-11, 0.00031882000000000004, , , , 
DataValue, 6.1400000000000006, 0.25, 1.333E-11, 0.00031884000000000003, , , , 
DataValue, 6.25, 0.25, 1.3550000000000001E-11, 0.00031884000000000003, , , , 
DataValue, 6.36, 0.25, 1.4100000000000002E-11, 0.00031884000000000003, , , , 
DataValue, 6.47, 0.25, 1.371E-11, 0.00031888, , , , 
DataValue, 6.58, 0.25, 1.3990000000000002E-11, 0.00031884000000000003, , , , 
DataValue, 6.69, 0.25, 1.434E-11, 0.00031884000000000003, , , , 
DataValue, 6.8, 0.25, 1.4110000000000002E-11, 0.00031884000000000003, , , , 
DataValue, 6.91, 0.25, 1.4260000000000001E-11, 0.00031886, , , , 
DataValue, 7.0200000000000005, 0.25, 1.571E-11, 0.00031886, , , , 
DataValue, 7.13, 0.25, 1.493E-11, 0.00031886, , , , 
DataValue, 7.24, 0.25, 1.515E-11, 0.00031886, , , , 
DataValue, 7.3500000000000005, 0.25, 1.5430000000000002E-11, 0.00031886, , , , 
DataValue, 7.46, 0.25, 1.615E-11, 0.00031882000000000004, , , , 
DataValue, 7.57, 0.25, 1.5890000000000003E-11, 0.00031886, , , , 
DataValue, 7.68, 0.25, 1.573E-11, 0.00031886, , , , 
DataValue, 7.79, 0.25, 1.6450000000000002E-11, 0.00031886, , , , 
DataValue, 7.9, 0.25, 1.652E-11, 0.00031884000000000003, , , , 
DataValue, 8.01, 0.25, 1.652E-11, 0.00031884000000000003, , , , 
DataValue, 8.120000000000001, 0.25, 1.6580000000000002E-11, 0.00031886, , , , 
DataValue, 8.23, 0.25, 1.824E-11, 0.00031886, , , , 
DataValue, 8.34, 0.25, 1.7620000000000003E-11, 0.00031886, , , , 
DataValue, 8.45, 0.25, 1.7870000000000002E-11, 0.00031886, , , , 
DataValue, 8.56, 0.25, 1.83E-11, 0.00031886, , , , 
DataValue, 8.67, 0.25, 1.8000000000000002E-11, 0.00031884000000000003, , , , 
DataValue, 8.78, 0.25, 1.8890000000000002E-11, 0.00031884000000000003, , , , 
DataValue, 8.89, 0.25, 1.93E-11, 0.00031886, , , , 
DataValue, 9, 0.25, 1.897E-11, 0.00031886, , , , 
DataValue, 9.11, 0.25, 1.914E-11, 0.00031886, , , , 
DataValue, 9.22, 0.25, 1.9470000000000002E-11, 0.00031886, , , , 
DataValue, 9.33, 0.25, 1.9040000000000003E-11, 0.00031886, , , , 
DataValue, 9.44, 0.25, 2.005E-11, 0.00031884000000000003, , , , 
DataValue, 9.55, 0.25, 2.1550000000000002E-11, 0.00031886, , , , 
DataValue, 9.66, 0.25, 2.0600000000000002E-11, 0.00031884000000000003, , , , 
DataValue, 9.77, 0.25, 2.1350000000000003E-11, 0.00031886, , , , 
DataValue, 9.88, 0.25, 2.107E-11, 0.00031886, , , , 
DataValue, 9.99, 0.25, 2.1390000000000003E-11, 0.00031882000000000004, , , , 
DataValue, 10.1, 0.25, 2.1840000000000002E-11, 0.00031884000000000003, , , , 
DataValue, 10.21, 0.25, 2.2220000000000002E-11, 0.00031886, , , , 
DataValue, 10.32, 0.25, 2.183E-11, 0.00031884000000000003, , , , 
DataValue, 10.43, 0.25, 2.2460000000000002E-11, 0.00031886, , , , 
DataValue, 10.540000000000001, 0.25, 2.24E-11, 0.00031884000000000003, , , , 
DataValue, 10.65, 0.25, 2.2530000000000002E-11, 0.00031882000000000004, , , , 
DataValue, 10.76, 0.25, 2.4170000000000002E-11, 0.00031884000000000003, , , , 
DataValue, 10.870000000000001, 0.25, 2.416E-11, 0.00031886, , , , 
DataValue, 10.98, 0.25, 2.4410000000000003E-11, 0.00031886, , , , 
DataValue, 11.09, 0.25, 2.491E-11, 0.00031888, , , , 
DataValue, 11.200000000000001, 0.25, 2.4630000000000003E-11, 0.0003188, , , , 
DataValue, 11.31, 0.25, 2.4940000000000003E-11, 0.00031884000000000003, , , , 
DataValue, 11.42, 0.25, 2.5630000000000003E-11, 0.00031882000000000004, , , , 
DataValue, 11.53, 0.25, 2.595E-11, 0.00031884000000000003, , , , 
DataValue, 11.64, 0.25, 2.664E-11, 0.00031884000000000003, , , , 
DataValue, 11.75, 0.25, 2.6670000000000003E-11, 0.00031884000000000003, , , , 
DataValue, 11.86, 0.25, 2.675E-11, 0.00031884000000000003, , , , 
DataValue, 11.97, 0.25, 2.7300000000000002E-11, 0.00031878, , , , 
DataValue, 12.08, 0.25, 2.7810000000000002E-11, 0.00031884000000000003, , , , 
DataValue, 12.19, 0.25, 2.793E-11, 0.00031884000000000003, , , , 
DataValue, 12.3, 0.25, 2.8600000000000003E-11, 0.00031884000000000003, , , , 
DataValue, 12.41, 0.25, 2.8780000000000003E-11, 0.00031884000000000003, , , , 
DataValue, 12.52, 0.25, 2.92E-11, 0.00031882000000000004, , , , 
DataValue, 12.63, 0.25, 3.0170000000000004E-11, 0.00031884000000000003, , , , 
DataValue, 12.74, 0.25, 2.998E-11, 0.0003188, , , , 
DataValue, 12.85, 0.25, 3.056E-11, 0.00031882000000000004, , , , 
DataValue, 12.96, 0.25, 3.1150000000000004E-11, 0.00031886, , , , 
DataValue, 13.07, 0.25, 3.1370000000000004E-11, 0.00031882000000000004, , , , 
DataValue, 13.18, 0.25, 3.249E-11, 0.00031884000000000003, , , , 
DataValue, 13.290000000000001, 0.25, 3.313E-11, 0.00031884000000000003, , , , 
DataValue, 13.4, 0.25, 3.255E-11, 0.00031884000000000003, , , , 
DataValue, 13.51, 0.25, 3.329E-11, 0.0003188, , , , 
DataValue, 13.620000000000001, 0.25, 3.438E-11, 0.0003188, , , , 
DataValue, 13.73, 0.25, 3.4720000000000004E-11, 0.0003188, , , , 
DataValue, 13.84, 0.25, 3.5420000000000005E-11, 0.00031884000000000003, , , , 
DataValue, 13.950000000000001, 0.25, 3.6690000000000005E-11, 0.00031884000000000003, , , , 
DataValue, 14.06, 0.25, 3.664E-11, 0.00031882000000000004, , , , 
DataValue, 14.17, 0.25, 3.7380000000000004E-11, 0.0003188, , , , 
DataValue, 14.280000000000001, 0.25, 3.788E-11, 0.00031882000000000004, , , , 
DataValue, 14.39, 0.25, 3.792E-11, 0.00031884000000000003, , , , 
DataValue, 14.5, 0.25, 3.926E-11, 0.00031884000000000003, , , , 
DataValue, 14.61, 0.25, 4.0800000000000004E-11, 0.00031884000000000003, , , , 
DataValue, 14.72, 0.25, 4.0850000000000006E-11, 0.00031882000000000004, , , , 
DataValue, 14.83, 0.25, 4.1640000000000004E-11, 0.00031884000000000003, , , , 
DataValue, 14.94, 0.25, 4.2660000000000004E-11, 0.00031884000000000003, , , , 
DataValue, 15.05, 0.25, 4.308E-11, 0.00031878, , , , 
DataValue, 15.16, 0.25, 4.4590000000000004E-11, 0.0003188, , , , 
DataValue, 15.27, 0.25, 4.531E-11, 0.00031884000000000003, , , , 
DataValue, 15.38, 0.25, 4.589E-11, 0.00031882000000000004, , , , 
DataValue, 15.49, 0.25, 4.724E-11, 0.00031884000000000003, , , , 
DataValue, 15.6, 0.25, 4.727E-11, 0.0003188, , , , 
DataValue, 15.71, 0.25, 4.866E-11, 0.00031882000000000004, , , , 
DataValue, 15.82, 0.25, 4.9840000000000006E-11, 0.00031884000000000003, , , , 
DataValue, 15.93, 0.25, 5.062E-11, 0.0003188, , , , 
DataValue, 16.04, 0.25, 5.1590000000000006E-11, 0.00031884000000000003, , , , 
DataValue, 16.15, 0.25, 5.259E-11, 0.00031884000000000003, , , , 
DataValue, 16.26, 0.25, 5.3160000000000007E-11, 0.00031884000000000003, , , , 
DataValue, 16.37, 0.25, 5.506E-11, 0.00031884000000000003, , , , 
DataValue, 16.48, 0.25, 5.5520000000000006E-11, 0.00031882000000000004, , , , 
DataValue, 16.59, 0.25, 5.6380000000000003E-11, 0.0003188, , , , 
DataValue, 16.7, 0.25, 5.7620000000000004E-11, 0.00031882000000000004, , , , 
DataValue, 16.81, 0.25, 5.873E-11, 0.0003188, , , , 
DataValue, 16.92, 0.25, 6.0670000000000009E-11, 0.00031882000000000004, , , , 
DataValue, 17.03, 0.25, 6.096E-11, 0.00031884000000000003, , , , 
DataValue, 17.14, 0.25, 6.268000000000001E-11, 0.00031884000000000003, , , , 
DataValue, 17.25, 0.25, 6.415E-11, 0.00031884000000000003, , , , 
DataValue, 17.36, 0.25, 6.546E-11, 0.00031884000000000003, , , , 
DataValue, 17.47, 0.25, 6.6790000000000009E-11, 0.00031882000000000004, , , , 
DataValue, 17.580000000000002, 0.25, 6.8550000000000011E-11, 0.0003188, , , , 
DataValue, 17.69, 0.25, 6.929E-11, 0.00031884000000000003, , , , 
DataValue, 17.8, 0.25, 7.107E-11, 0.00031884000000000003, , , , 
DataValue, 17.91, 0.25, 7.216E-11, 0.00031884000000000003, , , , 
DataValue, 18.02, 0.25, 7.384E-11, 0.00031882000000000004, , , , 
DataValue, 18.13, 0.25, 7.574E-11, 0.00031884000000000003, , , , 
DataValue, 18.240000000000002, 0.25, 7.723E-11, 0.00031884000000000003, , , , 
DataValue, 18.35, 0.25, 7.896E-11, 0.00031886, , , , 
DataValue, 18.46, 0.25, 8.041000000000001E-11, 0.00031882000000000004, , , , 
DataValue, 18.57, 0.25, 8.18E-11, 0.0003188, , , , 
DataValue, 18.68, 0.25, 8.398E-11, 0.00031882000000000004, , , , 
DataValue, 18.79, 0.25, 8.5680000000000008E-11, 0.0003188, , , , 
DataValue, 18.900000000000002, 0.25, 8.7270000000000012E-11, 0.00031882000000000004, , , , 
DataValue, 19.01, 0.25, 9.0340000000000008E-11, 0.00031884000000000003, , , , 
DataValue, 19.12, 0.25, 9.1850000000000011E-11, 0.0003188, , , , 
DataValue, 19.23, 0.25, 9.3730000000000009E-11, 0.00031882000000000004, , , , 
DataValue, 19.34, 0.25, 9.5710000000000011E-11, 0.00031884000000000003, , , , 
DataValue, 19.45, 0.25, 9.7910000000000014E-11, 0.00031884000000000003, , , , 
DataValue, 19.56, 0.25, 1.0034000000000001E-10, 0.00031878, , , , 
DataValue, 19.67, 0.25, 1.0251E-10, 0.00031884000000000003, , , , 
DataValue, 19.78, 0.25, 1.0474E-10, 0.00031884000000000003, , , , 
DataValue, 19.89, 0.25, 1.0724000000000001E-10, 0.00031884000000000003, , , , 
DataValue, 20, 0.25, 1.099E-10, 0.00031884000000000003, , , , 
DataValue, 20, 0.25, 1.0960000000000001E-10, 0.00031884000000000003, , , , 
DataValue, 19.89, 0.25, 9.9410000000000009E-11, 0.00031884000000000003, , , , 
DataValue, 19.78, 0.25, 9.167E-11, 0.00031884000000000003, , , , 
DataValue, 19.67, 0.25, 8.594E-11, 0.00031884000000000003, , , , 
