
SetupTitle, ID-VG Postbreak
PrimitiveTest, I/V Sweep
TestParameter, Context.MainFrame, B1500A
TestParameter, Channel.UnitType, SMU, SMU
TestParameter, Channel.Unit, SMU1:MP, SMU2:MP
TestParameter, Channel.IName, I1, I2
TestParameter, Channel.VName, V1, V2
TestParameter, Channel.Mode, V, V
TestParameter, Channel.Func, VAR1, CONST
TestParameter, Channel.Index, 
TestParameter, Channel.Time, 
TestParameter, Measurement.Port.Unit, SMU1:MP, SMU2:MP
TestParameter, Measurement.Port.SeriesResistor, NONE, NONE
TestParameter, Measurement.Port.Filter, ON, ON
TestParameter, Measurement.Port.OutputVoltageComparison, 0, 0
TestParameter, Measurement.Primary.Locus, Double
TestParameter, Measurement.Primary.Scale, LINEAR
TestParameter, Measurement.Primary.Start, -2
TestParameter, Measurement.Primary.Stop, 20
TestParameter, Measurement.Primary.Step, 0.11
TestParameter, Measurement.Primary.Compliance, 0.1
TestParameter, Measurement.Primary.PowerCompliance, 0
TestParameter, Measurement.Aborting.Condition, CONTINUE AT ANY
TestParameter, Measurement.PostOutput.Value, START
TestParameter, Measurement.PostOutput.Retention, OFF
TestParameter, Measurement.Bias.Source, -2, 0.25
TestParameter, Measurement.Bias.Compliance, 0.1, 0.1
TestParameter, Measurement.Monitor.Unit, SMU1:MP, SMU2:MP
TestParameter, Measurement.Monitor.Adc, HR ADC, HR ADC
TestParameter, Measurement.Monitor.Measurement, Compliance Side, Compliance Side
TestParameter, Measurement.Monitor.RangingMode, LIMITED, LIMITED
TestParameter, Measurement.Monitor.RangeBoundary, 1nA, 1nA
TestParameter, Measurement.Monitor.RangeRating, BY FULL RANGE, BY FULL RANGE
TestParameter, Measurement.Monitor.RangeRatingCoeff, 50, 50
TestParameter, Measurement.Timing.Hold, 0
TestParameter, Measurement.Timing.Delay, 0
TestParameter, Measurement.Adc.HighSpeed.Mode, AUTO
TestParameter, Measurement.Adc.HighSpeed.Coeff, 1
TestParameter, Measurement.Adc.HighResolution.AutoZero, OFF
TestParameter, Measurement.Adc.HighResolution.Mode, AUTO
TestParameter, Measurement.Adc.HighResolution.Coeff, 6
TestParameter, Measurement.WaitTime.Source.Coeff, 1
TestParameter, Measurement.WaitTime.Source.Offset, 0
TestParameter, Measurement.WaitTime.Monitor.Coeff, 1
TestParameter, Measurement.WaitTime.Monitor.Offset, 0
TestParameter, Output.Graph.Enabled, true
TestParameter, Output.Graph.AutoScaling, false
TestParameter, Output.Graph.XAxis.Data, V1
TestParameter, Output.Graph.XAxis.Scale, Linear
TestParameter, Output.Graph.XAxis.Left, -2
TestParameter, Output.Graph.XAxis.Right, 6
TestParameter, Output.Graph.XAxis.RunTimeAutoScale, true
TestParameter, Output.Graph.YAxis.Data, I2
TestParameter, Output.Graph.YAxis.Scale, Linear
TestParameter, Output.Graph.YAxis.Bottom, -0.1
TestParameter, Output.Graph.YAxis.Top, 0.1
TestParameter, Output.Graph.YAxis.Group, 
TestParameter, Output.Graph.YAxis.RunTimeAutoScale, true
TestParameter, Output.List.Data, V1, I1, V2, I2, V3, I3, V4, I4
TestParameter, AutoAnalysis.Interpolation, false
TestParameter, AutoAnalysis.Line1.Enabled, false
TestParameter, AutoAnalysis.Line1.Type, 1
TestParameter, AutoAnalysis.Line1.Fix, True
TestParameter, AutoAnalysis.Line1.YAxis, 0
TestParameter, AutoAnalysis.Line1.Point1.Type, 0
TestParameter, AutoAnalysis.Line1.Point1.XY.X, 
TestParameter, AutoAnalysis.Line1.Point1.XY.Y, 
TestParameter, AutoAnalysis.Line1.Point1.Data.Var, 
TestParameter, AutoAnalysis.Line1.Point1.Data.Condition, 
TestParameter, AutoAnalysis.Line1.Point1.Data.Start, false
TestParameter, AutoAnalysis.Line1.Point1.Data.StartVar, 
TestParameter, AutoAnalysis.Line1.Point1.Data.StartCondition, 
TestParameter, AutoAnalysis.Line1.Point2.Type, 0
TestParameter, AutoAnalysis.Line1.Point2.XY.X, 
TestParameter, AutoAnalysis.Line1.Point2.XY.Y, 
TestParameter, AutoAnalysis.Line1.Point2.Data.Var, 
TestParameter, AutoAnalysis.Line1.Point2.Data.Condition, 
TestParameter, AutoAnalysis.Line1.Point2.Data.Start, false
TestParameter, AutoAnalysis.Line1.Point2.Data.StartVar, 
TestParameter, AutoAnalysis.Line1.Point2.Data.StartCondition, 
TestParameter, AutoAnalysis.Line1.GradientExpr, 0
TestParameter, AutoAnalysis.Line2.Enabled, false
TestParameter, AutoAnalysis.Line2.Type, 1
TestParameter, AutoAnalysis.Line2.Fix, True
TestParameter, AutoAnalysis.Line2.YAxis, 0
TestParameter, AutoAnalysis.Line2.Point1.Type, 0
TestParameter, AutoAnalysis.Line2.Point1.XY.X, 
TestParameter, AutoAnalysis.Line2.Point1.XY.Y, 
TestParameter, AutoAnalysis.Line2.Point1.Data.Var, 
TestParameter, AutoAnalysis.Line2.Point1.Data.Condition, 
TestParameter, AutoAnalysis.Line2.Point1.Data.Start, false
TestParameter, AutoAnalysis.Line2.Point1.Data.StartVar, 
TestParameter, AutoAnalysis.Line2.Point1.Data.StartCondition, 
TestParameter, AutoAnalysis.Line2.Point2.Type, 0
TestParameter, AutoAnalysis.Line2.Point2.XY.X, 
TestParameter, AutoAnalysis.Line2.Point2.XY.Y, 
TestParameter, AutoAnalysis.Line2.Point2.Data.Var, 
TestParameter, AutoAnalysis.Line2.Point2.Data.Condition, 
TestParameter, AutoAnalysis.Line2.Point2.Data.Start, false
TestParameter, AutoAnalysis.Line2.Point2.Data.StartVar, 
TestParameter, AutoAnalysis.Line2.Point2.Data.StartCondition, 
TestParameter, AutoAnalysis.Line2.GradientExpr, 0
TestParameter, AutoAnalysis.Marker.Enabled, false
TestParameter, AutoAnalysis.Marker.Data.Var, 
TestParameter, AutoAnalysis.Marker.Data.Condition, 
TestParameter, AutoAnalysis.Marker.Data.Start, false
TestParameter, AutoAnalysis.Marker.Data.StartVar, 
TestParameter, AutoAnalysis.Marker.Data.StartCondition, 
MetaData, TestRecord.EntryPoint, true
MetaData, TestRecord.RecordTime, 03/10/2023 17:15:00
MetaData, TestRecord.TestTarget, 
MetaData, TestRecord.IterationIndex, 49
MetaData, TestRecord.Preservation, true
MetaData, TestRecord.Flag, 
MetaData, TestRecord.Remarks, 
MetaData, TestRecord.LinkKey, 7f1e096d-70e0-4a03-9ed4-c66ca15ba99c
Dimension1, 402, 402, 402, 402, 402, 402, 402, 402
Dimension2, 1, 1, 1, 1, 1, 1, 1, 1
DataName, V1, V2, I1, I2, V3, I3, V4, I4
DataValue, -2, 0.25, -7.1800000000000005E-12, 2.367E-11, , , , 
DataValue, -1.8900000000000001, 0.25, -3.9800000000000004E-12, 2.2920000000000003E-11, , , , 
DataValue, -1.78, 0.25, -2.82E-12, 2.247E-11, , , , 
DataValue, -1.67, 0.25, -1.6800000000000001E-12, 2.294E-11, , , , 
DataValue, -1.56, 0.25, -1.51E-12, 2.3150000000000002E-11, , , , 
DataValue, -1.45, 0.25, 1.3E-13, 2.223E-11, , , , 
DataValue, -1.34, 0.25, -7.9000000000000007E-13, 2.127E-11, , , , 
DataValue, -1.23, 0.25, -6.9000000000000009E-13, 2.3370000000000002E-11, , , , 
DataValue, -1.12, 0.25, -3.4E-13, 2.402E-11, , , , 
DataValue, -1.01, 0.25, 9.3E-13, 2.2390000000000003E-11, , , , 
DataValue, -0.9, 0.25, 7.8000000000000011E-13, 2.078E-11, , , , 
DataValue, -0.79, 0.25, 4.7E-13, 2.212E-11, , , , 
DataValue, -0.68, 0.25, 5.8000000000000005E-13, 2.2700000000000003E-11, , , , 
DataValue, -0.57000000000000006, 0.25, 1.0100000000000001E-12, 2.158E-11, , , , 
DataValue, -0.46, 0.25, 1.23E-12, 2.136E-11, , , , 
DataValue, -0.35000000000000003, 0.25, 1.5200000000000002E-12, 2.245E-11, , , , 
DataValue, -0.24, 0.25, 1.2900000000000002E-12, 2.274E-11, , , , 
DataValue, -0.13, 0.25, 1.6300000000000001E-12, 2.223E-11, , , , 
DataValue, -0.02, 0.25, 1.9400000000000002E-12, 2.079E-11, , , , 
DataValue, 0.09, 0.25, 2.13E-12, 2.1640000000000002E-11, , , , 
DataValue, 0.2, 0.25, 2.41E-12, 2.2700000000000003E-11, , , , 
DataValue, 0.31, 0.25, 3.02E-12, 2.2510000000000002E-11, , , , 
DataValue, 0.42, 0.25, 2.4800000000000003E-12, 2.0930000000000002E-11, , , , 
DataValue, 0.53, 0.25, 2.18E-12, 2.209E-11, , , , 
DataValue, 0.64, 0.25, 2.4300000000000003E-12, 2.3040000000000002E-11, , , , 
DataValue, 0.75, 0.25, 3.3200000000000004E-12, 2.1750000000000002E-11, , , , 
DataValue, 0.86, 0.25, 2.5500000000000002E-12, 2.1350000000000003E-11, , , , 
DataValue, 0.97, 0.25, 3.5000000000000004E-12, 2.196E-11, , , , 
DataValue, 1.08, 0.25, 2.92E-12, 2.28E-11, , , , 
DataValue, 1.19, 0.25, 4.33E-12, 2.2130000000000002E-11, , , , 
DataValue, 1.3, 0.25, 2.9300000000000002E-12, 2.145E-11, , , , 
DataValue, 1.41, 0.25, 3.8300000000000004E-12, 2.1600000000000002E-11, , , , 
DataValue, 1.52, 0.25, 4.0400000000000006E-12, 2.2080000000000003E-11, , , , 
DataValue, 1.6300000000000001, 0.25, 4.1500000000000007E-12, 2.1750000000000002E-11, , , , 
DataValue, 1.74, 0.25, 3.76E-12, 2.0840000000000002E-11, , , , 
DataValue, 1.85, 0.25, 4.16E-12, 2.1480000000000003E-11, , , , 
DataValue, 1.96, 0.25, 3.8E-12, 2.163E-11, , , , 
DataValue, 2.07, 0.25, 4.8000000000000005E-12, 2.1460000000000003E-11, , , , 
DataValue, 2.18, 0.25, 4.4400000000000005E-12, 2.0660000000000003E-11, , , , 
DataValue, 2.29, 0.25, 4.88E-12, 2.129E-11, , , , 
DataValue, 2.4, 0.25, 4.27E-12, 2.2370000000000003E-11, , , , 
DataValue, 2.5100000000000002, 0.25, 5.04E-12, 2.1750000000000002E-11, , , , 
DataValue, 2.62, 0.25, 5.6E-12, 2.136E-11, , , , 
DataValue, 2.73, 0.25, 5.44E-12, 2.027E-11, , , , 
DataValue, 2.84, 0.25, 5.1600000000000006E-12, 2.2440000000000002E-11, , , , 
DataValue, 2.95, 0.25, 5.0500000000000005E-12, 2.183E-11, , , , 
DataValue, 3.06, 0.25, 5.5600000000000005E-12, 2.094E-11, , , , 
DataValue, 3.17, 0.25, 5.4000000000000004E-12, 2.1150000000000003E-11, , , , 
DataValue, 3.2800000000000002, 0.25, 5.9800000000000008E-12, 2.232E-11, , , , 
DataValue, 3.39, 0.25, 5.2600000000000006E-12, 2.1790000000000003E-11, , , , 
DataValue, 3.5, 0.25, 5.29E-12, 2.094E-11, , , , 
DataValue, 3.61, 0.25, 5.7600000000000005E-12, 2.116E-11, , , , 
DataValue, 3.72, 0.25, 6.2300000000000007E-12, 2.223E-11, , , , 
DataValue, 3.83, 0.25, 6.1E-12, 2.205E-11, , , , 
DataValue, 3.94, 0.25, 6.4400000000000008E-12, 2.154E-11, , , , 
DataValue, 4.05, 0.25, 6.09E-12, 2.0510000000000002E-11, , , , 
DataValue, 4.16, 0.25, 6.25E-12, 2.1440000000000002E-11, , , , 
DataValue, 4.2700000000000005, 0.25, 5.59E-12, 2.234E-11, , , , 
DataValue, 4.38, 0.25, 6.7700000000000004E-12, 2.1280000000000003E-11, , , , 
DataValue, 4.49, 0.25, 6.66E-12, 1.937E-11, , , , 
DataValue, 4.6000000000000005, 0.25, 7.2000000000000008E-12, 2.074E-11, , , , 
DataValue, 4.71, 0.25, 6.5800000000000006E-12, 2.227E-11, , , , 
DataValue, 4.82, 0.25, 7.6E-12, 2.15E-11, , , , 
DataValue, 4.93, 0.25, 6.96E-12, 2.0770000000000003E-11, , , , 
DataValue, 5.04, 0.25, 7.71E-12, 2.149E-11, , , , 
DataValue, 5.15, 0.25, 7.63E-12, 2.1600000000000002E-11, , , , 
DataValue, 5.26, 0.25, 7.670000000000001E-12, 2.1310000000000002E-11, , , , 
DataValue, 5.37, 0.25, 6.8800000000000006E-12, 2.0180000000000002E-11, , , , 
DataValue, 5.48, 0.25, 7.360000000000001E-12, 2.1000000000000002E-11, , , , 
DataValue, 5.59, 0.25, 7.0000000000000009E-12, 2.2410000000000003E-11, , , , 
DataValue, 5.7, 0.25, 8.24E-12, 2.121E-11, , , , 
DataValue, 5.8100000000000005, 0.25, 8.0900000000000013E-12, 2.0310000000000002E-11, , , , 
DataValue, 5.92, 0.25, 8.06E-12, 2.027E-11, , , , 
DataValue, 6.03, 0.25, 7.52E-12, 2.1200000000000002E-11, , , , 
DataValue, 6.1400000000000006, 0.25, 7.63E-12, 2.0460000000000003E-11, , , , 
DataValue, 6.25, 0.25, 8.2800000000000011E-12, 2.027E-11, , , , 
DataValue, 6.36, 0.25, 8.6000000000000013E-12, 2.0170000000000003E-11, , , , 
DataValue, 6.47, 0.25, 8.75E-12, 2.0860000000000003E-11, , , , 
DataValue, 6.58, 0.25, 8.780000000000001E-12, 2.065E-11, , , , 
DataValue, 6.69, 0.25, 7.7800000000000012E-12, 2.021E-11, , , , 
DataValue, 6.8, 0.25, 8.74E-12, 2.014E-11, , , , 
DataValue, 6.91, 0.25, 8.74E-12, 2.003E-11, , , , 
DataValue, 7.0200000000000005, 0.25, 9.34E-12, 2.061E-11, , , , 
DataValue, 7.13, 0.25, 8.5000000000000013E-12, 2.0000000000000002E-11, , , , 
DataValue, 7.24, 0.25, 9.37E-12, 1.9440000000000003E-11, , , , 
DataValue, 7.3500000000000005, 0.25, 9.13E-12, 2.163E-11, , , , 
DataValue, 7.46, 0.25, 9.96E-12, 2.052E-11, , , , 
DataValue, 7.57, 0.25, 1.0010000000000001E-11, 1.959E-11, , , , 
DataValue, 7.68, 0.25, 9.390000000000001E-12, 1.901E-11, , , , 
DataValue, 7.79, 0.25, 9.78E-12, 2.123E-11, , , , 
DataValue, 7.9, 0.25, 9.6100000000000013E-12, 2.078E-11, , , , 
DataValue, 8.01, 0.25, 1.016E-11, 1.952E-11, , , , 
DataValue, 8.120000000000001, 0.25, 1.0510000000000001E-11, 1.9460000000000003E-11, , , , 
DataValue, 8.23, 0.25, 9.78E-12, 2.027E-11, , , , 
DataValue, 8.34, 0.25, 1.0610000000000001E-11, 2.123E-11, , , , 
DataValue, 8.45, 0.25, 1.069E-11, 1.916E-11, , , , 
DataValue, 8.56, 0.25, 1.005E-11, 1.837E-11, , , , 
DataValue, 8.67, 0.25, 1.0810000000000001E-11, 2.023E-11, , , , 
DataValue, 8.78, 0.25, 1.0940000000000001E-11, 2.067E-11, , , , 
DataValue, 8.89, 0.25, 1.1650000000000002E-11, 1.992E-11, , , , 
DataValue, 9, 0.25, 1.1010000000000001E-11, 1.8840000000000003E-11, , , , 
DataValue, 9.11, 0.25, 1.11E-11, 1.9350000000000003E-11, , , , 
DataValue, 9.22, 0.25, 1.1150000000000002E-11, 1.9980000000000002E-11, , , , 
DataValue, 9.33, 0.25, 1.2230000000000001E-11, 1.9980000000000002E-11, , , , 
DataValue, 9.44, 0.25, 1.1660000000000002E-11, 1.8310000000000003E-11, , , , 
DataValue, 9.55, 0.25, 1.1650000000000002E-11, 1.817E-11, , , , 
DataValue, 9.66, 0.25, 1.21E-11, 1.992E-11, , , , 
DataValue, 9.77, 0.25, 1.22E-11, 1.896E-11, , , , 
DataValue, 9.88, 0.25, 1.2370000000000002E-11, 1.9070000000000002E-11, , , , 
DataValue, 9.99, 0.25, 1.291E-11, 1.814E-11, , , , 
DataValue, 10.1, 0.25, 1.2430000000000001E-11, 1.981E-11, , , , 
DataValue, 10.21, 0.25, 1.391E-11, 1.956E-11, , , , 
DataValue, 10.32, 0.25, 1.301E-11, 1.8110000000000003E-11, , , , 
DataValue, 10.43, 0.25, 1.3390000000000002E-11, 1.712E-11, , , , 
DataValue, 10.540000000000001, 0.25, 1.3280000000000002E-11, 1.952E-11, , , , 
DataValue, 10.65, 0.25, 1.3760000000000001E-11, 1.9550000000000003E-11, , , , 
DataValue, 10.76, 0.25, 1.4720000000000002E-11, 1.8730000000000003E-11, , , , 
DataValue, 10.870000000000001, 0.25, 1.475E-11, 1.6800000000000003E-11, , , , 
DataValue, 10.98, 0.25, 1.486E-11, 1.8950000000000003E-11, , , , 
DataValue, 11.09, 0.25, 1.434E-11, 1.9690000000000002E-11, , , , 
DataValue, 11.200000000000001, 0.25, 1.4510000000000002E-11, 1.8980000000000002E-11, , , , 
DataValue, 11.31, 0.25, 1.542E-11, 1.675E-11, , , , 
DataValue, 11.42, 0.25, 1.4960000000000002E-11, 1.7850000000000002E-11, , , , 
DataValue, 11.53, 0.25, 1.541E-11, 1.8710000000000002E-11, , , , 
DataValue, 11.64, 0.25, 1.4810000000000002E-11, 1.8090000000000002E-11, , , , 
DataValue, 11.75, 0.25, 1.4760000000000003E-11, 1.7140000000000002E-11, , , , 
DataValue, 11.86, 0.25, 1.61E-11, 1.8220000000000003E-11, , , , 
DataValue, 11.97, 0.25, 1.5890000000000003E-11, 1.824E-11, , , , 
DataValue, 12.08, 0.25, 1.6140000000000002E-11, 1.8400000000000002E-11, , , , 
DataValue, 12.19, 0.25, 1.61E-11, 1.701E-11, , , , 
DataValue, 12.3, 0.25, 1.6690000000000003E-11, 1.7930000000000003E-11, , , , 
DataValue, 12.41, 0.25, 1.693E-11, 1.886E-11, , , , 
DataValue, 12.52, 0.25, 1.7510000000000003E-11, 1.741E-11, , , , 
DataValue, 12.63, 0.25, 1.739E-11, 1.632E-11, , , , 
DataValue, 12.74, 0.25, 1.757E-11, 1.7400000000000003E-11, , , , 
DataValue, 12.85, 0.25, 1.817E-11, 1.7960000000000002E-11, , , , 
DataValue, 12.96, 0.25, 1.828E-11, 1.753E-11, , , , 
DataValue, 13.07, 0.25, 1.8310000000000003E-11, 1.633E-11, , , , 
DataValue, 13.18, 0.25, 1.8510000000000003E-11, 1.695E-11, , , , 
DataValue, 13.290000000000001, 0.25, 1.886E-11, 1.9470000000000002E-11, , , , 
DataValue, 13.4, 0.25, 1.9580000000000002E-11, 1.7400000000000003E-11, , , , 
DataValue, 13.51, 0.25, 1.9070000000000002E-11, 1.632E-11, , , , 
DataValue, 13.620000000000001, 0.25, 2.027E-11, 1.573E-11, , , , 
DataValue, 13.73, 0.25, 1.9730000000000003E-11, 1.788E-11, , , , 
DataValue, 13.84, 0.25, 2.025E-11, 1.6910000000000003E-11, , , , 
DataValue, 13.950000000000001, 0.25, 2.01E-11, 1.575E-11, , , , 
DataValue, 14.06, 0.25, 2.114E-11, 1.5630000000000002E-11, , , , 
DataValue, 14.17, 0.25, 2.0510000000000002E-11, 1.741E-11, , , , 
DataValue, 14.280000000000001, 0.25, 2.1820000000000002E-11, 1.6560000000000002E-11, , , , 
DataValue, 14.39, 0.25, 2.1280000000000003E-11, 1.555E-11, , , , 
DataValue, 14.5, 0.25, 2.1600000000000002E-11, 1.493E-11, , , , 
DataValue, 14.61, 0.25, 2.169E-11, 1.63E-11, , , , 
DataValue, 14.72, 0.25, 2.1950000000000002E-11, 1.651E-11, , , , 
DataValue, 14.83, 0.25, 2.2040000000000002E-11, 1.498E-11, , , , 
DataValue, 14.94, 0.25, 2.267E-11, 1.444E-11, , , , 
DataValue, 15.05, 0.25, 2.232E-11, 1.606E-11, , , , 
DataValue, 15.16, 0.25, 2.3190000000000003E-11, 1.608E-11, , , , 
DataValue, 15.27, 0.25, 2.305E-11, 1.522E-11, , , , 
DataValue, 15.38, 0.25, 2.3010000000000003E-11, 1.3670000000000001E-11, , , , 
DataValue, 15.49, 0.25, 2.3150000000000002E-11, 1.619E-11, , , , 
DataValue, 15.6, 0.25, 2.4140000000000003E-11, 1.581E-11, , , , 
DataValue, 15.71, 0.25, 2.4340000000000003E-11, 1.4650000000000002E-11, , , , 
DataValue, 15.82, 0.25, 2.4700000000000003E-11, 1.29E-11, , , , 
DataValue, 15.93, 0.25, 2.4320000000000003E-11, 1.453E-11, , , , 
DataValue, 16.04, 0.25, 2.5250000000000003E-11, 1.588E-11, , , , 
DataValue, 16.15, 0.25, 2.5160000000000003E-11, 1.4150000000000001E-11, , , , 
DataValue, 16.26, 0.25, 2.5340000000000003E-11, 1.261E-11, , , , 
DataValue, 16.37, 0.25, 2.564E-11, 1.4050000000000001E-11, , , , 
DataValue, 16.48, 0.25, 2.609E-11, 1.542E-11, , , , 
DataValue, 16.59, 0.25, 2.593E-11, 1.4260000000000001E-11, , , , 
DataValue, 16.7, 0.25, 2.6770000000000002E-11, 1.261E-11, , , , 
DataValue, 16.81, 0.25, 2.695E-11, 1.4400000000000002E-11, , , , 
DataValue, 16.92, 0.25, 2.7960000000000003E-11, 1.488E-11, , , , 
DataValue, 17.03, 0.25, 2.755E-11, 1.371E-11, , , , 
DataValue, 17.14, 0.25, 2.8070000000000003E-11, 1.219E-11, , , , 
DataValue, 17.25, 0.25, 2.7920000000000002E-11, 1.3450000000000001E-11, , , , 
DataValue, 17.36, 0.25, 2.8980000000000003E-11, 1.4210000000000002E-11, , , , 
DataValue, 17.47, 0.25, 2.9920000000000005E-11, 1.322E-11, , , , 
DataValue, 17.580000000000002, 0.25, 3.0060000000000004E-11, 1.2040000000000001E-11, , , , 
DataValue, 17.69, 0.25, 2.9230000000000005E-11, 1.322E-11, , , , 
DataValue, 17.8, 0.25, 3.026E-11, 1.404E-11, , , , 
DataValue, 17.91, 0.25, 3.0680000000000004E-11, 1.332E-11, , , , 
DataValue, 18.02, 0.25, 3.067E-11, 1.2770000000000002E-11, , , , 
DataValue, 18.13, 0.25, 3.161E-11, 1.3500000000000002E-11, , , , 
DataValue, 18.240000000000002, 0.25, 3.157E-11, 1.4390000000000002E-11, , , , 
DataValue, 18.35, 0.25, 3.15E-11, 1.341E-11, , , , 
DataValue, 18.46, 0.25, 3.215E-11, 1.381E-11, , , , 
DataValue, 18.57, 0.25, 3.2800000000000006E-11, 1.4610000000000002E-11, , , , 
DataValue, 18.68, 0.25, 3.3560000000000005E-11, 1.5850000000000002E-11, , , , 
DataValue, 18.79, 0.25, 3.4280000000000003E-11, 1.5270000000000003E-11, , , , 
DataValue, 18.900000000000002, 0.25, 3.4250000000000005E-11, 1.453E-11, , , , 
DataValue, 19.01, 0.25, 3.497E-11, 1.6400000000000003E-11, , , , 
DataValue, 19.12, 0.25, 3.4900000000000004E-11, 1.7780000000000002E-11, , , , 
DataValue, 19.23, 0.25, 3.6830000000000004E-11, 1.828E-11, , , , 
DataValue, 19.34, 0.25, 3.6150000000000006E-11, 1.8110000000000003E-11, , , , 
DataValue, 19.45, 0.25, 3.7020000000000005E-11, 1.9600000000000002E-11, , , , 
DataValue, 19.56, 0.25, 3.743E-11, 2.334E-11, , , , 
DataValue, 19.67, 0.25, 3.7890000000000004E-11, 2.4280000000000002E-11, , , , 
DataValue, 19.78, 0.25, 3.809E-11, 2.549E-11, , , , 
DataValue, 19.89, 0.25, 3.9820000000000004E-11, 2.8600000000000003E-11, , , , 
DataValue, 20, 0.25, 3.98E-11, 3.2970000000000004E-11, , , , 
DataValue, 20, 0.25, 3.903E-11, 3.169E-11, , , , 
DataValue, 19.89, 0.25, 3.659E-11, 2.9770000000000004E-11, , , , 
DataValue, 19.78, 0.25, 3.558E-11, 2.918E-11, , , , 
DataValue, 19.67, 0.25, 3.4030000000000004E-11, 2.6280000000000002E-11, , , , 
DataValue, 19.56, 0.25, 3.2460000000000003E-11, 2.418E-11, , , , 
