
SetupTitle, ID-VG Postbreak
PrimitiveTest, I/V Sweep
TestParameter, Context.MainFrame, B1500A
TestParameter, Channel.UnitType, SMU, SMU
TestParameter, Channel.Unit, SMU1:MP, SMU2:MP
TestParameter, Channel.IName, I1, I2
TestParameter, Channel.VName, V1, V2
TestParameter, Channel.Mode, V, V
TestParameter, Channel.Func, VAR1, CONST
TestParameter, Channel.Index, 
TestParameter, Channel.Time, 
TestParameter, Measurement.Port.Unit, SMU1:MP, SMU2:MP
TestParameter, Measurement.Port.SeriesResistor, NONE, NONE
TestParameter, Measurement.Port.Filter, ON, ON
TestParameter, Measurement.Port.OutputVoltageComparison, 0, 0
TestParameter, Measurement.Primary.Locus, Double
TestParameter, Measurement.Primary.Scale, LINEAR
TestParameter, Measurement.Primary.Start, -2
TestParameter, Measurement.Primary.Stop, 20
TestParameter, Measurement.Primary.Step, 0.11
TestParameter, Measurement.Primary.Compliance, 0.1
TestParameter, Measurement.Primary.PowerCompliance, 0
TestParameter, Measurement.Aborting.Condition, CONTINUE AT ANY
TestParameter, Measurement.PostOutput.Value, START
TestParameter, Measurement.PostOutput.Retention, OFF
TestParameter, Measurement.Bias.Source, -2, 0.25
TestParameter, Measurement.Bias.Compliance, 0.1, 0.1
TestParameter, Measurement.Monitor.Unit, SMU1:MP, SMU2:MP
TestParameter, Measurement.Monitor.Adc, HR ADC, HR ADC
TestParameter, Measurement.Monitor.Measurement, Compliance Side, Compliance Side
TestParameter, Measurement.Monitor.RangingMode, LIMITED, LIMITED
TestParameter, Measurement.Monitor.RangeBoundary, 1nA, 1nA
TestParameter, Measurement.Monitor.RangeRating, BY FULL RANGE, BY FULL RANGE
TestParameter, Measurement.Monitor.RangeRatingCoeff, 50, 50
TestParameter, Measurement.Timing.Hold, 0
TestParameter, Measurement.Timing.Delay, 0
TestParameter, Measurement.Adc.HighSpeed.Mode, AUTO
TestParameter, Measurement.Adc.HighSpeed.Coeff, 1
TestParameter, Measurement.Adc.HighResolution.AutoZero, OFF
TestParameter, Measurement.Adc.HighResolution.Mode, AUTO
TestParameter, Measurement.Adc.HighResolution.Coeff, 6
TestParameter, Measurement.WaitTime.Source.Coeff, 1
TestParameter, Measurement.WaitTime.Source.Offset, 0
TestParameter, Measurement.WaitTime.Monitor.Coeff, 1
TestParameter, Measurement.WaitTime.Monitor.Offset, 0
TestParameter, Output.Graph.Enabled, true
TestParameter, Output.Graph.AutoScaling, false
TestParameter, Output.Graph.XAxis.Data, V1
TestParameter, Output.Graph.XAxis.Scale, Linear
TestParameter, Output.Graph.XAxis.Left, -2
TestParameter, Output.Graph.XAxis.Right, 6
TestParameter, Output.Graph.XAxis.RunTimeAutoScale, true
TestParameter, Output.Graph.YAxis.Data, I2
TestParameter, Output.Graph.YAxis.Scale, Linear
TestParameter, Output.Graph.YAxis.Bottom, -0.1
TestParameter, Output.Graph.YAxis.Top, 0.1
TestParameter, Output.Graph.YAxis.Group, 
TestParameter, Output.Graph.YAxis.RunTimeAutoScale, true
TestParameter, Output.List.Data, V1, I1, V2, I2, V3, I3, V4, I4
TestParameter, AutoAnalysis.Interpolation, false
TestParameter, AutoAnalysis.Line1.Enabled, false
TestParameter, AutoAnalysis.Line1.Type, 1
TestParameter, AutoAnalysis.Line1.Fix, True
TestParameter, AutoAnalysis.Line1.YAxis, 0
TestParameter, AutoAnalysis.Line1.Point1.Type, 0
TestParameter, AutoAnalysis.Line1.Point1.XY.X, 
TestParameter, AutoAnalysis.Line1.Point1.XY.Y, 
TestParameter, AutoAnalysis.Line1.Point1.Data.Var, 
TestParameter, AutoAnalysis.Line1.Point1.Data.Condition, 
TestParameter, AutoAnalysis.Line1.Point1.Data.Start, false
TestParameter, AutoAnalysis.Line1.Point1.Data.StartVar, 
TestParameter, AutoAnalysis.Line1.Point1.Data.StartCondition, 
TestParameter, AutoAnalysis.Line1.Point2.Type, 0
TestParameter, AutoAnalysis.Line1.Point2.XY.X, 
TestParameter, AutoAnalysis.Line1.Point2.XY.Y, 
TestParameter, AutoAnalysis.Line1.Point2.Data.Var, 
TestParameter, AutoAnalysis.Line1.Point2.Data.Condition, 
TestParameter, AutoAnalysis.Line1.Point2.Data.Start, false
TestParameter, AutoAnalysis.Line1.Point2.Data.StartVar, 
TestParameter, AutoAnalysis.Line1.Point2.Data.StartCondition, 
TestParameter, AutoAnalysis.Line1.GradientExpr, 0
TestParameter, AutoAnalysis.Line2.Enabled, false
TestParameter, AutoAnalysis.Line2.Type, 1
TestParameter, AutoAnalysis.Line2.Fix, True
TestParameter, AutoAnalysis.Line2.YAxis, 0
TestParameter, AutoAnalysis.Line2.Point1.Type, 0
TestParameter, AutoAnalysis.Line2.Point1.XY.X, 
TestParameter, AutoAnalysis.Line2.Point1.XY.Y, 
TestParameter, AutoAnalysis.Line2.Point1.Data.Var, 
TestParameter, AutoAnalysis.Line2.Point1.Data.Condition, 
TestParameter, AutoAnalysis.Line2.Point1.Data.Start, false
TestParameter, AutoAnalysis.Line2.Point1.Data.StartVar, 
TestParameter, AutoAnalysis.Line2.Point1.Data.StartCondition, 
TestParameter, AutoAnalysis.Line2.Point2.Type, 0
TestParameter, AutoAnalysis.Line2.Point2.XY.X, 
TestParameter, AutoAnalysis.Line2.Point2.XY.Y, 
TestParameter, AutoAnalysis.Line2.Point2.Data.Var, 
TestParameter, AutoAnalysis.Line2.Point2.Data.Condition, 
TestParameter, AutoAnalysis.Line2.Point2.Data.Start, false
TestParameter, AutoAnalysis.Line2.Point2.Data.StartVar, 
TestParameter, AutoAnalysis.Line2.Point2.Data.StartCondition, 
TestParameter, AutoAnalysis.Line2.GradientExpr, 0
TestParameter, AutoAnalysis.Marker.Enabled, false
TestParameter, AutoAnalysis.Marker.Data.Var, 
TestParameter, AutoAnalysis.Marker.Data.Condition, 
TestParameter, AutoAnalysis.Marker.Data.Start, false
TestParameter, AutoAnalysis.Marker.Data.StartVar, 
TestParameter, AutoAnalysis.Marker.Data.StartCondition, 
MetaData, TestRecord.EntryPoint, true
MetaData, TestRecord.RecordTime, 03/10/2023 17:18:20
MetaData, TestRecord.TestTarget, 
MetaData, TestRecord.IterationIndex, 54
MetaData, TestRecord.Preservation, true
MetaData, TestRecord.Flag, 
MetaData, TestRecord.Remarks, 
MetaData, TestRecord.LinkKey, 591429d6-54ec-4220-bc3e-80bfa8cec078
Dimension1, 402, 402, 402, 402, 402, 402, 402, 402
Dimension2, 1, 1, 1, 1, 1, 1, 1, 1
DataName, V1, V2, I1, I2, V3, I3, V4, I4
DataValue, -2, 0.25, -6.1700000000000006E-12, 2.967E-11, , , , 
DataValue, -1.8900000000000001, 0.25, -3.0400000000000004E-12, 2.8920000000000002E-11, , , , 
DataValue, -1.78, 0.25, -2.3800000000000004E-12, 2.929E-11, , , , 
DataValue, -1.67, 0.25, -1.55E-12, 3.062E-11, , , , 
DataValue, -1.56, 0.25, -8.7E-13, 2.8800000000000003E-11, , , , 
DataValue, -1.45, 0.25, -9.9E-13, 2.824E-11, , , , 
DataValue, -1.34, 0.25, -4.4000000000000004E-13, 2.8010000000000002E-11, , , , 
DataValue, -1.23, 0.25, -5.2E-13, 2.9850000000000005E-11, , , , 
DataValue, -1.12, 0.25, 2.8E-13, 2.9370000000000004E-11, , , , 
DataValue, -1.01, 0.25, -1.7E-13, 2.7710000000000004E-11, , , , 
DataValue, -0.9, 0.25, 3.1000000000000004E-13, 2.7690000000000003E-11, , , , 
DataValue, -0.79, 0.25, 7.9000000000000007E-13, 2.92E-11, , , , 
DataValue, -0.68, 0.25, 8.6000000000000007E-13, 2.866E-11, , , , 
DataValue, -0.57000000000000006, 0.25, 1.9000000000000002E-13, 2.8620000000000004E-11, , , , 
DataValue, -0.46, 0.25, 1.4400000000000001E-12, 2.724E-11, , , , 
DataValue, -0.35000000000000003, 0.25, 1.7200000000000001E-12, 2.983E-11, , , , 
DataValue, -0.24, 0.25, 1.5600000000000002E-12, 2.835E-11, , , , 
DataValue, -0.13, 0.25, 8.2E-13, 2.7960000000000003E-11, , , , 
DataValue, -0.02, 0.25, 1.6700000000000002E-12, 2.8070000000000003E-11, , , , 
DataValue, 0.09, 0.25, 1.6300000000000001E-12, 2.8730000000000004E-11, , , , 
DataValue, 0.2, 0.25, 2.6000000000000002E-12, 2.916E-11, , , , 
DataValue, 0.31, 0.25, 2.62E-12, 2.813E-11, , , , 
DataValue, 0.42, 0.25, 2.51E-12, 2.651E-11, , , , 
DataValue, 0.53, 0.25, 2.46E-12, 2.8410000000000002E-11, , , , 
DataValue, 0.64, 0.25, 3.67E-12, 2.997E-11, , , , 
DataValue, 0.75, 0.25, 3.2600000000000002E-12, 2.8430000000000002E-11, , , , 
DataValue, 0.86, 0.25, 3.33E-12, 2.7010000000000002E-11, , , , 
DataValue, 0.97, 0.25, 3.1E-12, 2.8520000000000002E-11, , , , 
DataValue, 1.08, 0.25, 3.63E-12, 2.9220000000000004E-11, , , , 
DataValue, 1.19, 0.25, 3.76E-12, 2.7960000000000003E-11, , , , 
DataValue, 1.3, 0.25, 2.72E-12, 2.6830000000000003E-11, , , , 
DataValue, 1.41, 0.25, 2.72E-12, 2.7720000000000002E-11, , , , 
DataValue, 1.52, 0.25, 3.7900000000000006E-12, 2.964E-11, , , , 
DataValue, 1.6300000000000001, 0.25, 4.07E-12, 2.7610000000000002E-11, , , , 
DataValue, 1.74, 0.25, 3.75E-12, 2.733E-11, , , , 
DataValue, 1.85, 0.25, 3.46E-12, 2.775E-11, , , , 
DataValue, 1.96, 0.25, 4E-12, 2.8610000000000002E-11, , , , 
DataValue, 2.07, 0.25, 4.46E-12, 2.7450000000000003E-11, , , , 
DataValue, 2.18, 0.25, 3.65E-12, 2.666E-11, , , , 
DataValue, 2.29, 0.25, 4.01E-12, 2.7380000000000003E-11, , , , 
DataValue, 2.4, 0.25, 4.73E-12, 2.7800000000000004E-11, , , , 
DataValue, 2.5100000000000002, 0.25, 5.04E-12, 2.7630000000000002E-11, , , , 
DataValue, 2.62, 0.25, 3.91E-12, 2.715E-11, , , , 
DataValue, 2.73, 0.25, 4.5400000000000004E-12, 2.7800000000000004E-11, , , , 
DataValue, 2.84, 0.25, 5.2500000000000004E-12, 2.8010000000000002E-11, , , , 
DataValue, 2.95, 0.25, 5.34E-12, 2.788E-11, , , , 
DataValue, 3.06, 0.25, 4.5400000000000004E-12, 2.7290000000000003E-11, , , , 
DataValue, 3.17, 0.25, 4.88E-12, 2.8670000000000003E-11, , , , 
DataValue, 3.2800000000000002, 0.25, 5.1200000000000008E-12, 2.8000000000000003E-11, , , , 
DataValue, 3.39, 0.25, 5.7600000000000005E-12, 2.775E-11, , , , 
DataValue, 3.5, 0.25, 5.33E-12, 2.7520000000000002E-11, , , , 
DataValue, 3.61, 0.25, 4.7100000000000007E-12, 2.724E-11, , , , 
DataValue, 3.72, 0.25, 4.92E-12, 2.9110000000000003E-11, , , , 
DataValue, 3.83, 0.25, 6.8900000000000007E-12, 2.6830000000000003E-11, , , , 
DataValue, 3.94, 0.25, 6.1300000000000007E-12, 2.7010000000000002E-11, , , , 
DataValue, 4.05, 0.25, 5.49E-12, 2.6920000000000002E-11, , , , 
DataValue, 4.16, 0.25, 6.51E-12, 2.8740000000000002E-11, , , , 
DataValue, 4.2700000000000005, 0.25, 6.4800000000000007E-12, 2.7670000000000003E-11, , , , 
DataValue, 4.38, 0.25, 6.0100000000000004E-12, 2.724E-11, , , , 
DataValue, 4.49, 0.25, 5.9100000000000005E-12, 2.737E-11, , , , 
DataValue, 4.6000000000000005, 0.25, 6.3700000000000005E-12, 2.7520000000000002E-11, , , , 
DataValue, 4.71, 0.25, 6.46E-12, 2.6580000000000003E-11, , , , 
DataValue, 4.82, 0.25, 7.0800000000000005E-12, 2.5590000000000002E-11, , , , 
DataValue, 4.93, 0.25, 6.35E-12, 2.7590000000000002E-11, , , , 
DataValue, 5.04, 0.25, 7.1500000000000008E-12, 2.7600000000000004E-11, , , , 
DataValue, 5.15, 0.25, 7.21E-12, 2.8400000000000003E-11, , , , 
DataValue, 5.26, 0.25, 6.7E-12, 2.6720000000000002E-11, , , , 
DataValue, 5.37, 0.25, 7.55E-12, 2.4740000000000003E-11, , , , 
DataValue, 5.48, 0.25, 7.2500000000000008E-12, 2.7900000000000002E-11, , , , 
DataValue, 5.59, 0.25, 7.8E-12, 2.6960000000000003E-11, , , , 
DataValue, 5.7, 0.25, 7.65E-12, 2.6450000000000003E-11, , , , 
DataValue, 5.8100000000000005, 0.25, 8.33E-12, 2.5990000000000002E-11, , , , 
DataValue, 5.92, 0.25, 7.91E-12, 2.726E-11, , , , 
DataValue, 6.03, 0.25, 7.81E-12, 2.6890000000000004E-11, , , , 
DataValue, 6.1400000000000006, 0.25, 7.670000000000001E-12, 2.5260000000000002E-11, , , , 
DataValue, 6.25, 0.25, 8.2000000000000014E-12, 2.5990000000000002E-11, , , , 
DataValue, 6.36, 0.25, 8.2700000000000009E-12, 2.675E-11, , , , 
DataValue, 6.47, 0.25, 9.27E-12, 2.7230000000000003E-11, , , , 
DataValue, 6.58, 0.25, 8.02E-12, 2.5900000000000002E-11, , , , 
DataValue, 6.69, 0.25, 8.92E-12, 2.5860000000000002E-11, , , , 
DataValue, 6.8, 0.25, 9.13E-12, 2.711E-11, , , , 
DataValue, 6.91, 0.25, 9.13E-12, 2.653E-11, , , , 
DataValue, 7.0200000000000005, 0.25, 8.7000000000000013E-12, 2.551E-11, , , , 
DataValue, 7.13, 0.25, 9.45E-12, 2.5680000000000002E-11, , , , 
DataValue, 7.24, 0.25, 9.56E-12, 2.7500000000000002E-11, , , , 
DataValue, 7.3500000000000005, 0.25, 1.057E-11, 2.6480000000000002E-11, , , , 
DataValue, 7.46, 0.25, 9.68E-12, 2.5030000000000003E-11, , , , 
DataValue, 7.57, 0.25, 1.0010000000000001E-11, 2.4650000000000003E-11, , , , 
DataValue, 7.68, 0.25, 9.9200000000000014E-12, 2.7720000000000002E-11, , , , 
DataValue, 7.79, 0.25, 1.086E-11, 2.578E-11, , , , 
DataValue, 7.9, 0.25, 1.039E-11, 2.5390000000000002E-11, , , , 
DataValue, 8.01, 0.25, 1.047E-11, 2.407E-11, , , , 
DataValue, 8.120000000000001, 0.25, 1.0640000000000002E-11, 2.631E-11, , , , 
DataValue, 8.23, 0.25, 1.129E-11, 2.66E-11, , , , 
DataValue, 8.34, 0.25, 1.059E-11, 2.447E-11, , , , 
DataValue, 8.45, 0.25, 1.0730000000000001E-11, 2.4240000000000002E-11, , , , 
DataValue, 8.56, 0.25, 1.1120000000000001E-11, 2.635E-11, , , , 
DataValue, 8.67, 0.25, 1.2340000000000001E-11, 2.653E-11, , , , 
DataValue, 8.78, 0.25, 1.1640000000000001E-11, 2.544E-11, , , , 
DataValue, 8.89, 0.25, 1.149E-11, 2.3900000000000003E-11, , , , 
DataValue, 9, 0.25, 1.1970000000000002E-11, 2.5990000000000002E-11, , , , 
DataValue, 9.11, 0.25, 1.2650000000000001E-11, 2.6450000000000003E-11, , , , 
DataValue, 9.22, 0.25, 1.231E-11, 2.4810000000000003E-11, , , , 
DataValue, 9.33, 0.25, 1.23E-11, 2.427E-11, , , , 
DataValue, 9.44, 0.25, 1.2070000000000002E-11, 2.4750000000000002E-11, , , , 
DataValue, 9.55, 0.25, 1.279E-11, 2.604E-11, , , , 
DataValue, 9.66, 0.25, 1.26E-11, 2.447E-11, , , , 
DataValue, 9.77, 0.25, 1.2860000000000001E-11, 2.4750000000000002E-11, , , , 
DataValue, 9.88, 0.25, 1.3060000000000001E-11, 2.569E-11, , , , 
DataValue, 9.99, 0.25, 1.3900000000000002E-11, 2.5860000000000002E-11, , , , 
DataValue, 10.1, 0.25, 1.3340000000000001E-11, 2.478E-11, , , , 
DataValue, 10.21, 0.25, 1.3150000000000001E-11, 2.3750000000000002E-11, , , , 
DataValue, 10.32, 0.25, 1.3450000000000001E-11, 2.5010000000000003E-11, , , , 
DataValue, 10.43, 0.25, 1.4280000000000001E-11, 2.5980000000000004E-11, , , , 
DataValue, 10.540000000000001, 0.25, 1.3950000000000001E-11, 2.4720000000000003E-11, , , , 
DataValue, 10.65, 0.25, 1.3870000000000001E-11, 2.3550000000000002E-11, , , , 
DataValue, 10.76, 0.25, 1.4070000000000001E-11, 2.5010000000000003E-11, , , , 
DataValue, 10.870000000000001, 0.25, 1.466E-11, 2.5700000000000002E-11, , , , 
DataValue, 10.98, 0.25, 1.4850000000000002E-11, 2.3730000000000002E-11, , , , 
DataValue, 11.09, 0.25, 1.499E-11, 2.396E-11, , , , 
DataValue, 11.200000000000001, 0.25, 1.4110000000000002E-11, 2.4260000000000002E-11, , , , 
DataValue, 11.31, 0.25, 1.533E-11, 2.4540000000000003E-11, , , , 
DataValue, 11.42, 0.25, 1.564E-11, 2.4350000000000002E-11, , , , 
DataValue, 11.53, 0.25, 1.5140000000000002E-11, 2.3570000000000002E-11, , , , 
DataValue, 11.64, 0.25, 1.52E-11, 2.382E-11, , , , 
DataValue, 11.75, 0.25, 1.67E-11, 2.4030000000000003E-11, , , , 
DataValue, 11.86, 0.25, 1.6360000000000002E-11, 2.32E-11, , , , 
DataValue, 11.97, 0.25, 1.621E-11, 2.327E-11, , , , 
DataValue, 12.08, 0.25, 1.564E-11, 2.389E-11, , , , 
DataValue, 12.19, 0.25, 1.7180000000000002E-11, 2.4860000000000002E-11, , , , 
DataValue, 12.3, 0.25, 1.7420000000000003E-11, 2.3230000000000003E-11, , , , 
DataValue, 12.41, 0.25, 1.675E-11, 2.3320000000000003E-11, , , , 
DataValue, 12.52, 0.25, 1.683E-11, 2.2300000000000003E-11, , , , 
DataValue, 12.63, 0.25, 1.67E-11, 2.4650000000000003E-11, , , , 
DataValue, 12.74, 0.25, 1.7670000000000002E-11, 2.4320000000000003E-11, , , , 
DataValue, 12.85, 0.25, 1.764E-11, 2.201E-11, , , , 
DataValue, 12.96, 0.25, 1.77E-11, 2.2E-11, , , , 
DataValue, 13.07, 0.25, 1.8090000000000002E-11, 2.431E-11, , , , 
DataValue, 13.18, 0.25, 1.9310000000000002E-11, 2.4450000000000003E-11, , , , 
DataValue, 13.290000000000001, 0.25, 1.83E-11, 2.249E-11, , , , 
DataValue, 13.4, 0.25, 1.8200000000000002E-11, 2.2170000000000003E-11, , , , 
DataValue, 13.51, 0.25, 1.883E-11, 2.2820000000000002E-11, , , , 
DataValue, 13.620000000000001, 0.25, 2.0570000000000003E-11, 2.4140000000000003E-11, , , , 
DataValue, 13.73, 0.25, 1.906E-11, 2.2620000000000002E-11, , , , 
DataValue, 13.84, 0.25, 1.9330000000000003E-11, 2.161E-11, , , , 
DataValue, 13.950000000000001, 0.25, 1.9180000000000002E-11, 2.358E-11, , , , 
DataValue, 14.06, 0.25, 2.085E-11, 2.4240000000000002E-11, , , , 
DataValue, 14.17, 0.25, 1.9970000000000003E-11, 2.2350000000000002E-11, , , , 
DataValue, 14.280000000000001, 0.25, 2.0860000000000003E-11, 2.134E-11, , , , 
DataValue, 14.39, 0.25, 2.032E-11, 2.296E-11, , , , 
DataValue, 14.5, 0.25, 2.1700000000000003E-11, 2.4040000000000002E-11, , , , 
DataValue, 14.61, 0.25, 2.1820000000000002E-11, 2.3190000000000003E-11, , , , 
DataValue, 14.72, 0.25, 2.1950000000000002E-11, 2.2310000000000002E-11, , , , 
DataValue, 14.83, 0.25, 2.254E-11, 2.3080000000000003E-11, , , , 
DataValue, 14.94, 0.25, 2.2840000000000002E-11, 2.4720000000000003E-11, , , , 
DataValue, 15.05, 0.25, 2.209E-11, 2.254E-11, , , , 
DataValue, 15.16, 0.25, 2.2480000000000003E-11, 2.303E-11, , , , 
DataValue, 15.27, 0.25, 2.3150000000000002E-11, 2.462E-11, , , , 
DataValue, 15.38, 0.25, 2.3700000000000003E-11, 2.4850000000000003E-11, , , , 
DataValue, 15.49, 0.25, 2.3730000000000002E-11, 2.491E-11, , , , 
DataValue, 15.6, 0.25, 2.3570000000000002E-11, 2.449E-11, , , , 
DataValue, 15.71, 0.25, 2.371E-11, 2.5570000000000002E-11, , , , 
DataValue, 15.82, 0.25, 2.4660000000000002E-11, 2.8300000000000002E-11, , , , 
DataValue, 15.93, 0.25, 2.5080000000000002E-11, 3.041E-11, , , , 
DataValue, 16.04, 0.25, 2.513E-11, 2.9630000000000005E-11, , , , 
DataValue, 16.15, 0.25, 2.5120000000000003E-11, 3.12E-11, , , , 
DataValue, 16.26, 0.25, 2.5460000000000002E-11, 3.4900000000000004E-11, , , , 
DataValue, 16.37, 0.25, 2.7200000000000004E-11, 3.8770000000000005E-11, , , , 
DataValue, 16.48, 0.25, 2.6050000000000003E-11, 4.115E-11, , , , 
DataValue, 16.59, 0.25, 2.6960000000000003E-11, 4.378E-11, , , , 
DataValue, 16.7, 0.25, 2.7410000000000002E-11, 4.963E-11, , , , 
DataValue, 16.81, 0.25, 2.837E-11, 5.5660000000000005E-11, , , , 
DataValue, 16.92, 0.25, 2.7790000000000002E-11, 6.1690000000000009E-11, , , , 
DataValue, 17.03, 0.25, 2.8000000000000003E-11, 6.838E-11, , , , 
DataValue, 17.14, 0.25, 2.9010000000000002E-11, 8.021E-11, , , , 
DataValue, 17.25, 0.25, 2.9190000000000005E-11, 9.2350000000000009E-11, , , , 
DataValue, 17.36, 0.25, 2.979E-11, 1.0438E-10, , , , 
DataValue, 17.47, 0.25, 2.92E-11, 1.1985E-10, , , , 
DataValue, 17.580000000000002, 0.25, 3.018E-11, 1.3961000000000002E-10, , , , 
DataValue, 17.69, 0.25, 3.009E-11, 1.6493000000000002E-10, , , , 
DataValue, 17.8, 0.25, 3.095E-11, 1.9156E-10, , , , 
DataValue, 17.91, 0.25, 3.124E-11, 2.2411000000000002E-10, , , , 
DataValue, 18.02, 0.25, 3.1040000000000003E-11, 2.6238000000000003E-10, , , , 
DataValue, 18.13, 0.25, 3.253E-11, 3.1048000000000005E-10, , , , 
DataValue, 18.240000000000002, 0.25, 3.2870000000000005E-11, 3.6536E-10, , , , 
DataValue, 18.35, 0.25, 3.2500000000000004E-11, 4.3026E-10, , , , 
DataValue, 18.46, 0.25, 3.2900000000000004E-11, 5.0752E-10, , , , 
DataValue, 18.57, 0.25, 3.368E-11, 6.0315E-10, , , , 
DataValue, 18.68, 0.25, 3.4650000000000004E-11, 7.1205E-10, , , , 
DataValue, 18.79, 0.25, 3.4070000000000005E-11, 8.3960000000000008E-10, , , , 
DataValue, 18.900000000000002, 0.25, 3.522E-11, 9.9458E-10, , , , 
DataValue, 19.01, 0.25, 3.606E-11, 1.1887E-09, , , , 
DataValue, 19.12, 0.25, 3.6070000000000004E-11, 1.4051E-09, , , , 
DataValue, 19.23, 0.25, 3.59E-11, 1.6611E-09, , , , 
DataValue, 19.34, 0.25, 3.6220000000000005E-11, 1.9629E-09, , , , 
DataValue, 19.45, 0.25, 3.73E-11, 2.3256E-09, , , , 
DataValue, 19.56, 0.25, 3.93E-11, 2.7534E-09, , , , 
DataValue, 19.67, 0.25, 3.856E-11, 3.253E-09, , , , 
DataValue, 19.78, 0.25, 3.875E-11, 3.8411E-09, , , , 
DataValue, 19.89, 0.25, 3.9780000000000004E-11, 4.5509E-09, , , , 
DataValue, 20, 0.25, 4.0630000000000006E-11, 5.3679E-09, , , , 
DataValue, 20, 0.25, 3.981E-11, 5.3838E-09, , , , 
DataValue, 19.89, 0.25, 3.721E-11, 4.6594E-09, , , , 
