
SetupTitle, R-V
ApplicationTest, R-V, Public
TestParameter, Name, Port1, Port2, V1Start, V1Stop, V1Step, V2, I1Limit, IntegTime, HoldTime, DelayTime, Port1MinRng
TestParameter, Value, SMU1:MP	MPSMU, SMU2:MP	MPSMU, 0, 1, 0.05, 0, 0.01, MEDIUM, 0, 0, 1nA
DutParameter, Name, L, W, Temp
DutParameter, Value, 1E-05, 1E-06, 25
MetaData, TestRecord.EntryPoint, true
MetaData, TestRecord.RecordTime, 03/04/2023 18:54:06
MetaData, TestRecord.TestTarget, 
MetaData, TestRecord.IterationIndex, 276
MetaData, TestRecord.Preservation, true
MetaData, TestRecord.Flag, 
MetaData, TestRecord.Remarks, 
MetaData, TestRecord.LinkKey, 234bf3e4-cb2d-4bb3-bebb-29c25c9839ab
Dimension1, 21, 21, 21, 21
Dimension2, 1, 1, 1, 1
DataName, V1, I1, R, Rsheet
DataValue, 0, 4.36E-13, 0, 0
DataValue, 0.05, 9.6400000000000013E-13, 51867219917.012444, 5186721991.7012444
DataValue, 0.1, 1.047E-12, 95510983763.132751, 9551098376.3132744
DataValue, 0.15, 1.402E-12, 106990014265.33522, 10699001426.53352
DataValue, 0.2, 1.4190000000000001E-12, 140944326990.83862, 14094432699.083862
DataValue, 0.25, 1.4950000000000002E-12, 167224080267.5585, 16722408026.755848
DataValue, 0.3, 1.6200000000000002E-12, 185185185185.18515, 18518518518.518513
DataValue, 0.35000000000000003, 1.7000000000000002E-12, 205882352941.17645, 20588235294.117641
DataValue, 0.4, 1.944E-12, 205761316872.42798, 20576131687.242794
DataValue, 0.45, 1.997E-12, 225338007010.51578, 22533800701.051575
DataValue, 0.5, 2.18E-12, 229357798165.1376, 22935779816.513756
DataValue, 0.55, 2.0360000000000002E-12, 270137524557.95679, 27013752455.795677
DataValue, 0.6, 2.1410000000000003E-12, 280242877160.20544, 28024287716.020542
DataValue, 0.65, 2.2290000000000003E-12, 291610587707.49213, 29161058770.74921
DataValue, 0.70000000000000007, 2.3170000000000003E-12, 302114803625.37762, 30211480362.537758
DataValue, 0.75, 2.403E-12, 312109862671.6604, 31210986267.166035
DataValue, 0.8, 2.535E-12, 315581854043.39252, 31558185404.339249
DataValue, 0.85000000000000009, 2.627E-12, 323562999619.33771, 32356299961.933765
DataValue, 0.9, 2.8770000000000004E-12, 312825860271.11572, 31282586027.111568
DataValue, 0.95000000000000007, 2.803E-12, 338922582946.84271, 33892258294.684269
DataValue, 1, 2.9260000000000003E-12, 341763499658.23645, 34176349965.823643
SetupTitle, R-V
PrimitiveTest, I/V Sweep
TestParameter, Context.MainFrame, B1500A
TestParameter, Channel.UnitType, SMU, SMU
TestParameter, Channel.Unit, Port1, Port2
TestParameter, Channel.IName, I1, I2
TestParameter, Channel.VName, V1, V2
TestParameter, Channel.Mode, V, V
TestParameter, Channel.Func, VAR1, CONST
TestParameter, Channel.Index, 
TestParameter, Channel.Time, 
TestParameter, Measurement.Port.Unit, Port1, Port2
TestParameter, Measurement.Port.SeriesResistor, NONE, NONE
TestParameter, Measurement.Port.Filter, OFF, OFF
TestParameter, Measurement.Port.OutputVoltageComparison, 0, 0
TestParameter, Measurement.Primary.Locus, Single
TestParameter, Measurement.Primary.Scale, LINEAR
TestParameter, Measurement.Primary.Start, V1Start
TestParameter, Measurement.Primary.Stop, V1Stop
TestParameter, Measurement.Primary.Step, V1Step
TestParameter, Measurement.Primary.Compliance, I1Limit
TestParameter, Measurement.Primary.PowerCompliance, 0
TestParameter, Measurement.Aborting.Condition, CONTINUE AT ANY
TestParameter, Measurement.PostOutput.Value, START
TestParameter, Measurement.PostOutput.Retention, OFF
TestParameter, Measurement.Bias.Source, 0, V2
TestParameter, Measurement.Bias.Compliance, 0.01, I1Limit
TestParameter, Measurement.Monitor.Unit, SMU:=Port1, SMU:=Port2
TestParameter, Measurement.Monitor.Adc, HR ADC, HR ADC
TestParameter, Measurement.Monitor.Measurement, Compliance Side, Compliance Side
TestParameter, Measurement.Monitor.RangingMode, LIMITED, LIMITED
TestParameter, Measurement.Monitor.RangeBoundary, Port1MinRng, 1nA
TestParameter, Measurement.Monitor.RangeRating, BY FULL RANGE, BY FULL RANGE
TestParameter, Measurement.Monitor.RangeRatingCoeff, 50, 50
TestParameter, Measurement.Timing.Hold, HoldTime
TestParameter, Measurement.Timing.Delay, DelayTime
TestParameter, Measurement.Adc.HighSpeed.Mode, AUTO
TestParameter, Measurement.Adc.HighSpeed.Coeff, 1
TestParameter, Measurement.Adc.HighResolution.AutoZero, ON
TestParameter, Measurement.Adc.HighResolution.Mode, IntegMode
TestParameter, Measurement.Adc.HighResolution.Coeff, AdcFactor
TestParameter, Measurement.WaitTime.Source.Coeff, 1
TestParameter, Measurement.WaitTime.Source.Offset, 0
TestParameter, Measurement.WaitTime.Monitor.Coeff, 1
TestParameter, Measurement.WaitTime.Monitor.Offset, 0
TestParameter, Function.User.Name, R, Rsheet
TestParameter, Function.User.Unit, ohm, ohm/sheet
TestParameter, Function.User.Definition, V1/I1, R*W/L
TestParameter, Output.Graph.Enabled, true
TestParameter, Output.Graph.AutoScaling, false
TestParameter, Output.Graph.XAxis.Data, V1
TestParameter, Output.Graph.XAxis.Scale, Linear
TestParameter, Output.Graph.XAxis.Left, V1Start
TestParameter, Output.Graph.XAxis.Right, V1Stop
TestParameter, Output.Graph.XAxis.RunTimeAutoScale, false
TestParameter, Output.Graph.YAxis.Data, R, I1
TestParameter, Output.Graph.YAxis.Scale, Linear, Linear
TestParameter, Output.Graph.YAxis.Bottom, 0, 0
TestParameter, Output.Graph.YAxis.Top, V1Stop/I1Limit, I1Limit
TestParameter, Output.Graph.YAxis.Group, , 
TestParameter, Output.Graph.YAxis.RunTimeAutoScale, false, false
TestParameter, Output.List.Data, V1, I1, R, Rsheet
TestParameter, AutoAnalysis.Interpolation, false
TestParameter, AutoAnalysis.Line1.Enabled, false
TestParameter, AutoAnalysis.Line1.Type, 1
TestParameter, AutoAnalysis.Line1.Fix, False
TestParameter, AutoAnalysis.Line1.YAxis, 0
TestParameter, AutoAnalysis.Line1.Point1.Type, 0
TestParameter, AutoAnalysis.Line1.Point1.XY.X, 
TestParameter, AutoAnalysis.Line1.Point1.XY.Y, 
TestParameter, AutoAnalysis.Line1.Point1.Data.Var, 
TestParameter, AutoAnalysis.Line1.Point1.Data.Condition, 
TestParameter, AutoAnalysis.Line1.Point1.Data.Start, false
TestParameter, AutoAnalysis.Line1.Point1.Data.StartVar, 
TestParameter, AutoAnalysis.Line1.Point1.Data.StartCondition, 
TestParameter, AutoAnalysis.Line1.Point2.Type, 0
TestParameter, AutoAnalysis.Line1.Point2.XY.X, 
TestParameter, AutoAnalysis.Line1.Point2.XY.Y, 
TestParameter, AutoAnalysis.Line1.Point2.Data.Var, 
TestParameter, AutoAnalysis.Line1.Point2.Data.Condition, 
TestParameter, AutoAnalysis.Line1.Point2.Data.Start, false
TestParameter, AutoAnalysis.Line1.Point2.Data.StartVar, 
TestParameter, AutoAnalysis.Line1.Point2.Data.StartCondition, 
TestParameter, AutoAnalysis.Line1.GradientExpr, 0
TestParameter, AutoAnalysis.Line2.Enabled, false
TestParameter, AutoAnalysis.Line2.Type, 1
TestParameter, AutoAnalysis.Line2.Fix, False
TestParameter, AutoAnalysis.Line2.YAxis, 0
TestParameter, AutoAnalysis.Line2.Point1.Type, 0
TestParameter, AutoAnalysis.Line2.Point1.XY.X, 
TestParameter, AutoAnalysis.Line2.Point1.XY.Y, 
TestParameter, AutoAnalysis.Line2.Point1.Data.Var, 
TestParameter, AutoAnalysis.Line2.Point1.Data.Condition, 
TestParameter, AutoAnalysis.Line2.Point1.Data.Start, false
TestParameter, AutoAnalysis.Line2.Point1.Data.StartVar, 
TestParameter, AutoAnalysis.Line2.Point1.Data.StartCondition, 
TestParameter, AutoAnalysis.Line2.Point2.Type, 0
TestParameter, AutoAnalysis.Line2.Point2.XY.X, 
TestParameter, AutoAnalysis.Line2.Point2.XY.Y, 
TestParameter, AutoAnalysis.Line2.Point2.Data.Var, 
TestParameter, AutoAnalysis.Line2.Point2.Data.Condition, 
TestParameter, AutoAnalysis.Line2.Point2.Data.Start, false
TestParameter, AutoAnalysis.Line2.Point2.Data.StartVar, 
TestParameter, AutoAnalysis.Line2.Point2.Data.StartCondition, 
TestParameter, AutoAnalysis.Line2.GradientExpr, 0
TestParameter, AutoAnalysis.Marker.Enabled, false
TestParameter, AutoAnalysis.Marker.Data.Var, 
TestParameter, AutoAnalysis.Marker.Data.Condition, 
TestParameter, AutoAnalysis.Marker.Data.Start, false
TestParameter, AutoAnalysis.Marker.Data.StartVar, 
TestParameter, AutoAnalysis.Marker.Data.StartCondition, 
MetaData, TestRecord.EntryPoint, false
MetaData, TestRecord.RecordTime, 03/04/2023 18:54:06
MetaData, TestRecord.TestTarget, 
MetaData, TestRecord.IterationIndex, 276
MetaData, TestRecord.Preservation, true
MetaData, TestRecord.Flag, 
MetaData, TestRecord.Remarks, 
MetaData, TestRecord.LinkKey, 234bf3e4-cb2d-4bb3-bebb-29c25c9839ab
Dimension1, 21, 21, 21, 21
Dimension2, 1, 1, 1, 1
DataName, V1, I1, R, Rsheet
DataValue, 0, 4.36E-13, 0, 0
DataValue, 0.05, 9.6400000000000013E-13, 51867219917.012444, 5186721991.7012444
DataValue, 0.1, 1.047E-12, 95510983763.132751, 9551098376.3132744
DataValue, 0.15, 1.402E-12, 106990014265.33522, 10699001426.53352
DataValue, 0.2, 1.4190000000000001E-12, 140944326990.83862, 14094432699.083862
DataValue, 0.25, 1.4950000000000002E-12, 167224080267.5585, 16722408026.755848
DataValue, 0.3, 1.6200000000000002E-12, 185185185185.18515, 18518518518.518513
DataValue, 0.35000000000000003, 1.7000000000000002E-12, 205882352941.17645, 20588235294.117641
DataValue, 0.4, 1.944E-12, 205761316872.42798, 20576131687.242794
DataValue, 0.45, 1.997E-12, 225338007010.51578, 22533800701.051575
DataValue, 0.5, 2.18E-12, 229357798165.1376, 22935779816.513756
DataValue, 0.55, 2.0360000000000002E-12, 270137524557.95679, 27013752455.795677
DataValue, 0.6, 2.1410000000000003E-12, 280242877160.20544, 28024287716.020542
DataValue, 0.65, 2.2290000000000003E-12, 291610587707.49213, 29161058770.74921
DataValue, 0.70000000000000007, 2.3170000000000003E-12, 302114803625.37762, 30211480362.537758
DataValue, 0.75, 2.403E-12, 312109862671.6604, 31210986267.166035
DataValue, 0.8, 2.535E-12, 315581854043.39252, 31558185404.339249
DataValue, 0.85000000000000009, 2.627E-12, 323562999619.33771, 32356299961.933765
DataValue, 0.9, 2.8770000000000004E-12, 312825860271.11572, 31282586027.111568
DataValue, 0.95000000000000007, 2.803E-12, 338922582946.84271, 33892258294.684269
DataValue, 1, 2.9260000000000003E-12, 341763499658.23645, 34176349965.823643