
SetupTitle, R-V
ApplicationTest, R-V, Public
TestParameter, Name, Port1, Port2, V1Start, V1Stop, V1Step, V2, I1Limit, IntegTime, HoldTime, DelayTime, Port1MinRng
TestParameter, Value, SMU1:MP	MPSMU, SMU2:MP	MPSMU, 0, 1, 0.05, 0, 0.01, MEDIUM, 0, 0, 1nA
DutParameter, Name, L, W, Temp
DutParameter, Value, 1E-05, 1E-06, 25
MetaData, TestRecord.EntryPoint, true
MetaData, TestRecord.RecordTime, 03/04/2023 18:53:38
MetaData, TestRecord.TestTarget, 
MetaData, TestRecord.IterationIndex, 275
MetaData, TestRecord.Preservation, true
MetaData, TestRecord.Flag, 
MetaData, TestRecord.Remarks, 
MetaData, TestRecord.LinkKey, 83226b7b-7bcf-40d8-807f-3c8e3701c8f6
Dimension1, 21, 21, 21, 21
Dimension2, 1, 1, 1, 1
DataName, V1, I1, R, Rsheet
DataValue, 0, 5.67E-13, 0, 0
DataValue, 0.05, 1.017E-12, 49164208456.243858, 4916420845.6243849
DataValue, 0.1, 1.255E-12, 79681274900.3984, 7968127490.03984
DataValue, 0.15, 1.4880000000000001E-12, 100806451612.90321, 10080645161.290321
DataValue, 0.2, 1.5700000000000002E-12, 127388535031.84712, 12738853503.184712
DataValue, 0.25, 1.7480000000000002E-12, 143020594965.67505, 14302059496.567501
DataValue, 0.3, 1.885E-12, 159151193633.95224, 15915119363.395222
DataValue, 0.35000000000000003, 1.864E-12, 187768240343.34766, 18776824034.334763
DataValue, 0.4, 2.047E-12, 195407914020.51782, 19540791402.051781
DataValue, 0.45, 2.169E-12, 207468879668.04977, 20746887966.804977
DataValue, 0.5, 2.311E-12, 216356555603.63477, 21635655560.363476
DataValue, 0.55, 2.365E-12, 232558139534.88373, 23255813953.488369
DataValue, 0.6, 2.3880000000000003E-12, 251256281407.03513, 25125628140.703506
DataValue, 0.65, 2.541E-12, 255804801259.34671, 25580480125.934666
DataValue, 0.70000000000000007, 2.7140000000000004E-12, 257921886514.36993, 25792188651.436989
DataValue, 0.75, 2.778E-12, 269978401727.86176, 26997840172.786171
DataValue, 0.8, 2.799E-12, 285816362986.781, 28581636298.678097
DataValue, 0.85000000000000009, 2.9020000000000004E-12, 292901447277.7395, 29290144727.773945
DataValue, 0.9, 3.1010000000000002E-12, 290228958400.51593, 29022895840.051586
DataValue, 0.95000000000000007, 3.1E-12, 306451612903.22583, 30645161290.322578
DataValue, 1, 3.3580000000000004E-12, 297796307325.78912, 29779630732.578911
SetupTitle, R-V
PrimitiveTest, I/V Sweep
TestParameter, Context.MainFrame, B1500A
TestParameter, Channel.UnitType, SMU, SMU
TestParameter, Channel.Unit, Port1, Port2
TestParameter, Channel.IName, I1, I2
TestParameter, Channel.VName, V1, V2
TestParameter, Channel.Mode, V, V
TestParameter, Channel.Func, VAR1, CONST
TestParameter, Channel.Index, 
TestParameter, Channel.Time, 
TestParameter, Measurement.Port.Unit, Port1, Port2
TestParameter, Measurement.Port.SeriesResistor, NONE, NONE
TestParameter, Measurement.Port.Filter, OFF, OFF
TestParameter, Measurement.Port.OutputVoltageComparison, 0, 0
TestParameter, Measurement.Primary.Locus, Single
TestParameter, Measurement.Primary.Scale, LINEAR
TestParameter, Measurement.Primary.Start, V1Start
TestParameter, Measurement.Primary.Stop, V1Stop
TestParameter, Measurement.Primary.Step, V1Step
TestParameter, Measurement.Primary.Compliance, I1Limit
TestParameter, Measurement.Primary.PowerCompliance, 0
TestParameter, Measurement.Aborting.Condition, CONTINUE AT ANY
TestParameter, Measurement.PostOutput.Value, START
TestParameter, Measurement.PostOutput.Retention, OFF
TestParameter, Measurement.Bias.Source, 0, V2
TestParameter, Measurement.Bias.Compliance, 0.01, I1Limit
TestParameter, Measurement.Monitor.Unit, SMU:=Port1, SMU:=Port2
TestParameter, Measurement.Monitor.Adc, HR ADC, HR ADC
TestParameter, Measurement.Monitor.Measurement, Compliance Side, Compliance Side
TestParameter, Measurement.Monitor.RangingMode, LIMITED, LIMITED
TestParameter, Measurement.Monitor.RangeBoundary, Port1MinRng, 1nA
TestParameter, Measurement.Monitor.RangeRating, BY FULL RANGE, BY FULL RANGE
TestParameter, Measurement.Monitor.RangeRatingCoeff, 50, 50
TestParameter, Measurement.Timing.Hold, HoldTime
TestParameter, Measurement.Timing.Delay, DelayTime
TestParameter, Measurement.Adc.HighSpeed.Mode, AUTO
TestParameter, Measurement.Adc.HighSpeed.Coeff, 1
TestParameter, Measurement.Adc.HighResolution.AutoZero, ON
TestParameter, Measurement.Adc.HighResolution.Mode, IntegMode
TestParameter, Measurement.Adc.HighResolution.Coeff, AdcFactor
TestParameter, Measurement.WaitTime.Source.Coeff, 1
TestParameter, Measurement.WaitTime.Source.Offset, 0
TestParameter, Measurement.WaitTime.Monitor.Coeff, 1
TestParameter, Measurement.WaitTime.Monitor.Offset, 0
TestParameter, Function.User.Name, R, Rsheet
TestParameter, Function.User.Unit, ohm, ohm/sheet
TestParameter, Function.User.Definition, V1/I1, R*W/L
TestParameter, Output.Graph.Enabled, true
TestParameter, Output.Graph.AutoScaling, false
TestParameter, Output.Graph.XAxis.Data, V1
TestParameter, Output.Graph.XAxis.Scale, Linear
TestParameter, Output.Graph.XAxis.Left, V1Start
TestParameter, Output.Graph.XAxis.Right, V1Stop
TestParameter, Output.Graph.XAxis.RunTimeAutoScale, false
TestParameter, Output.Graph.YAxis.Data, R, I1
TestParameter, Output.Graph.YAxis.Scale, Linear, Linear
TestParameter, Output.Graph.YAxis.Bottom, 0, 0
TestParameter, Output.Graph.YAxis.Top, V1Stop/I1Limit, I1Limit
TestParameter, Output.Graph.YAxis.Group, , 
TestParameter, Output.Graph.YAxis.RunTimeAutoScale, false, false
TestParameter, Output.List.Data, V1, I1, R, Rsheet
TestParameter, AutoAnalysis.Interpolation, false
TestParameter, AutoAnalysis.Line1.Enabled, false
TestParameter, AutoAnalysis.Line1.Type, 1
TestParameter, AutoAnalysis.Line1.Fix, False
TestParameter, AutoAnalysis.Line1.YAxis, 0
TestParameter, AutoAnalysis.Line1.Point1.Type, 0
TestParameter, AutoAnalysis.Line1.Point1.XY.X, 
TestParameter, AutoAnalysis.Line1.Point1.XY.Y, 
TestParameter, AutoAnalysis.Line1.Point1.Data.Var, 
TestParameter, AutoAnalysis.Line1.Point1.Data.Condition, 
TestParameter, AutoAnalysis.Line1.Point1.Data.Start, false
TestParameter, AutoAnalysis.Line1.Point1.Data.StartVar, 
TestParameter, AutoAnalysis.Line1.Point1.Data.StartCondition, 
TestParameter, AutoAnalysis.Line1.Point2.Type, 0
TestParameter, AutoAnalysis.Line1.Point2.XY.X, 
TestParameter, AutoAnalysis.Line1.Point2.XY.Y, 
TestParameter, AutoAnalysis.Line1.Point2.Data.Var, 
TestParameter, AutoAnalysis.Line1.Point2.Data.Condition, 
TestParameter, AutoAnalysis.Line1.Point2.Data.Start, false
TestParameter, AutoAnalysis.Line1.Point2.Data.StartVar, 
TestParameter, AutoAnalysis.Line1.Point2.Data.StartCondition, 
TestParameter, AutoAnalysis.Line1.GradientExpr, 0
TestParameter, AutoAnalysis.Line2.Enabled, false
TestParameter, AutoAnalysis.Line2.Type, 1
TestParameter, AutoAnalysis.Line2.Fix, False
TestParameter, AutoAnalysis.Line2.YAxis, 0
TestParameter, AutoAnalysis.Line2.Point1.Type, 0
TestParameter, AutoAnalysis.Line2.Point1.XY.X, 
TestParameter, AutoAnalysis.Line2.Point1.XY.Y, 
TestParameter, AutoAnalysis.Line2.Point1.Data.Var, 
TestParameter, AutoAnalysis.Line2.Point1.Data.Condition, 
TestParameter, AutoAnalysis.Line2.Point1.Data.Start, false
TestParameter, AutoAnalysis.Line2.Point1.Data.StartVar, 
TestParameter, AutoAnalysis.Line2.Point1.Data.StartCondition, 
TestParameter, AutoAnalysis.Line2.Point2.Type, 0
TestParameter, AutoAnalysis.Line2.Point2.XY.X, 
TestParameter, AutoAnalysis.Line2.Point2.XY.Y, 
TestParameter, AutoAnalysis.Line2.Point2.Data.Var, 
TestParameter, AutoAnalysis.Line2.Point2.Data.Condition, 
TestParameter, AutoAnalysis.Line2.Point2.Data.Start, false
TestParameter, AutoAnalysis.Line2.Point2.Data.StartVar, 
TestParameter, AutoAnalysis.Line2.Point2.Data.StartCondition, 
TestParameter, AutoAnalysis.Line2.GradientExpr, 0
TestParameter, AutoAnalysis.Marker.Enabled, false
TestParameter, AutoAnalysis.Marker.Data.Var, 
TestParameter, AutoAnalysis.Marker.Data.Condition, 
TestParameter, AutoAnalysis.Marker.Data.Start, false
TestParameter, AutoAnalysis.Marker.Data.StartVar, 
TestParameter, AutoAnalysis.Marker.Data.StartCondition, 
MetaData, TestRecord.EntryPoint, false
MetaData, TestRecord.RecordTime, 03/04/2023 18:53:38
MetaData, TestRecord.TestTarget, 
MetaData, TestRecord.IterationIndex, 275
MetaData, TestRecord.Preservation, true
MetaData, TestRecord.Flag, 
MetaData, TestRecord.Remarks, 
MetaData, TestRecord.LinkKey, 83226b7b-7bcf-40d8-807f-3c8e3701c8f6
Dimension1, 21, 21, 21, 21
Dimension2, 1, 1, 1, 1
DataName, V1, I1, R, Rsheet
DataValue, 0, 5.67E-13, 0, 0
DataValue, 0.05, 1.017E-12, 49164208456.243858, 4916420845.6243849
DataValue, 0.1, 1.255E-12, 79681274900.3984, 7968127490.03984
DataValue, 0.15, 1.4880000000000001E-12, 100806451612.90321, 10080645161.290321
DataValue, 0.2, 1.5700000000000002E-12, 127388535031.84712, 12738853503.184712
DataValue, 0.25, 1.7480000000000002E-12, 143020594965.67505, 14302059496.567501
DataValue, 0.3, 1.885E-12, 159151193633.95224, 15915119363.395222
DataValue, 0.35000000000000003, 1.864E-12, 187768240343.34766, 18776824034.334763
DataValue, 0.4, 2.047E-12, 195407914020.51782, 19540791402.051781
DataValue, 0.45, 2.169E-12, 207468879668.04977, 20746887966.804977
DataValue, 0.5, 2.311E-12, 216356555603.63477, 21635655560.363476
DataValue, 0.55, 2.365E-12, 232558139534.88373, 23255813953.488369
DataValue, 0.6, 2.3880000000000003E-12, 251256281407.03513, 25125628140.703506
DataValue, 0.65, 2.541E-12, 255804801259.34671, 25580480125.934666
DataValue, 0.70000000000000007, 2.7140000000000004E-12, 257921886514.36993, 25792188651.436989
DataValue, 0.75, 2.778E-12, 269978401727.86176, 26997840172.786171
DataValue, 0.8, 2.799E-12, 285816362986.781, 28581636298.678097
DataValue, 0.85000000000000009, 2.9020000000000004E-12, 292901447277.7395, 29290144727.773945
DataValue, 0.9, 3.1010000000000002E-12, 290228958400.51593, 29022895840.051586
DataValue, 0.95000000000000007, 3.1E-12, 306451612903.22583, 30645161290.322578
DataValue, 1, 3.3580000000000004E-12, 297796307325.78912, 29779630732.578911