
SetupTitle, R-V
ApplicationTest, R-V, Public
TestParameter, Name, Port1, Port2, V1Start, V1Stop, V1Step, V2, I1Limit, IntegTime, HoldTime, DelayTime, Port1MinRng
TestParameter, Value, SMU1:MP	MPSMU, SMU2:MP	MPSMU, 0, 1, 0.05, 0, 0.01, MEDIUM, 0, 0, 1nA
DutParameter, Name, L, W, Temp
DutParameter, Value, 1E-05, 1E-06, 25
MetaData, TestRecord.EntryPoint, true
MetaData, TestRecord.RecordTime, 03/04/2023 16:32:22
MetaData, TestRecord.TestTarget, 
MetaData, TestRecord.IterationIndex, 49
MetaData, TestRecord.Preservation, true
MetaData, TestRecord.Flag, 
MetaData, TestRecord.Remarks, 
MetaData, TestRecord.LinkKey, bb135c70-fd94-46d7-b66b-6b7c7b05e748
Dimension1, 21, 21, 21, 21
Dimension2, 1, 1, 1, 1
DataName, V1, I1, R, Rsheet
DataValue, 0, 6.6000000000000009E-14, 0, 0
DataValue, 0.05, 3.88E-13, 128865979381.4433, 12886597938.144329
DataValue, 0.1, 5.9800000000000008E-13, 167224080267.5585, 16722408026.755848
DataValue, 0.15, 9.4100000000000013E-13, 159404888416.57809, 15940488841.657808
DataValue, 0.2, 1.113E-12, 179694519317.16083, 17969451931.71608
DataValue, 0.25, 1.4440000000000001E-12, 173130193905.81717, 17313019390.581715
DataValue, 0.3, 1.5070000000000001E-12, 199071001990.71, 19907100199.070995
DataValue, 0.35000000000000003, 1.732E-12, 202078521939.95383, 20207852193.99538
DataValue, 0.4, 2.0530000000000002E-12, 194836824159.76617, 19483682415.976616
DataValue, 0.45, 2.201E-12, 204452521581.09952, 20445252158.109951
DataValue, 0.5, 2.3550000000000004E-12, 212314225053.07852, 21231422505.30785
DataValue, 0.55, 2.5290000000000002E-12, 217477263740.60895, 21747726374.06089
DataValue, 0.6, 2.611E-12, 229797012638.83569, 22979701263.883564
DataValue, 0.65, 2.895E-12, 224525043177.89291, 22452504317.789288
DataValue, 0.70000000000000007, 3.0310000000000003E-12, 230946882217.09006, 23094688221.709003
DataValue, 0.75, 3.1850000000000003E-12, 235478806907.37833, 23547880690.737831
DataValue, 0.8, 3.363E-12, 237882842699.97028, 23788284269.997025
DataValue, 0.85000000000000009, 3.5820000000000003E-12, 237297599106.64435, 23729759910.664433
DataValue, 0.9, 3.627E-12, 248138957816.37717, 24813895781.637714
DataValue, 0.95000000000000007, 3.9E-12, 243589743589.74362, 24358974358.974361
DataValue, 1, 4.007E-12, 249563264287.49686, 24956326428.749683
SetupTitle, R-V
PrimitiveTest, I/V Sweep
TestParameter, Context.MainFrame, B1500A
TestParameter, Channel.UnitType, SMU, SMU
TestParameter, Channel.Unit, Port1, Port2
TestParameter, Channel.IName, I1, I2
TestParameter, Channel.VName, V1, V2
TestParameter, Channel.Mode, V, V
TestParameter, Channel.Func, VAR1, CONST
TestParameter, Channel.Index, 
TestParameter, Channel.Time, 
TestParameter, Measurement.Port.Unit, Port1, Port2
TestParameter, Measurement.Port.SeriesResistor, NONE, NONE
TestParameter, Measurement.Port.Filter, OFF, OFF
TestParameter, Measurement.Port.OutputVoltageComparison, 0, 0
TestParameter, Measurement.Primary.Locus, Single
TestParameter, Measurement.Primary.Scale, LINEAR
TestParameter, Measurement.Primary.Start, V1Start
TestParameter, Measurement.Primary.Stop, V1Stop
TestParameter, Measurement.Primary.Step, V1Step
TestParameter, Measurement.Primary.Compliance, I1Limit
TestParameter, Measurement.Primary.PowerCompliance, 0
TestParameter, Measurement.Aborting.Condition, CONTINUE AT ANY
TestParameter, Measurement.PostOutput.Value, START
TestParameter, Measurement.PostOutput.Retention, OFF
TestParameter, Measurement.Bias.Source, 0, V2
TestParameter, Measurement.Bias.Compliance, 0.01, I1Limit
TestParameter, Measurement.Monitor.Unit, SMU:=Port1, SMU:=Port2
TestParameter, Measurement.Monitor.Adc, HR ADC, HR ADC
TestParameter, Measurement.Monitor.Measurement, Compliance Side, Compliance Side
TestParameter, Measurement.Monitor.RangingMode, LIMITED, LIMITED
TestParameter, Measurement.Monitor.RangeBoundary, Port1MinRng, 1nA
TestParameter, Measurement.Monitor.RangeRating, BY FULL RANGE, BY FULL RANGE
TestParameter, Measurement.Monitor.RangeRatingCoeff, 50, 50
TestParameter, Measurement.Timing.Hold, HoldTime
TestParameter, Measurement.Timing.Delay, DelayTime
TestParameter, Measurement.Adc.HighSpeed.Mode, AUTO
TestParameter, Measurement.Adc.HighSpeed.Coeff, 1
TestParameter, Measurement.Adc.HighResolution.AutoZero, ON
TestParameter, Measurement.Adc.HighResolution.Mode, IntegMode
TestParameter, Measurement.Adc.HighResolution.Coeff, AdcFactor
TestParameter, Measurement.WaitTime.Source.Coeff, 1
TestParameter, Measurement.WaitTime.Source.Offset, 0
TestParameter, Measurement.WaitTime.Monitor.Coeff, 1
TestParameter, Measurement.WaitTime.Monitor.Offset, 0
TestParameter, Function.User.Name, R, Rsheet
TestParameter, Function.User.Unit, ohm, ohm/sheet
TestParameter, Function.User.Definition, V1/I1, R*W/L
TestParameter, Output.Graph.Enabled, true
TestParameter, Output.Graph.AutoScaling, false
TestParameter, Output.Graph.XAxis.Data, V1
TestParameter, Output.Graph.XAxis.Scale, Linear
TestParameter, Output.Graph.XAxis.Left, V1Start
TestParameter, Output.Graph.XAxis.Right, V1Stop
TestParameter, Output.Graph.XAxis.RunTimeAutoScale, false
TestParameter, Output.Graph.YAxis.Data, R, I1
TestParameter, Output.Graph.YAxis.Scale, Linear, Linear
TestParameter, Output.Graph.YAxis.Bottom, 0, 0
TestParameter, Output.Graph.YAxis.Top, V1Stop/I1Limit, I1Limit
TestParameter, Output.Graph.YAxis.Group, , 
TestParameter, Output.Graph.YAxis.RunTimeAutoScale, false, false
TestParameter, Output.List.Data, V1, I1, R, Rsheet
TestParameter, AutoAnalysis.Interpolation, false
TestParameter, AutoAnalysis.Line1.Enabled, false
TestParameter, AutoAnalysis.Line1.Type, 1
TestParameter, AutoAnalysis.Line1.Fix, False
TestParameter, AutoAnalysis.Line1.YAxis, 0
TestParameter, AutoAnalysis.Line1.Point1.Type, 0
TestParameter, AutoAnalysis.Line1.Point1.XY.X, 
TestParameter, AutoAnalysis.Line1.Point1.XY.Y, 
TestParameter, AutoAnalysis.Line1.Point1.Data.Var, 
TestParameter, AutoAnalysis.Line1.Point1.Data.Condition, 
TestParameter, AutoAnalysis.Line1.Point1.Data.Start, false
TestParameter, AutoAnalysis.Line1.Point1.Data.StartVar, 
TestParameter, AutoAnalysis.Line1.Point1.Data.StartCondition, 
TestParameter, AutoAnalysis.Line1.Point2.Type, 0
TestParameter, AutoAnalysis.Line1.Point2.XY.X, 
TestParameter, AutoAnalysis.Line1.Point2.XY.Y, 
TestParameter, AutoAnalysis.Line1.Point2.Data.Var, 
TestParameter, AutoAnalysis.Line1.Point2.Data.Condition, 
TestParameter, AutoAnalysis.Line1.Point2.Data.Start, false
TestParameter, AutoAnalysis.Line1.Point2.Data.StartVar, 
TestParameter, AutoAnalysis.Line1.Point2.Data.StartCondition, 
TestParameter, AutoAnalysis.Line1.GradientExpr, 0
TestParameter, AutoAnalysis.Line2.Enabled, false
TestParameter, AutoAnalysis.Line2.Type, 1
TestParameter, AutoAnalysis.Line2.Fix, False
TestParameter, AutoAnalysis.Line2.YAxis, 0
TestParameter, AutoAnalysis.Line2.Point1.Type, 0
TestParameter, AutoAnalysis.Line2.Point1.XY.X, 
TestParameter, AutoAnalysis.Line2.Point1.XY.Y, 
TestParameter, AutoAnalysis.Line2.Point1.Data.Var, 
TestParameter, AutoAnalysis.Line2.Point1.Data.Condition, 
TestParameter, AutoAnalysis.Line2.Point1.Data.Start, false
TestParameter, AutoAnalysis.Line2.Point1.Data.StartVar, 
TestParameter, AutoAnalysis.Line2.Point1.Data.StartCondition, 
TestParameter, AutoAnalysis.Line2.Point2.Type, 0
TestParameter, AutoAnalysis.Line2.Point2.XY.X, 
TestParameter, AutoAnalysis.Line2.Point2.XY.Y, 
TestParameter, AutoAnalysis.Line2.Point2.Data.Var, 
TestParameter, AutoAnalysis.Line2.Point2.Data.Condition, 
TestParameter, AutoAnalysis.Line2.Point2.Data.Start, false
TestParameter, AutoAnalysis.Line2.Point2.Data.StartVar, 
TestParameter, AutoAnalysis.Line2.Point2.Data.StartCondition, 
TestParameter, AutoAnalysis.Line2.GradientExpr, 0
TestParameter, AutoAnalysis.Marker.Enabled, false
TestParameter, AutoAnalysis.Marker.Data.Var, 
TestParameter, AutoAnalysis.Marker.Data.Condition, 
TestParameter, AutoAnalysis.Marker.Data.Start, false
TestParameter, AutoAnalysis.Marker.Data.StartVar, 
TestParameter, AutoAnalysis.Marker.Data.StartCondition, 
MetaData, TestRecord.EntryPoint, false
MetaData, TestRecord.RecordTime, 03/04/2023 16:32:21
MetaData, TestRecord.TestTarget, 
MetaData, TestRecord.IterationIndex, 49
MetaData, TestRecord.Preservation, true
MetaData, TestRecord.Flag, 
MetaData, TestRecord.Remarks, 
MetaData, TestRecord.LinkKey, bb135c70-fd94-46d7-b66b-6b7c7b05e748
Dimension1, 21, 21, 21, 21
Dimension2, 1, 1, 1, 1
DataName, V1, I1, R, Rsheet
DataValue, 0, 6.6000000000000009E-14, 0, 0
DataValue, 0.05, 3.88E-13, 128865979381.4433, 12886597938.144329
DataValue, 0.1, 5.9800000000000008E-13, 167224080267.5585, 16722408026.755848
DataValue, 0.15, 9.4100000000000013E-13, 159404888416.57809, 15940488841.657808
DataValue, 0.2, 1.113E-12, 179694519317.16083, 17969451931.71608
DataValue, 0.25, 1.4440000000000001E-12, 173130193905.81717, 17313019390.581715
DataValue, 0.3, 1.5070000000000001E-12, 199071001990.71, 19907100199.070995
DataValue, 0.35000000000000003, 1.732E-12, 202078521939.95383, 20207852193.99538
DataValue, 0.4, 2.0530000000000002E-12, 194836824159.76617, 19483682415.976616
DataValue, 0.45, 2.201E-12, 204452521581.09952, 20445252158.109951
DataValue, 0.5, 2.3550000000000004E-12, 212314225053.07852, 21231422505.30785
DataValue, 0.55, 2.5290000000000002E-12, 217477263740.60895, 21747726374.06089
DataValue, 0.6, 2.611E-12, 229797012638.83569, 22979701263.883564
DataValue, 0.65, 2.895E-12, 224525043177.89291, 22452504317.789288
DataValue, 0.70000000000000007, 3.0310000000000003E-12, 230946882217.09006, 23094688221.709003
DataValue, 0.75, 3.1850000000000003E-12, 235478806907.37833, 23547880690.737831
DataValue, 0.8, 3.363E-12, 237882842699.97028, 23788284269.997025
DataValue, 0.85000000000000009, 3.5820000000000003E-12, 237297599106.64435, 23729759910.664433
DataValue, 0.9, 3.627E-12, 248138957816.37717, 24813895781.637714
DataValue, 0.95000000000000007, 3.9E-12, 243589743589.74362, 24358974358.974361
DataValue, 1, 4.007E-12, 249563264287.49686, 24956326428.749683