
SetupTitle, R-V
ApplicationTest, R-V, Public
TestParameter, Name, Port1, Port2, V1Start, V1Stop, V1Step, V2, I1Limit, IntegTime, HoldTime, DelayTime, Port1MinRng
TestParameter, Value, SMU1:MP	MPSMU, SMU2:MP	MPSMU, 0, 1, 0.05, 0, 0.01, MEDIUM, 0, 0, 1nA
DutParameter, Name, L, W, Temp
DutParameter, Value, 1E-05, 1E-06, 25
MetaData, TestRecord.EntryPoint, true
MetaData, TestRecord.RecordTime, 03/04/2023 18:35:25
MetaData, TestRecord.TestTarget, 
MetaData, TestRecord.IterationIndex, 241
MetaData, TestRecord.Preservation, true
MetaData, TestRecord.Flag, 
MetaData, TestRecord.Remarks, 
MetaData, TestRecord.LinkKey, e7be96e2-d605-4c00-9976-3e69a6ec599e
Dimension1, 21, 21, 21, 21
Dimension2, 1, 1, 1, 1
DataName, V1, I1, R, Rsheet
DataValue, 0, 0, , 
DataValue, 0.05, 7.24E-13, 69060773480.662979, 6906077348.0662966
DataValue, 0.1, 6.9300000000000008E-13, 144300144300.14429, 14430014430.014427
DataValue, 0.15, 1.232E-12, 121753246753.24675, 12175324675.324673
DataValue, 0.2, 1.552E-12, 128865979381.4433, 12886597938.144329
DataValue, 0.25, 1.4950000000000002E-12, 167224080267.5585, 16722408026.755848
DataValue, 0.3, 1.6160000000000002E-12, 185643564356.43561, 18564356435.643559
DataValue, 0.35000000000000003, 1.8410000000000003E-12, 190114068441.06464, 19011406844.106461
DataValue, 0.4, 1.8190000000000002E-12, 219901044529.96152, 21990104452.996151
DataValue, 0.45, 1.973E-12, 228079067410.03546, 22807906741.00354
DataValue, 0.5, 2.1160000000000003E-12, 236294896030.24573, 23629489603.02457
DataValue, 0.55, 2.077E-12, 264805007221.95474, 26480500722.195473
DataValue, 0.6, 2.18E-12, 275229357798.1651, 27522935779.816505
DataValue, 0.65, 2.3000000000000003E-12, 282608695652.17389, 28260869565.217388
DataValue, 0.70000000000000007, 2.5800000000000003E-12, 271317829457.36432, 27131782945.736427
DataValue, 0.75, 2.607E-12, 287686996547.75604, 28768699654.7756
DataValue, 0.8, 2.607E-12, 306866129650.93976, 30686612965.093971
DataValue, 0.85000000000000009, 2.974E-12, 285810356422.32684, 28581035642.232681
DataValue, 0.9, 2.7940000000000004E-12, 322118826055.83386, 32211882605.583382
DataValue, 0.95000000000000007, 2.932E-12, 324010914051.84174, 32401091405.18417
DataValue, 1, 3.0020000000000003E-12, 333111259160.55957, 33311125916.055954
SetupTitle, R-V
PrimitiveTest, I/V Sweep
TestParameter, Context.MainFrame, B1500A
TestParameter, Channel.UnitType, SMU, SMU
TestParameter, Channel.Unit, Port1, Port2
TestParameter, Channel.IName, I1, I2
TestParameter, Channel.VName, V1, V2
TestParameter, Channel.Mode, V, V
TestParameter, Channel.Func, VAR1, CONST
TestParameter, Channel.Index, 
TestParameter, Channel.Time, 
TestParameter, Measurement.Port.Unit, Port1, Port2
TestParameter, Measurement.Port.SeriesResistor, NONE, NONE
TestParameter, Measurement.Port.Filter, OFF, OFF
TestParameter, Measurement.Port.OutputVoltageComparison, 0, 0
TestParameter, Measurement.Primary.Locus, Single
TestParameter, Measurement.Primary.Scale, LINEAR
TestParameter, Measurement.Primary.Start, V1Start
TestParameter, Measurement.Primary.Stop, V1Stop
TestParameter, Measurement.Primary.Step, V1Step
TestParameter, Measurement.Primary.Compliance, I1Limit
TestParameter, Measurement.Primary.PowerCompliance, 0
TestParameter, Measurement.Aborting.Condition, CONTINUE AT ANY
TestParameter, Measurement.PostOutput.Value, START
TestParameter, Measurement.PostOutput.Retention, OFF
TestParameter, Measurement.Bias.Source, 0, V2
TestParameter, Measurement.Bias.Compliance, 0.01, I1Limit
TestParameter, Measurement.Monitor.Unit, SMU:=Port1, SMU:=Port2
TestParameter, Measurement.Monitor.Adc, HR ADC, HR ADC
TestParameter, Measurement.Monitor.Measurement, Compliance Side, Compliance Side
TestParameter, Measurement.Monitor.RangingMode, LIMITED, LIMITED
TestParameter, Measurement.Monitor.RangeBoundary, Port1MinRng, 1nA
TestParameter, Measurement.Monitor.RangeRating, BY FULL RANGE, BY FULL RANGE
TestParameter, Measurement.Monitor.RangeRatingCoeff, 50, 50
TestParameter, Measurement.Timing.Hold, HoldTime
TestParameter, Measurement.Timing.Delay, DelayTime
TestParameter, Measurement.Adc.HighSpeed.Mode, AUTO
TestParameter, Measurement.Adc.HighSpeed.Coeff, 1
TestParameter, Measurement.Adc.HighResolution.AutoZero, ON
TestParameter, Measurement.Adc.HighResolution.Mode, IntegMode
TestParameter, Measurement.Adc.HighResolution.Coeff, AdcFactor
TestParameter, Measurement.WaitTime.Source.Coeff, 1
TestParameter, Measurement.WaitTime.Source.Offset, 0
TestParameter, Measurement.WaitTime.Monitor.Coeff, 1
TestParameter, Measurement.WaitTime.Monitor.Offset, 0
TestParameter, Function.User.Name, R, Rsheet
TestParameter, Function.User.Unit, ohm, ohm/sheet
TestParameter, Function.User.Definition, V1/I1, R*W/L
TestParameter, Output.Graph.Enabled, true
TestParameter, Output.Graph.AutoScaling, false
TestParameter, Output.Graph.XAxis.Data, V1
TestParameter, Output.Graph.XAxis.Scale, Linear
TestParameter, Output.Graph.XAxis.Left, V1Start
TestParameter, Output.Graph.XAxis.Right, V1Stop
TestParameter, Output.Graph.XAxis.RunTimeAutoScale, false
TestParameter, Output.Graph.YAxis.Data, R, I1
TestParameter, Output.Graph.YAxis.Scale, Linear, Linear
TestParameter, Output.Graph.YAxis.Bottom, 0, 0
TestParameter, Output.Graph.YAxis.Top, V1Stop/I1Limit, I1Limit
TestParameter, Output.Graph.YAxis.Group, , 
TestParameter, Output.Graph.YAxis.RunTimeAutoScale, false, false
TestParameter, Output.List.Data, V1, I1, R, Rsheet
TestParameter, AutoAnalysis.Interpolation, false
TestParameter, AutoAnalysis.Line1.Enabled, false
TestParameter, AutoAnalysis.Line1.Type, 1
TestParameter, AutoAnalysis.Line1.Fix, False
TestParameter, AutoAnalysis.Line1.YAxis, 0
TestParameter, AutoAnalysis.Line1.Point1.Type, 0
TestParameter, AutoAnalysis.Line1.Point1.XY.X, 
TestParameter, AutoAnalysis.Line1.Point1.XY.Y, 
TestParameter, AutoAnalysis.Line1.Point1.Data.Var, 
TestParameter, AutoAnalysis.Line1.Point1.Data.Condition, 
TestParameter, AutoAnalysis.Line1.Point1.Data.Start, false
TestParameter, AutoAnalysis.Line1.Point1.Data.StartVar, 
TestParameter, AutoAnalysis.Line1.Point1.Data.StartCondition, 
TestParameter, AutoAnalysis.Line1.Point2.Type, 0
TestParameter, AutoAnalysis.Line1.Point2.XY.X, 
TestParameter, AutoAnalysis.Line1.Point2.XY.Y, 
TestParameter, AutoAnalysis.Line1.Point2.Data.Var, 
TestParameter, AutoAnalysis.Line1.Point2.Data.Condition, 
TestParameter, AutoAnalysis.Line1.Point2.Data.Start, false
TestParameter, AutoAnalysis.Line1.Point2.Data.StartVar, 
TestParameter, AutoAnalysis.Line1.Point2.Data.StartCondition, 
TestParameter, AutoAnalysis.Line1.GradientExpr, 0
TestParameter, AutoAnalysis.Line2.Enabled, false
TestParameter, AutoAnalysis.Line2.Type, 1
TestParameter, AutoAnalysis.Line2.Fix, False
TestParameter, AutoAnalysis.Line2.YAxis, 0
TestParameter, AutoAnalysis.Line2.Point1.Type, 0
TestParameter, AutoAnalysis.Line2.Point1.XY.X, 
TestParameter, AutoAnalysis.Line2.Point1.XY.Y, 
TestParameter, AutoAnalysis.Line2.Point1.Data.Var, 
TestParameter, AutoAnalysis.Line2.Point1.Data.Condition, 
TestParameter, AutoAnalysis.Line2.Point1.Data.Start, false
TestParameter, AutoAnalysis.Line2.Point1.Data.StartVar, 
TestParameter, AutoAnalysis.Line2.Point1.Data.StartCondition, 
TestParameter, AutoAnalysis.Line2.Point2.Type, 0
TestParameter, AutoAnalysis.Line2.Point2.XY.X, 
TestParameter, AutoAnalysis.Line2.Point2.XY.Y, 
TestParameter, AutoAnalysis.Line2.Point2.Data.Var, 
TestParameter, AutoAnalysis.Line2.Point2.Data.Condition, 
TestParameter, AutoAnalysis.Line2.Point2.Data.Start, false
TestParameter, AutoAnalysis.Line2.Point2.Data.StartVar, 
TestParameter, AutoAnalysis.Line2.Point2.Data.StartCondition, 
TestParameter, AutoAnalysis.Line2.GradientExpr, 0
TestParameter, AutoAnalysis.Marker.Enabled, false
TestParameter, AutoAnalysis.Marker.Data.Var, 
TestParameter, AutoAnalysis.Marker.Data.Condition, 
TestParameter, AutoAnalysis.Marker.Data.Start, false
TestParameter, AutoAnalysis.Marker.Data.StartVar, 
TestParameter, AutoAnalysis.Marker.Data.StartCondition, 
MetaData, TestRecord.EntryPoint, false
MetaData, TestRecord.RecordTime, 03/04/2023 18:35:24
MetaData, TestRecord.TestTarget, 
MetaData, TestRecord.IterationIndex, 241
MetaData, TestRecord.Preservation, true
MetaData, TestRecord.Flag, 
MetaData, TestRecord.Remarks, 
MetaData, TestRecord.LinkKey, e7be96e2-d605-4c00-9976-3e69a6ec599e
Dimension1, 21, 21, 21, 21
Dimension2, 1, 1, 1, 1
DataName, V1, I1, R, Rsheet
DataValue, 0, 0, , 
DataValue, 0.05, 7.24E-13, 69060773480.662979, 6906077348.0662966
DataValue, 0.1, 6.9300000000000008E-13, 144300144300.14429, 14430014430.014427
DataValue, 0.15, 1.232E-12, 121753246753.24675, 12175324675.324673
DataValue, 0.2, 1.552E-12, 128865979381.4433, 12886597938.144329
DataValue, 0.25, 1.4950000000000002E-12, 167224080267.5585, 16722408026.755848
DataValue, 0.3, 1.6160000000000002E-12, 185643564356.43561, 18564356435.643559
DataValue, 0.35000000000000003, 1.8410000000000003E-12, 190114068441.06464, 19011406844.106461
DataValue, 0.4, 1.8190000000000002E-12, 219901044529.96152, 21990104452.996151
DataValue, 0.45, 1.973E-12, 228079067410.03546, 22807906741.00354
DataValue, 0.5, 2.1160000000000003E-12, 236294896030.24573, 23629489603.02457
DataValue, 0.55, 2.077E-12, 264805007221.95474, 26480500722.195473
DataValue, 0.6, 2.18E-12, 275229357798.1651, 27522935779.816505
DataValue, 0.65, 2.3000000000000003E-12, 282608695652.17389, 28260869565.217388
DataValue, 0.70000000000000007, 2.5800000000000003E-12, 271317829457.36432, 27131782945.736427
DataValue, 0.75, 2.607E-12, 287686996547.75604, 28768699654.7756
DataValue, 0.8, 2.607E-12, 306866129650.93976, 30686612965.093971
DataValue, 0.85000000000000009, 2.974E-12, 285810356422.32684, 28581035642.232681
DataValue, 0.9, 2.7940000000000004E-12, 322118826055.83386, 32211882605.583382
DataValue, 0.95000000000000007, 2.932E-12, 324010914051.84174, 32401091405.18417
DataValue, 1, 3.0020000000000003E-12, 333111259160.55957, 33311125916.055954