
SetupTitle, R-V
ApplicationTest, R-V, Public
TestParameter, Name, Port1, Port2, V1Start, V1Stop, V1Step, V2, I1Limit, IntegTime, HoldTime, DelayTime, Port1MinRng
TestParameter, Value, SMU1:MP	MPSMU, SMU2:MP	MPSMU, 0, 1, 0.05, 0, 0.01, MEDIUM, 0, 0, 1nA
DutParameter, Name, L, W, Temp
DutParameter, Value, 1E-05, 1E-06, 25
MetaData, TestRecord.EntryPoint, true
MetaData, TestRecord.RecordTime, 03/04/2023 16:53:12
MetaData, TestRecord.TestTarget, 
MetaData, TestRecord.IterationIndex, 77
MetaData, TestRecord.Preservation, true
MetaData, TestRecord.Flag, 
MetaData, TestRecord.Remarks, 
MetaData, TestRecord.LinkKey, 6b7bfc3b-5120-437c-b59a-ecd5e468733f
Dimension1, 21, 21, 21, 21
Dimension2, 1, 1, 1, 1
DataName, V1, I1, R, Rsheet
DataValue, 0, -1.4776E-11, -0, -0
DataValue, 0.05, 4.07314E-08, 1227554.1719656091, 122755.4171965609
DataValue, 0.1, 8.1412699999999986E-08, 1228309.5880618137, 122830.95880618137
DataValue, 0.15, 1.22154E-07, 1227958.1511862075, 122795.81511862074
DataValue, 0.2, 1.62803E-07, 1228478.5906893609, 122847.85906893606
DataValue, 0.25, 2.03527E-07, 1228338.2548752746, 122833.82548752744
DataValue, 0.3, 2.44185E-07, 1228576.6939001167, 122857.66939001165
DataValue, 0.35000000000000003, 2.84901E-07, 1228496.9164727398, 122849.69164727397
DataValue, 0.4, 3.2556E-07, 1228652.1685710775, 122865.21685710774
DataValue, 0.45, 3.6620899999999997E-07, 1228806.5012055959, 122880.65012055957
DataValue, 0.5, 4.06886E-07, 1228845.4259915554, 122884.54259915552
DataValue, 0.55, 4.47528E-07, 1228973.3826710286, 122897.33826710284
DataValue, 0.6, 4.88151E-07, 1229127.8723181966, 122912.78723181963
DataValue, 0.65, 5.28813E-07, 1229167.96674817, 122916.796674817
DataValue, 0.70000000000000007, 5.69464E-07, 1229226.0792604978, 122922.60792604978
DataValue, 0.75, 6.10069E-07, 1229369.1369336911, 122936.91369336909
DataValue, 0.8, 6.50708E-07, 1229430.0976782213, 122943.00976782212
DataValue, 0.85000000000000009, 6.91295E-07, 1229576.3747748791, 122957.63747748791
DataValue, 0.9, 7.31945E-07, 1229600.5847433892, 122960.05847433889
DataValue, 0.95000000000000007, 7.72556E-07, 1229684.320618829, 122968.43206188289
DataValue, 1, 8.13141E-07, 1229799.0139471507, 122979.90139471505
SetupTitle, R-V
PrimitiveTest, I/V Sweep
TestParameter, Context.MainFrame, B1500A
TestParameter, Channel.UnitType, SMU, SMU
TestParameter, Channel.Unit, Port1, Port2
TestParameter, Channel.IName, I1, I2
TestParameter, Channel.VName, V1, V2
TestParameter, Channel.Mode, V, V
TestParameter, Channel.Func, VAR1, CONST
TestParameter, Channel.Index, 
TestParameter, Channel.Time, 
TestParameter, Measurement.Port.Unit, Port1, Port2
TestParameter, Measurement.Port.SeriesResistor, NONE, NONE
TestParameter, Measurement.Port.Filter, OFF, OFF
TestParameter, Measurement.Port.OutputVoltageComparison, 0, 0
TestParameter, Measurement.Primary.Locus, Single
TestParameter, Measurement.Primary.Scale, LINEAR
TestParameter, Measurement.Primary.Start, V1Start
TestParameter, Measurement.Primary.Stop, V1Stop
TestParameter, Measurement.Primary.Step, V1Step
TestParameter, Measurement.Primary.Compliance, I1Limit
TestParameter, Measurement.Primary.PowerCompliance, 0
TestParameter, Measurement.Aborting.Condition, CONTINUE AT ANY
TestParameter, Measurement.PostOutput.Value, START
TestParameter, Measurement.PostOutput.Retention, OFF
TestParameter, Measurement.Bias.Source, 0, V2
TestParameter, Measurement.Bias.Compliance, 0.01, I1Limit
TestParameter, Measurement.Monitor.Unit, SMU:=Port1, SMU:=Port2
TestParameter, Measurement.Monitor.Adc, HR ADC, HR ADC
TestParameter, Measurement.Monitor.Measurement, Compliance Side, Compliance Side
TestParameter, Measurement.Monitor.RangingMode, LIMITED, LIMITED
TestParameter, Measurement.Monitor.RangeBoundary, Port1MinRng, 1nA
TestParameter, Measurement.Monitor.RangeRating, BY FULL RANGE, BY FULL RANGE
TestParameter, Measurement.Monitor.RangeRatingCoeff, 50, 50
TestParameter, Measurement.Timing.Hold, HoldTime
TestParameter, Measurement.Timing.Delay, DelayTime
TestParameter, Measurement.Adc.HighSpeed.Mode, AUTO
TestParameter, Measurement.Adc.HighSpeed.Coeff, 1
TestParameter, Measurement.Adc.HighResolution.AutoZero, ON
TestParameter, Measurement.Adc.HighResolution.Mode, IntegMode
TestParameter, Measurement.Adc.HighResolution.Coeff, AdcFactor
TestParameter, Measurement.WaitTime.Source.Coeff, 1
TestParameter, Measurement.WaitTime.Source.Offset, 0
TestParameter, Measurement.WaitTime.Monitor.Coeff, 1
TestParameter, Measurement.WaitTime.Monitor.Offset, 0
TestParameter, Function.User.Name, R, Rsheet
TestParameter, Function.User.Unit, ohm, ohm/sheet
TestParameter, Function.User.Definition, V1/I1, R*W/L
TestParameter, Output.Graph.Enabled, true
TestParameter, Output.Graph.AutoScaling, false
TestParameter, Output.Graph.XAxis.Data, V1
TestParameter, Output.Graph.XAxis.Scale, Linear
TestParameter, Output.Graph.XAxis.Left, V1Start
TestParameter, Output.Graph.XAxis.Right, V1Stop
TestParameter, Output.Graph.XAxis.RunTimeAutoScale, false
TestParameter, Output.Graph.YAxis.Data, R, I1
TestParameter, Output.Graph.YAxis.Scale, Linear, Linear
TestParameter, Output.Graph.YAxis.Bottom, 0, 0
TestParameter, Output.Graph.YAxis.Top, V1Stop/I1Limit, I1Limit
TestParameter, Output.Graph.YAxis.Group, , 
TestParameter, Output.Graph.YAxis.RunTimeAutoScale, false, false
TestParameter, Output.List.Data, V1, I1, R, Rsheet
TestParameter, AutoAnalysis.Interpolation, false
TestParameter, AutoAnalysis.Line1.Enabled, false
TestParameter, AutoAnalysis.Line1.Type, 1
TestParameter, AutoAnalysis.Line1.Fix, False
TestParameter, AutoAnalysis.Line1.YAxis, 0
TestParameter, AutoAnalysis.Line1.Point1.Type, 0
TestParameter, AutoAnalysis.Line1.Point1.XY.X, 
TestParameter, AutoAnalysis.Line1.Point1.XY.Y, 
TestParameter, AutoAnalysis.Line1.Point1.Data.Var, 
TestParameter, AutoAnalysis.Line1.Point1.Data.Condition, 
TestParameter, AutoAnalysis.Line1.Point1.Data.Start, false
TestParameter, AutoAnalysis.Line1.Point1.Data.StartVar, 
TestParameter, AutoAnalysis.Line1.Point1.Data.StartCondition, 
TestParameter, AutoAnalysis.Line1.Point2.Type, 0
TestParameter, AutoAnalysis.Line1.Point2.XY.X, 
TestParameter, AutoAnalysis.Line1.Point2.XY.Y, 
TestParameter, AutoAnalysis.Line1.Point2.Data.Var, 
TestParameter, AutoAnalysis.Line1.Point2.Data.Condition, 
TestParameter, AutoAnalysis.Line1.Point2.Data.Start, false
TestParameter, AutoAnalysis.Line1.Point2.Data.StartVar, 
TestParameter, AutoAnalysis.Line1.Point2.Data.StartCondition, 
TestParameter, AutoAnalysis.Line1.GradientExpr, 0
TestParameter, AutoAnalysis.Line2.Enabled, false
TestParameter, AutoAnalysis.Line2.Type, 1
TestParameter, AutoAnalysis.Line2.Fix, False
TestParameter, AutoAnalysis.Line2.YAxis, 0
TestParameter, AutoAnalysis.Line2.Point1.Type, 0
TestParameter, AutoAnalysis.Line2.Point1.XY.X, 
TestParameter, AutoAnalysis.Line2.Point1.XY.Y, 
TestParameter, AutoAnalysis.Line2.Point1.Data.Var, 
TestParameter, AutoAnalysis.Line2.Point1.Data.Condition, 
TestParameter, AutoAnalysis.Line2.Point1.Data.Start, false
TestParameter, AutoAnalysis.Line2.Point1.Data.StartVar, 
TestParameter, AutoAnalysis.Line2.Point1.Data.StartCondition, 
TestParameter, AutoAnalysis.Line2.Point2.Type, 0
TestParameter, AutoAnalysis.Line2.Point2.XY.X, 
TestParameter, AutoAnalysis.Line2.Point2.XY.Y, 
TestParameter, AutoAnalysis.Line2.Point2.Data.Var, 
TestParameter, AutoAnalysis.Line2.Point2.Data.Condition, 
TestParameter, AutoAnalysis.Line2.Point2.Data.Start, false
TestParameter, AutoAnalysis.Line2.Point2.Data.StartVar, 
TestParameter, AutoAnalysis.Line2.Point2.Data.StartCondition, 
TestParameter, AutoAnalysis.Line2.GradientExpr, 0
TestParameter, AutoAnalysis.Marker.Enabled, false
TestParameter, AutoAnalysis.Marker.Data.Var, 
TestParameter, AutoAnalysis.Marker.Data.Condition, 
TestParameter, AutoAnalysis.Marker.Data.Start, false
TestParameter, AutoAnalysis.Marker.Data.StartVar, 
TestParameter, AutoAnalysis.Marker.Data.StartCondition, 
MetaData, TestRecord.EntryPoint, false
MetaData, TestRecord.RecordTime, 03/04/2023 16:53:12
MetaData, TestRecord.TestTarget, 
MetaData, TestRecord.IterationIndex, 77
MetaData, TestRecord.Preservation, true
MetaData, TestRecord.Flag, 
MetaData, TestRecord.Remarks, 
MetaData, TestRecord.LinkKey, 6b7bfc3b-5120-437c-b59a-ecd5e468733f
Dimension1, 21, 21, 21, 21
Dimension2, 1, 1, 1, 1
DataName, V1, I1, R, Rsheet
DataValue, 0, -1.4776E-11, -0, -0
DataValue, 0.05, 4.07314E-08, 1227554.1719656091, 122755.4171965609
DataValue, 0.1, 8.1412699999999986E-08, 1228309.5880618137, 122830.95880618137
DataValue, 0.15, 1.22154E-07, 1227958.1511862075, 122795.81511862074
DataValue, 0.2, 1.62803E-07, 1228478.5906893609, 122847.85906893606
DataValue, 0.25, 2.03527E-07, 1228338.2548752746, 122833.82548752744
DataValue, 0.3, 2.44185E-07, 1228576.6939001167, 122857.66939001165
DataValue, 0.35000000000000003, 2.84901E-07, 1228496.9164727398, 122849.69164727397
DataValue, 0.4, 3.2556E-07, 1228652.1685710775, 122865.21685710774
DataValue, 0.45, 3.6620899999999997E-07, 1228806.5012055959, 122880.65012055957
DataValue, 0.5, 4.06886E-07, 1228845.4259915554, 122884.54259915552
DataValue, 0.55, 4.47528E-07, 1228973.3826710286, 122897.33826710284
DataValue, 0.6, 4.88151E-07, 1229127.8723181966, 122912.78723181963
DataValue, 0.65, 5.28813E-07, 1229167.96674817, 122916.796674817
DataValue, 0.70000000000000007, 5.69464E-07, 1229226.0792604978, 122922.60792604978
DataValue, 0.75, 6.10069E-07, 1229369.1369336911, 122936.91369336909
DataValue, 0.8, 6.50708E-07, 1229430.0976782213, 122943.00976782212
DataValue, 0.85000000000000009, 6.91295E-07, 1229576.3747748791, 122957.63747748791
DataValue, 0.9, 7.31945E-07, 1229600.5847433892, 122960.05847433889
DataValue, 0.95000000000000007, 7.72556E-07, 1229684.320618829, 122968.43206188289
DataValue, 1, 8.13141E-07, 1229799.0139471507, 122979.90139471505