
SetupTitle, ID-VG Postbreak
PrimitiveTest, I/V Sweep
TestParameter, Context.MainFrame, B1500A
TestParameter, Channel.UnitType, SMU, SMU
TestParameter, Channel.Unit, SMU1:MP, SMU2:MP
TestParameter, Channel.IName, I1, I2
TestParameter, Channel.VName, V1, V2
TestParameter, Channel.Mode, V, V
TestParameter, Channel.Func, VAR1, CONST
TestParameter, Channel.Index, 
TestParameter, Channel.Time, 
TestParameter, Measurement.Port.Unit, SMU1:MP, SMU2:MP
TestParameter, Measurement.Port.SeriesResistor, NONE, NONE
TestParameter, Measurement.Port.Filter, ON, ON
TestParameter, Measurement.Port.OutputVoltageComparison, 0, 0
TestParameter, Measurement.Primary.Locus, Double
TestParameter, Measurement.Primary.Scale, LINEAR
TestParameter, Measurement.Primary.Start, -2
TestParameter, Measurement.Primary.Stop, 20
TestParameter, Measurement.Primary.Step, 0.11
TestParameter, Measurement.Primary.Compliance, 0.1
TestParameter, Measurement.Primary.PowerCompliance, 0
TestParameter, Measurement.Aborting.Condition, CONTINUE AT ANY
TestParameter, Measurement.PostOutput.Value, START
TestParameter, Measurement.PostOutput.Retention, OFF
TestParameter, Measurement.Bias.Source, -2, 0.25
TestParameter, Measurement.Bias.Compliance, 0.1, 0.1
TestParameter, Measurement.Monitor.Unit, SMU1:MP, SMU2:MP
TestParameter, Measurement.Monitor.Adc, HR ADC, HR ADC
TestParameter, Measurement.Monitor.Measurement, Compliance Side, Compliance Side
TestParameter, Measurement.Monitor.RangingMode, LIMITED, LIMITED
TestParameter, Measurement.Monitor.RangeBoundary, 1nA, 1nA
TestParameter, Measurement.Monitor.RangeRating, BY FULL RANGE, BY FULL RANGE
TestParameter, Measurement.Monitor.RangeRatingCoeff, 50, 50
TestParameter, Measurement.Timing.Hold, 0
TestParameter, Measurement.Timing.Delay, 0
TestParameter, Measurement.Adc.HighSpeed.Mode, AUTO
TestParameter, Measurement.Adc.HighSpeed.Coeff, 1
TestParameter, Measurement.Adc.HighResolution.AutoZero, OFF
TestParameter, Measurement.Adc.HighResolution.Mode, AUTO
TestParameter, Measurement.Adc.HighResolution.Coeff, 6
TestParameter, Measurement.WaitTime.Source.Coeff, 1
TestParameter, Measurement.WaitTime.Source.Offset, 0
TestParameter, Measurement.WaitTime.Monitor.Coeff, 1
TestParameter, Measurement.WaitTime.Monitor.Offset, 0
TestParameter, Output.Graph.Enabled, true
TestParameter, Output.Graph.AutoScaling, false
TestParameter, Output.Graph.XAxis.Data, V1
TestParameter, Output.Graph.XAxis.Scale, Linear
TestParameter, Output.Graph.XAxis.Left, -2
TestParameter, Output.Graph.XAxis.Right, 6
TestParameter, Output.Graph.XAxis.RunTimeAutoScale, true
TestParameter, Output.Graph.YAxis.Data, I2
TestParameter, Output.Graph.YAxis.Scale, Linear
TestParameter, Output.Graph.YAxis.Bottom, -0.1
TestParameter, Output.Graph.YAxis.Top, 0.1
TestParameter, Output.Graph.YAxis.Group, 
TestParameter, Output.Graph.YAxis.RunTimeAutoScale, true
TestParameter, Output.List.Data, V1, I1, V2, I2, V3, I3, V4, I4
TestParameter, AutoAnalysis.Interpolation, false
TestParameter, AutoAnalysis.Line1.Enabled, false
TestParameter, AutoAnalysis.Line1.Type, 1
TestParameter, AutoAnalysis.Line1.Fix, True
TestParameter, AutoAnalysis.Line1.YAxis, 0
TestParameter, AutoAnalysis.Line1.Point1.Type, 0
TestParameter, AutoAnalysis.Line1.Point1.XY.X, 
TestParameter, AutoAnalysis.Line1.Point1.XY.Y, 
TestParameter, AutoAnalysis.Line1.Point1.Data.Var, 
TestParameter, AutoAnalysis.Line1.Point1.Data.Condition, 
TestParameter, AutoAnalysis.Line1.Point1.Data.Start, false
TestParameter, AutoAnalysis.Line1.Point1.Data.StartVar, 
TestParameter, AutoAnalysis.Line1.Point1.Data.StartCondition, 
TestParameter, AutoAnalysis.Line1.Point2.Type, 0
TestParameter, AutoAnalysis.Line1.Point2.XY.X, 
TestParameter, AutoAnalysis.Line1.Point2.XY.Y, 
TestParameter, AutoAnalysis.Line1.Point2.Data.Var, 
TestParameter, AutoAnalysis.Line1.Point2.Data.Condition, 
TestParameter, AutoAnalysis.Line1.Point2.Data.Start, false
TestParameter, AutoAnalysis.Line1.Point2.Data.StartVar, 
TestParameter, AutoAnalysis.Line1.Point2.Data.StartCondition, 
TestParameter, AutoAnalysis.Line1.GradientExpr, 0
TestParameter, AutoAnalysis.Line2.Enabled, false
TestParameter, AutoAnalysis.Line2.Type, 1
TestParameter, AutoAnalysis.Line2.Fix, True
TestParameter, AutoAnalysis.Line2.YAxis, 0
TestParameter, AutoAnalysis.Line2.Point1.Type, 0
TestParameter, AutoAnalysis.Line2.Point1.XY.X, 
TestParameter, AutoAnalysis.Line2.Point1.XY.Y, 
TestParameter, AutoAnalysis.Line2.Point1.Data.Var, 
TestParameter, AutoAnalysis.Line2.Point1.Data.Condition, 
TestParameter, AutoAnalysis.Line2.Point1.Data.Start, false
TestParameter, AutoAnalysis.Line2.Point1.Data.StartVar, 
TestParameter, AutoAnalysis.Line2.Point1.Data.StartCondition, 
TestParameter, AutoAnalysis.Line2.Point2.Type, 0
TestParameter, AutoAnalysis.Line2.Point2.XY.X, 
TestParameter, AutoAnalysis.Line2.Point2.XY.Y, 
TestParameter, AutoAnalysis.Line2.Point2.Data.Var, 
TestParameter, AutoAnalysis.Line2.Point2.Data.Condition, 
TestParameter, AutoAnalysis.Line2.Point2.Data.Start, false
TestParameter, AutoAnalysis.Line2.Point2.Data.StartVar, 
TestParameter, AutoAnalysis.Line2.Point2.Data.StartCondition, 
TestParameter, AutoAnalysis.Line2.GradientExpr, 0
TestParameter, AutoAnalysis.Marker.Enabled, false
TestParameter, AutoAnalysis.Marker.Data.Var, 
TestParameter, AutoAnalysis.Marker.Data.Condition, 
TestParameter, AutoAnalysis.Marker.Data.Start, false
TestParameter, AutoAnalysis.Marker.Data.StartVar, 
TestParameter, AutoAnalysis.Marker.Data.StartCondition, 
MetaData, TestRecord.EntryPoint, true
MetaData, TestRecord.RecordTime, 03/10/2023 17:33:07
MetaData, TestRecord.TestTarget, 
MetaData, TestRecord.IterationIndex, 71
MetaData, TestRecord.Preservation, true
MetaData, TestRecord.Flag, 
MetaData, TestRecord.Remarks, 
MetaData, TestRecord.LinkKey, 38a71921-938f-486a-9315-eb0eae563d92
Dimension1, 402, 402, 402, 402, 402, 402, 402, 402
Dimension2, 1, 1, 1, 1, 1, 1, 1, 1
DataName, V1, V2, I1, I2, V3, I3, V4, I4
DataValue, -2, 0.25, -4.88E-12, 1.9950000000000003E-11, , , , 
DataValue, -1.8900000000000001, 0.25, -2.16E-12, 1.8020000000000003E-11, , , , 
DataValue, -1.78, 0.25, -2.0500000000000004E-12, 1.928E-11, , , , 
DataValue, -1.67, 0.25, -4.8000000000000008E-13, 2.0710000000000002E-11, , , , 
DataValue, -1.56, 0.25, -7.6000000000000009E-13, 1.783E-11, , , , 
DataValue, -1.45, 0.25, -5.3000000000000006E-13, 1.6400000000000003E-11, , , , 
DataValue, -1.34, 0.25, -1.2000000000000002E-13, 1.839E-11, , , , 
DataValue, -1.23, 0.25, 1.9000000000000002E-13, 1.9290000000000002E-11, , , , 
DataValue, -1.12, 0.25, 6.6E-13, 1.775E-11, , , , 
DataValue, -1.01, 0.25, 1.1500000000000002E-12, 1.639E-11, , , , 
DataValue, -0.9, 0.25, 7.100000000000001E-13, 1.7870000000000002E-11, , , , 
DataValue, -0.79, 0.25, 1.0600000000000001E-12, 1.9020000000000003E-11, , , , 
DataValue, -0.68, 0.25, 1.6800000000000001E-12, 1.7050000000000002E-11, , , , 
DataValue, -0.57000000000000006, 0.25, 1.64E-12, 1.533E-11, , , , 
DataValue, -0.46, 0.25, 5.5000000000000008E-13, 1.7820000000000003E-11, , , , 
DataValue, -0.35000000000000003, 0.25, 2.0500000000000004E-12, 1.9460000000000003E-11, , , , 
DataValue, -0.24, 0.25, 2.26E-12, 1.708E-11, , , , 
DataValue, -0.13, 0.25, 2.23E-12, 1.6360000000000002E-11, , , , 
DataValue, -0.02, 0.25, 2E-12, 1.7180000000000002E-11, , , , 
DataValue, 0.09, 0.25, 2.52E-12, 1.9110000000000002E-11, , , , 
DataValue, 0.2, 0.25, 2.0500000000000004E-12, 1.699E-11, , , , 
DataValue, 0.31, 0.25, 2.85E-12, 1.5960000000000002E-11, , , , 
DataValue, 0.42, 0.25, 2.95E-12, 1.573E-11, , , , 
DataValue, 0.53, 0.25, 3.3E-12, 1.9350000000000003E-11, , , , 
DataValue, 0.64, 0.25, 2.8300000000000003E-12, 1.7960000000000002E-11, , , , 
DataValue, 0.75, 0.25, 2.54E-12, 1.559E-11, , , , 
DataValue, 0.86, 0.25, 1.96E-12, 1.568E-11, , , , 
DataValue, 0.97, 0.25, 2.79E-12, 1.846E-11, , , , 
DataValue, 1.08, 0.25, 3.4700000000000004E-12, 1.781E-11, , , , 
DataValue, 1.19, 0.25, 2.57E-12, 1.5890000000000003E-11, , , , 
DataValue, 1.3, 0.25, 2.69E-12, 1.4470000000000001E-11, , , , 
DataValue, 1.41, 0.25, 2.8100000000000003E-12, 1.854E-11, , , , 
DataValue, 1.52, 0.25, 3.4100000000000002E-12, 1.834E-11, , , , 
DataValue, 1.6300000000000001, 0.25, 3.2100000000000003E-12, 1.604E-11, , , , 
DataValue, 1.74, 0.25, 2.9300000000000002E-12, 1.469E-11, , , , 
DataValue, 1.85, 0.25, 2.6600000000000004E-12, 1.774E-11, , , , 
DataValue, 1.96, 0.25, 3.5700000000000003E-12, 1.819E-11, , , , 
DataValue, 2.07, 0.25, 3.2600000000000002E-12, 1.5740000000000002E-11, , , , 
DataValue, 2.18, 0.25, 3.86E-12, 1.4830000000000002E-11, , , , 
DataValue, 2.29, 0.25, 3.3900000000000003E-12, 1.768E-11, , , , 
DataValue, 2.4, 0.25, 4.41E-12, 1.824E-11, , , , 
DataValue, 2.5100000000000002, 0.25, 3.6000000000000004E-12, 1.61E-11, , , , 
DataValue, 2.62, 0.25, 4.77E-12, 1.401E-11, , , , 
DataValue, 2.73, 0.25, 4.82E-12, 1.795E-11, , , , 
DataValue, 2.84, 0.25, 5.6E-12, 1.824E-11, , , , 
DataValue, 2.95, 0.25, 5.63E-12, 1.5940000000000002E-11, , , , 
DataValue, 3.06, 0.25, 5.65E-12, 1.4160000000000001E-11, , , , 
DataValue, 3.17, 0.25, 4.84E-12, 1.67E-11, , , , 
DataValue, 3.2800000000000002, 0.25, 5.64E-12, 1.843E-11, , , , 
DataValue, 3.39, 0.25, 5.9100000000000005E-12, 1.6140000000000002E-11, , , , 
DataValue, 3.5, 0.25, 6.26E-12, 1.4490000000000002E-11, , , , 
DataValue, 3.61, 0.25, 6.0700000000000006E-12, 1.47E-11, , , , 
DataValue, 3.72, 0.25, 6.65E-12, 1.8290000000000002E-11, , , , 
DataValue, 3.83, 0.25, 7.6800000000000012E-12, 1.648E-11, , , , 
DataValue, 3.94, 0.25, 7.4700000000000011E-12, 1.422E-11, , , , 
DataValue, 4.05, 0.25, 7.85E-12, 1.3540000000000001E-11, , , , 
DataValue, 4.16, 0.25, 8.16E-12, 1.704E-11, , , , 
DataValue, 4.2700000000000005, 0.25, 8.87E-12, 1.7070000000000002E-11, , , , 
DataValue, 4.38, 0.25, 8.65E-12, 1.3800000000000002E-11, , , , 
DataValue, 4.49, 0.25, 9.13E-12, 1.281E-11, , , , 
DataValue, 4.6000000000000005, 0.25, 9.97E-12, 1.703E-11, , , , 
DataValue, 4.71, 0.25, 1.108E-11, 1.639E-11, , , , 
DataValue, 4.82, 0.25, 1.1540000000000001E-11, 1.4670000000000003E-11, , , , 
DataValue, 4.93, 0.25, 1.2220000000000001E-11, 1.2340000000000001E-11, , , , 
DataValue, 5.04, 0.25, 1.262E-11, 1.5870000000000002E-11, , , , 
DataValue, 5.15, 0.25, 1.3440000000000001E-11, 1.621E-11, , , , 
DataValue, 5.26, 0.25, 1.4000000000000002E-11, 1.3900000000000002E-11, , , , 
DataValue, 5.37, 0.25, 1.5920000000000002E-11, 1.2020000000000001E-11, , , , 
DataValue, 5.48, 0.25, 1.555E-11, 1.508E-11, , , , 
DataValue, 5.59, 0.25, 1.7890000000000002E-11, 1.581E-11, , , , 
DataValue, 5.7, 0.25, 1.8160000000000002E-11, 1.3690000000000002E-11, , , , 
DataValue, 5.8100000000000005, 0.25, 1.888E-11, 1.1430000000000001E-11, , , , 
DataValue, 5.92, 0.25, 1.9860000000000003E-11, 1.361E-11, , , , 
DataValue, 6.03, 0.25, 2.136E-11, 1.493E-11, , , , 
DataValue, 6.1400000000000006, 0.25, 2.263E-11, 1.25E-11, , , , 
DataValue, 6.25, 0.25, 2.438E-11, 1.008E-11, , , , 
DataValue, 6.36, 0.25, 2.509E-11, 1.138E-11, , , , 
DataValue, 6.47, 0.25, 2.6920000000000002E-11, 1.3770000000000001E-11, , , , 
DataValue, 6.58, 0.25, 2.855E-11, 1.281E-11, , , , 
DataValue, 6.69, 0.25, 3.001E-11, 1.0500000000000001E-11, , , , 
DataValue, 6.8, 0.25, 3.096E-11, 8.87E-12, , , , 
DataValue, 6.91, 0.25, 3.354E-11, 1.048E-11, , , , 
DataValue, 7.0200000000000005, 0.25, 3.5490000000000005E-11, 1.149E-11, , , , 
DataValue, 7.13, 0.25, 3.667E-11, 8.53E-12, , , , 
DataValue, 7.24, 0.25, 3.838E-11, 6.8700000000000004E-12, , , , 
DataValue, 7.3500000000000005, 0.25, 4.039E-11, 9.03E-12, , , , 
DataValue, 7.46, 0.25, 4.304E-11, 9.7300000000000016E-12, , , , 
DataValue, 7.57, 0.25, 4.588E-11, 7.2400000000000007E-12, , , , 
DataValue, 7.68, 0.25, 4.789E-11, 4.32E-12, , , , 
DataValue, 7.79, 0.25, 4.92E-11, 6.2700000000000005E-12, , , , 
DataValue, 7.9, 0.25, 5.2760000000000007E-11, 7.41E-12, , , , 
DataValue, 8.01, 0.25, 5.4210000000000006E-11, 5.2500000000000004E-12, , , , 
DataValue, 8.120000000000001, 0.25, 5.7620000000000004E-11, 2.8300000000000003E-12, , , , 
DataValue, 8.23, 0.25, 6.021E-11, 3.7E-12, , , , 
DataValue, 8.34, 0.25, 6.370000000000001E-11, 4.02E-12, , , , 
DataValue, 8.45, 0.25, 6.636E-11, 1.8700000000000003E-12, , , , 
DataValue, 8.56, 0.25, 6.918E-11, -4.3000000000000004E-13, , , , 
DataValue, 8.67, 0.25, 7.24E-11, -1.3E-13, , , , 
DataValue, 8.78, 0.25, 7.621E-11, 1.59E-12, , , , 
DataValue, 8.89, 0.25, 7.96E-11, -7.6000000000000009E-13, , , , 
DataValue, 9, 0.25, 8.3440000000000011E-11, -3.67E-12, , , , 
DataValue, 9.11, 0.25, 8.787E-11, -4.97E-12, , , , 
DataValue, 9.22, 0.25, 9.2020000000000009E-11, -3.86E-12, , , , 
DataValue, 9.33, 0.25, 9.6930000000000008E-11, -3.9300000000000004E-12, , , , 
DataValue, 9.44, 0.25, 1.0099E-10, -7.2500000000000008E-12, , , , 
DataValue, 9.55, 0.25, 1.0586000000000001E-10, -9.0100000000000014E-12, , , , 
DataValue, 9.66, 0.25, 1.1057000000000001E-10, -8.85E-12, , , , 
DataValue, 9.77, 0.25, 1.1612000000000001E-10, -9.17E-12, , , , 
DataValue, 9.88, 0.25, 1.2131000000000002E-10, -1.1740000000000001E-11, , , , 
DataValue, 9.99, 0.25, 1.2723E-10, -1.475E-11, , , , 
DataValue, 10.1, 0.25, 1.3275E-10, -1.2250000000000001E-11, , , , 
DataValue, 10.21, 0.25, 1.3942000000000002E-10, -1.373E-11, , , , 
DataValue, 10.32, 0.25, 1.4587E-10, -1.81E-11, , , , 
DataValue, 10.43, 0.25, 1.5152E-10, -2.072E-11, , , , 
DataValue, 10.540000000000001, 0.25, 1.5781000000000002E-10, -1.883E-11, , , , 
DataValue, 10.65, 0.25, 1.6578000000000002E-10, -2.021E-11, , , , 
DataValue, 10.76, 0.25, 1.7221000000000002E-10, -2.3730000000000002E-11, , , , 
DataValue, 10.870000000000001, 0.25, 1.7988E-10, -2.833E-11, , , , 
DataValue, 10.98, 0.25, 1.8680000000000002E-10, -2.6720000000000002E-11, , , , 
DataValue, 11.09, 0.25, 1.9516000000000003E-10, -2.7590000000000002E-11, , , , 
DataValue, 11.200000000000001, 0.25, 2.0279E-10, -3.175E-11, , , , 
DataValue, 11.31, 0.25, 2.1077E-10, -3.602E-11, , , , 
DataValue, 11.42, 0.25, 2.1918E-10, -3.464E-11, , , , 
DataValue, 11.53, 0.25, 2.2802000000000003E-10, -3.616E-11, , , , 
DataValue, 11.64, 0.25, 2.3690000000000003E-10, -4.071E-11, , , , 
DataValue, 11.75, 0.25, 2.4548E-10, -4.4730000000000003E-11, , , , 
DataValue, 11.86, 0.25, 2.5527000000000004E-10, -4.381E-11, , , , 
DataValue, 11.97, 0.25, 2.6510000000000005E-10, -4.548E-11, , , , 
DataValue, 12.08, 0.25, 2.7454E-10, -4.865E-11, , , , 
DataValue, 12.19, 0.25, 2.8529E-10, -5.3490000000000007E-11, , , , 
DataValue, 12.3, 0.25, 2.9374E-10, -5.63E-11, , , , 
DataValue, 12.41, 0.25, 3.0401E-10, -5.495E-11, , , , 
DataValue, 12.52, 0.25, 3.1432E-10, -5.776E-11, , , , 
DataValue, 12.63, 0.25, 3.2461000000000003E-10, -6.3230000000000011E-11, , , , 
DataValue, 12.74, 0.25, 3.3494000000000003E-10, -6.675E-11, , , , 
DataValue, 12.85, 0.25, 3.4577000000000004E-10, -6.63E-11, , , , 
DataValue, 12.96, 0.25, 3.5708E-10, -6.938000000000001E-11, , , , 
DataValue, 13.07, 0.25, 3.6697000000000003E-10, -7.384E-11, , , , 
DataValue, 13.18, 0.25, 3.7856000000000003E-10, -7.8290000000000008E-11, , , , 
DataValue, 13.290000000000001, 0.25, 3.8831000000000003E-10, -7.7630000000000007E-11, , , , 
DataValue, 13.4, 0.25, 4.0006E-10, -7.952E-11, , , , 
DataValue, 13.51, 0.25, 4.1102000000000004E-10, -8.4660000000000008E-11, , , , 
DataValue, 13.620000000000001, 0.25, 4.2262000000000004E-10, -8.916E-11, , , , 
DataValue, 13.73, 0.25, 4.3299E-10, -8.8760000000000012E-11, , , , 
DataValue, 13.84, 0.25, 4.4481000000000004E-10, -9.154E-11, , , , 
DataValue, 13.950000000000001, 0.25, 4.5668E-10, -9.597E-11, , , , 
DataValue, 14.06, 0.25, 4.6757000000000007E-10, -1.0031000000000001E-10, , , , 
DataValue, 14.17, 0.25, 4.7876E-10, -1.0209E-10, , , , 
DataValue, 14.280000000000001, 0.25, 4.9158000000000007E-10, -1.0383E-10, , , , 
DataValue, 14.39, 0.25, 5.0388E-10, -1.0768000000000001E-10, , , , 
DataValue, 14.5, 0.25, 5.152E-10, -1.1203000000000001E-10, , , , 
DataValue, 14.61, 0.25, 5.2597E-10, -1.1430000000000001E-10, , , , 
DataValue, 14.72, 0.25, 5.391E-10, -1.1519E-10, , , , 
DataValue, 14.83, 0.25, 5.5048E-10, -1.2063E-10, , , , 
DataValue, 14.94, 0.25, 5.6234E-10, -1.2484E-10, , , , 
DataValue, 15.05, 0.25, 5.7365000000000008E-10, -1.2536000000000002E-10, , , , 
DataValue, 15.16, 0.25, 5.8642E-10, -1.2734000000000002E-10, , , , 
DataValue, 15.27, 0.25, 5.9867000000000006E-10, -1.3259E-10, , , , 
DataValue, 15.38, 0.25, 6.1124000000000005E-10, -1.368E-10, , , , 
DataValue, 15.49, 0.25, 6.2283E-10, -1.3722000000000002E-10, , , , 
DataValue, 15.6, 0.25, 6.3549E-10, -1.3975E-10, , , , 
DataValue, 15.71, 0.25, 6.4792000000000007E-10, -1.4462000000000001E-10, , , , 
DataValue, 15.82, 0.25, 6.601E-10, -1.4959000000000002E-10, , , , 
DataValue, 15.93, 0.25, 6.7179E-10, -1.5097000000000002E-10, , , , 
DataValue, 16.04, 0.25, 6.8574000000000005E-10, -1.5206000000000002E-10, , , , 
DataValue, 16.15, 0.25, 6.9861E-10, -1.5579E-10, , , , 
DataValue, 16.26, 0.25, 7.1036E-10, -1.6213000000000001E-10, , , , 
DataValue, 16.37, 0.25, 7.2247000000000009E-10, -1.6541E-10, , , , 
DataValue, 16.48, 0.25, 7.3646000000000006E-10, -1.6593000000000002E-10, , , , 
DataValue, 16.59, 0.25, 7.4923E-10, -1.6815E-10, , , , 
DataValue, 16.7, 0.25, 7.6202E-10, -1.7378000000000002E-10, , , , 
DataValue, 16.81, 0.25, 7.7482E-10, -1.7843000000000002E-10, , , , 
DataValue, 16.92, 0.25, 7.8623000000000009E-10, -1.8015000000000002E-10, , , , 
DataValue, 17.03, 0.25, 8.0001E-10, -1.8143000000000001E-10, , , , 
DataValue, 17.14, 0.25, 8.1159000000000009E-10, -1.8546000000000002E-10, , , , 
DataValue, 17.25, 0.25, 8.2645000000000008E-10, -1.9106E-10, , , , 
DataValue, 17.36, 0.25, 8.377700000000001E-10, -1.9466E-10, , , , 
DataValue, 17.47, 0.25, 8.5089E-10, -1.9515000000000002E-10, , , , 
DataValue, 17.580000000000002, 0.25, 8.641300000000001E-10, -1.9926000000000002E-10, , , , 
DataValue, 17.69, 0.25, 8.780400000000001E-10, -2.0396E-10, , , , 
DataValue, 17.8, 0.25, 8.9024E-10, -2.0804E-10, , , , 
DataValue, 17.91, 0.25, 9.0344E-10, -2.076E-10, , , , 
DataValue, 18.02, 0.25, 9.1697000000000009E-10, -2.1111E-10, , , , 
DataValue, 18.13, 0.25, 9.2968E-10, -2.1779E-10, , , , 
DataValue, 18.240000000000002, 0.25, 9.4351E-10, -2.2233000000000002E-10, , , , 
DataValue, 18.35, 0.25, 9.5558000000000013E-10, -2.2172E-10, , , , 
DataValue, 18.46, 0.25, 9.6917E-10, -2.2488000000000003E-10, , , , 
DataValue, 18.57, 0.25, 9.8229000000000013E-10, -2.3040000000000003E-10, , , , 
DataValue, 18.68, 0.25, 9.9582E-10, -2.3603E-10, , , , 
DataValue, 18.79, 0.25, 1.00872E-09, -2.3645E-10, , , , 
DataValue, 18.900000000000002, 0.25, 1.02324E-09, -2.3901000000000004E-10, , , , 
DataValue, 19.01, 0.25, 1.0365100000000002E-09, -2.4617000000000004E-10, , , , 
DataValue, 19.12, 0.25, 1.0484900000000002E-09, -2.4948E-10, , , , 
DataValue, 19.23, 0.25, 1.0638900000000001E-09, -2.4916E-10, , , , 
DataValue, 19.34, 0.25, 1.07687E-09, -2.5322000000000003E-10, , , , 
DataValue, 19.45, 0.25, 1.09085E-09, -2.5802E-10, , , , 
DataValue, 19.56, 0.25, 1.0879E-09, -2.5732E-10, , , , 
DataValue, 19.67, 0.25, 1.1045E-09, -2.6178E-10, , , , 
DataValue, 19.78, 0.25, 1.1202E-09, -2.6584000000000004E-10, , , , 
DataValue, 19.89, 0.25, 1.1369E-09, -2.7111E-10, , , , 
DataValue, 20, 0.25, 1.1521E-09, -2.7637E-10, , , , 
DataValue, 20, 0.25, 1.1487E-09, -2.7326000000000005E-10, , , , 
DataValue, 19.89, 0.25, 1.1033E-09, -2.6071E-10, , , , 
DataValue, 19.78, 0.25, 1.0598E-09, -2.4903E-10, , , , 
DataValue, 19.67, 0.25, 1.0199E-09, -2.3961E-10, , , , 
DataValue, 19.56, 0.25, 9.737E-10, -2.2957000000000002E-10, , , , 
DataValue, 19.45, 0.25, 9.3469E-10, -2.2148000000000002E-10, , , , 
DataValue, 19.34, 0.25, 8.9792E-10, -2.1032E-10, , , , 
