
SetupTitle, ID-VG Postbreak
PrimitiveTest, I/V Sweep
TestParameter, Context.MainFrame, B1500A
TestParameter, Channel.UnitType, SMU, SMU
TestParameter, Channel.Unit, SMU1:MP, SMU2:MP
TestParameter, Channel.IName, I1, I2
TestParameter, Channel.VName, V1, V2
TestParameter, Channel.Mode, V, V
TestParameter, Channel.Func, VAR1, CONST
TestParameter, Channel.Index, 
TestParameter, Channel.Time, 
TestParameter, Measurement.Port.Unit, SMU1:MP, SMU2:MP
TestParameter, Measurement.Port.SeriesResistor, NONE, NONE
TestParameter, Measurement.Port.Filter, ON, ON
TestParameter, Measurement.Port.OutputVoltageComparison, 0, 0
TestParameter, Measurement.Primary.Locus, Double
TestParameter, Measurement.Primary.Scale, LINEAR
TestParameter, Measurement.Primary.Start, -2
TestParameter, Measurement.Primary.Stop, 20
TestParameter, Measurement.Primary.Step, 0.11
TestParameter, Measurement.Primary.Compliance, 0.1
TestParameter, Measurement.Primary.PowerCompliance, 0
TestParameter, Measurement.Aborting.Condition, CONTINUE AT ANY
TestParameter, Measurement.PostOutput.Value, START
TestParameter, Measurement.PostOutput.Retention, OFF
TestParameter, Measurement.Bias.Source, -2, 0.25
TestParameter, Measurement.Bias.Compliance, 0.1, 0.1
TestParameter, Measurement.Monitor.Unit, SMU1:MP, SMU2:MP
TestParameter, Measurement.Monitor.Adc, HR ADC, HR ADC
TestParameter, Measurement.Monitor.Measurement, Compliance Side, Compliance Side
TestParameter, Measurement.Monitor.RangingMode, LIMITED, LIMITED
TestParameter, Measurement.Monitor.RangeBoundary, 1nA, 1nA
TestParameter, Measurement.Monitor.RangeRating, BY FULL RANGE, BY FULL RANGE
TestParameter, Measurement.Monitor.RangeRatingCoeff, 50, 50
TestParameter, Measurement.Timing.Hold, 0
TestParameter, Measurement.Timing.Delay, 0
TestParameter, Measurement.Adc.HighSpeed.Mode, AUTO
TestParameter, Measurement.Adc.HighSpeed.Coeff, 1
TestParameter, Measurement.Adc.HighResolution.AutoZero, OFF
TestParameter, Measurement.Adc.HighResolution.Mode, AUTO
TestParameter, Measurement.Adc.HighResolution.Coeff, 6
TestParameter, Measurement.WaitTime.Source.Coeff, 1
TestParameter, Measurement.WaitTime.Source.Offset, 0
TestParameter, Measurement.WaitTime.Monitor.Coeff, 1
TestParameter, Measurement.WaitTime.Monitor.Offset, 0
TestParameter, Output.Graph.Enabled, true
TestParameter, Output.Graph.AutoScaling, false
TestParameter, Output.Graph.XAxis.Data, V1
TestParameter, Output.Graph.XAxis.Scale, Linear
TestParameter, Output.Graph.XAxis.Left, -2
TestParameter, Output.Graph.XAxis.Right, 6
TestParameter, Output.Graph.XAxis.RunTimeAutoScale, true
TestParameter, Output.Graph.YAxis.Data, I2
TestParameter, Output.Graph.YAxis.Scale, Linear
TestParameter, Output.Graph.YAxis.Bottom, -0.1
TestParameter, Output.Graph.YAxis.Top, 0.1
TestParameter, Output.Graph.YAxis.Group, 
TestParameter, Output.Graph.YAxis.RunTimeAutoScale, true
TestParameter, Output.List.Data, V1, I1, V2, I2, V3, I3, V4, I4
TestParameter, AutoAnalysis.Interpolation, false
TestParameter, AutoAnalysis.Line1.Enabled, false
TestParameter, AutoAnalysis.Line1.Type, 1
TestParameter, AutoAnalysis.Line1.Fix, True
TestParameter, AutoAnalysis.Line1.YAxis, 0
TestParameter, AutoAnalysis.Line1.Point1.Type, 0
TestParameter, AutoAnalysis.Line1.Point1.XY.X, 
TestParameter, AutoAnalysis.Line1.Point1.XY.Y, 
TestParameter, AutoAnalysis.Line1.Point1.Data.Var, 
TestParameter, AutoAnalysis.Line1.Point1.Data.Condition, 
TestParameter, AutoAnalysis.Line1.Point1.Data.Start, false
TestParameter, AutoAnalysis.Line1.Point1.Data.StartVar, 
TestParameter, AutoAnalysis.Line1.Point1.Data.StartCondition, 
TestParameter, AutoAnalysis.Line1.Point2.Type, 0
TestParameter, AutoAnalysis.Line1.Point2.XY.X, 
TestParameter, AutoAnalysis.Line1.Point2.XY.Y, 
TestParameter, AutoAnalysis.Line1.Point2.Data.Var, 
TestParameter, AutoAnalysis.Line1.Point2.Data.Condition, 
TestParameter, AutoAnalysis.Line1.Point2.Data.Start, false
TestParameter, AutoAnalysis.Line1.Point2.Data.StartVar, 
TestParameter, AutoAnalysis.Line1.Point2.Data.StartCondition, 
TestParameter, AutoAnalysis.Line1.GradientExpr, 0
TestParameter, AutoAnalysis.Line2.Enabled, false
TestParameter, AutoAnalysis.Line2.Type, 1
TestParameter, AutoAnalysis.Line2.Fix, True
TestParameter, AutoAnalysis.Line2.YAxis, 0
TestParameter, AutoAnalysis.Line2.Point1.Type, 0
TestParameter, AutoAnalysis.Line2.Point1.XY.X, 
TestParameter, AutoAnalysis.Line2.Point1.XY.Y, 
TestParameter, AutoAnalysis.Line2.Point1.Data.Var, 
TestParameter, AutoAnalysis.Line2.Point1.Data.Condition, 
TestParameter, AutoAnalysis.Line2.Point1.Data.Start, false
TestParameter, AutoAnalysis.Line2.Point1.Data.StartVar, 
TestParameter, AutoAnalysis.Line2.Point1.Data.StartCondition, 
TestParameter, AutoAnalysis.Line2.Point2.Type, 0
TestParameter, AutoAnalysis.Line2.Point2.XY.X, 
TestParameter, AutoAnalysis.Line2.Point2.XY.Y, 
TestParameter, AutoAnalysis.Line2.Point2.Data.Var, 
TestParameter, AutoAnalysis.Line2.Point2.Data.Condition, 
TestParameter, AutoAnalysis.Line2.Point2.Data.Start, false
TestParameter, AutoAnalysis.Line2.Point2.Data.StartVar, 
TestParameter, AutoAnalysis.Line2.Point2.Data.StartCondition, 
TestParameter, AutoAnalysis.Line2.GradientExpr, 0
TestParameter, AutoAnalysis.Marker.Enabled, false
TestParameter, AutoAnalysis.Marker.Data.Var, 
TestParameter, AutoAnalysis.Marker.Data.Condition, 
TestParameter, AutoAnalysis.Marker.Data.Start, false
TestParameter, AutoAnalysis.Marker.Data.StartVar, 
TestParameter, AutoAnalysis.Marker.Data.StartCondition, 
MetaData, TestRecord.EntryPoint, true
MetaData, TestRecord.RecordTime, 03/10/2023 17:35:45
MetaData, TestRecord.TestTarget, 
MetaData, TestRecord.IterationIndex, 75
MetaData, TestRecord.Preservation, true
MetaData, TestRecord.Flag, 
MetaData, TestRecord.Remarks, 
MetaData, TestRecord.LinkKey, 8e71a7d8-83ce-4996-bde7-9624648b2592
Dimension1, 402, 402, 402, 402, 402, 402, 402, 402
Dimension2, 1, 1, 1, 1, 1, 1, 1, 1
DataName, V1, V2, I1, I2, V3, I3, V4, I4
DataValue, -2, 0.25, -2.57E-12, 1.967E-11, , , , 
DataValue, -1.8900000000000001, 0.25, -1.64E-12, 1.9070000000000002E-11, , , , 
DataValue, -1.78, 0.25, -1.2800000000000002E-12, 1.7670000000000002E-11, , , , 
DataValue, -1.67, 0.25, -8.8000000000000009E-13, 1.841E-11, , , , 
DataValue, -1.56, 0.25, -1.0500000000000002E-12, 1.983E-11, , , , 
DataValue, -1.45, 0.25, 3.7000000000000004E-13, 1.8290000000000002E-11, , , , 
DataValue, -1.34, 0.25, 1.0000000000000002E-14, 1.8220000000000003E-11, , , , 
DataValue, -1.23, 0.25, 6.0000000000000009E-14, 1.7620000000000003E-11, , , , 
DataValue, -1.12, 0.25, -2.8E-13, 1.928E-11, , , , 
DataValue, -1.01, 0.25, 3.3E-13, 1.928E-11, , , , 
DataValue, -0.9, 0.25, 6.2000000000000008E-13, 1.779E-11, , , , 
DataValue, -0.79, 0.25, 1.03E-12, 1.899E-11, , , , 
DataValue, -0.68, 0.25, 5.7E-13, 1.9440000000000003E-11, , , , 
DataValue, -0.57000000000000006, 0.25, 7E-13, 1.897E-11, , , , 
DataValue, -0.46, 0.25, 2.3000000000000003E-13, 1.772E-11, , , , 
DataValue, -0.35000000000000003, 0.25, 5E-13, 1.7710000000000003E-11, , , , 
DataValue, -0.24, 0.25, 1.2000000000000001E-12, 1.954E-11, , , , 
DataValue, -0.13, 0.25, 1.18E-12, 1.8760000000000002E-11, , , , 
DataValue, -0.02, 0.25, 6.400000000000001E-13, 1.746E-11, , , , 
DataValue, 0.09, 0.25, 1.4900000000000001E-12, 1.7890000000000002E-11, , , , 
DataValue, 0.2, 0.25, 1.09E-12, 1.9510000000000002E-11, , , , 
DataValue, 0.31, 0.25, 1.5400000000000001E-12, 1.8760000000000002E-11, , , , 
DataValue, 0.42, 0.25, 1.4300000000000002E-12, 1.71E-11, , , , 
DataValue, 0.53, 0.25, 1.02E-12, 1.804E-11, , , , 
DataValue, 0.64, 0.25, 1.3000000000000001E-12, 1.912E-11, , , , 
DataValue, 0.75, 0.25, 1.8400000000000002E-12, 1.917E-11, , , , 
DataValue, 0.86, 0.25, 1.5800000000000001E-12, 1.7200000000000003E-11, , , , 
DataValue, 0.97, 0.25, 1.8200000000000003E-12, 1.828E-11, , , , 
DataValue, 1.08, 0.25, 2E-12, 1.994E-11, , , , 
DataValue, 1.19, 0.25, 2.29E-12, 1.9220000000000003E-11, , , , 
DataValue, 1.3, 0.25, 1.8400000000000002E-12, 1.743E-11, , , , 
DataValue, 1.41, 0.25, 2.2700000000000002E-12, 1.894E-11, , , , 
DataValue, 1.52, 0.25, 2.4800000000000003E-12, 1.9690000000000002E-11, , , , 
DataValue, 1.6300000000000001, 0.25, 2.7300000000000003E-12, 1.759E-11, , , , 
DataValue, 1.74, 0.25, 2E-12, 1.615E-11, , , , 
DataValue, 1.85, 0.25, 1.8900000000000002E-12, 1.834E-11, , , , 
DataValue, 1.96, 0.25, 2.2700000000000002E-12, 1.912E-11, , , , 
DataValue, 2.07, 0.25, 2.51E-12, 1.755E-11, , , , 
DataValue, 2.18, 0.25, 2.2700000000000002E-12, 1.6780000000000002E-11, , , , 
DataValue, 2.29, 0.25, 2.18E-12, 1.792E-11, , , , 
DataValue, 2.4, 0.25, 2.2200000000000002E-12, 1.914E-11, , , , 
DataValue, 2.5100000000000002, 0.25, 2.9100000000000003E-12, 1.812E-11, , , , 
DataValue, 2.62, 0.25, 2.36E-12, 1.7200000000000003E-11, , , , 
DataValue, 2.73, 0.25, 2.6500000000000002E-12, 1.8600000000000002E-11, , , , 
DataValue, 2.84, 0.25, 2.8800000000000002E-12, 1.894E-11, , , , 
DataValue, 2.95, 0.25, 2.8600000000000003E-12, 1.8110000000000003E-11, , , , 
DataValue, 3.06, 0.25, 2.82E-12, 1.764E-11, , , , 
DataValue, 3.17, 0.25, 3.13E-12, 1.6470000000000002E-11, , , , 
DataValue, 3.2800000000000002, 0.25, 2.79E-12, 1.8760000000000002E-11, , , , 
DataValue, 3.39, 0.25, 3.3900000000000003E-12, 1.899E-11, , , , 
DataValue, 3.5, 0.25, 3.2700000000000004E-12, 1.726E-11, , , , 
DataValue, 3.61, 0.25, 3.05E-12, 1.6450000000000002E-11, , , , 
DataValue, 3.72, 0.25, 3.6800000000000005E-12, 1.874E-11, , , , 
DataValue, 3.83, 0.25, 3.92E-12, 1.9330000000000003E-11, , , , 
DataValue, 3.94, 0.25, 3.1400000000000004E-12, 1.774E-11, , , , 
DataValue, 4.05, 0.25, 3.6900000000000006E-12, 1.7400000000000003E-11, , , , 
DataValue, 4.16, 0.25, 3.1200000000000004E-12, 1.8270000000000002E-11, , , , 
DataValue, 4.2700000000000005, 0.25, 3.5400000000000003E-12, 1.872E-11, , , , 
DataValue, 4.38, 0.25, 3.4000000000000005E-12, 1.703E-11, , , , 
DataValue, 4.49, 0.25, 3.92E-12, 1.6800000000000003E-11, , , , 
DataValue, 4.6000000000000005, 0.25, 4.2400000000000005E-12, 1.852E-11, , , , 
DataValue, 4.71, 0.25, 4.48E-12, 1.8530000000000003E-11, , , , 
DataValue, 4.82, 0.25, 3.56E-12, 1.7340000000000002E-11, , , , 
DataValue, 4.93, 0.25, 4.42E-12, 1.706E-11, , , , 
DataValue, 5.04, 0.25, 4.42E-12, 1.8470000000000002E-11, , , , 
DataValue, 5.15, 0.25, 4.9100000000000007E-12, 1.817E-11, , , , 
DataValue, 5.26, 0.25, 4.22E-12, 1.7070000000000002E-11, , , , 
DataValue, 5.37, 0.25, 4.72E-12, 1.797E-11, , , , 
DataValue, 5.48, 0.25, 4.56E-12, 1.8690000000000002E-11, , , , 
DataValue, 5.59, 0.25, 5.4700000000000007E-12, 1.8440000000000003E-11, , , , 
DataValue, 5.7, 0.25, 4.5400000000000004E-12, 1.7160000000000002E-11, , , , 
DataValue, 5.8100000000000005, 0.25, 5.29E-12, 1.7140000000000002E-11, , , , 
DataValue, 5.92, 0.25, 4.9500000000000005E-12, 1.941E-11, , , , 
DataValue, 6.03, 0.25, 5.4700000000000007E-12, 1.7470000000000002E-11, , , , 
DataValue, 6.1400000000000006, 0.25, 5.6100000000000005E-12, 1.606E-11, , , , 
DataValue, 6.25, 0.25, 5.7700000000000007E-12, 1.6560000000000002E-11, , , , 
DataValue, 6.36, 0.25, 5.85E-12, 1.8640000000000003E-11, , , , 
DataValue, 6.47, 0.25, 6.2300000000000007E-12, 1.8470000000000002E-11, , , , 
DataValue, 6.58, 0.25, 5.3700000000000007E-12, 1.712E-11, , , , 
DataValue, 6.69, 0.25, 6.35E-12, 1.651E-11, , , , 
DataValue, 6.8, 0.25, 5.59E-12, 1.8800000000000002E-11, , , , 
DataValue, 6.91, 0.25, 6.6E-12, 1.695E-11, , , , 
DataValue, 7.0200000000000005, 0.25, 5.9300000000000008E-12, 1.6270000000000002E-11, , , , 
DataValue, 7.13, 0.25, 6.36E-12, 1.639E-11, , , , 
DataValue, 7.24, 0.25, 6.1600000000000004E-12, 1.8640000000000003E-11, , , , 
DataValue, 7.3500000000000005, 0.25, 6.5400000000000008E-12, 1.7380000000000002E-11, , , , 
DataValue, 7.46, 0.25, 6.6400000000000008E-12, 1.6430000000000002E-11, , , , 
DataValue, 7.57, 0.25, 6.97E-12, 1.5890000000000003E-11, , , , 
DataValue, 7.68, 0.25, 6.0700000000000006E-12, 1.766E-11, , , , 
DataValue, 7.79, 0.25, 7.2000000000000008E-12, 1.7930000000000003E-11, , , , 
DataValue, 7.9, 0.25, 6.4800000000000007E-12, 1.682E-11, , , , 
DataValue, 8.01, 0.25, 7.31E-12, 1.535E-11, , , , 
DataValue, 8.120000000000001, 0.25, 7.54E-12, 1.7380000000000002E-11, , , , 
DataValue, 8.23, 0.25, 7.26E-12, 1.6560000000000002E-11, , , , 
DataValue, 8.34, 0.25, 7.5900000000000014E-12, 1.628E-11, , , , 
DataValue, 8.45, 0.25, 7.9900000000000013E-12, 1.613E-11, , , , 
DataValue, 8.56, 0.25, 8.3900000000000012E-12, 1.7450000000000002E-11, , , , 
DataValue, 8.67, 0.25, 8.34E-12, 1.748E-11, , , , 
DataValue, 8.78, 0.25, 7.95E-12, 1.588E-11, , , , 
DataValue, 8.89, 0.25, 8.16E-12, 1.5140000000000002E-11, , , , 
DataValue, 9, 0.25, 8.55E-12, 1.693E-11, , , , 
DataValue, 9.11, 0.25, 9.25E-12, 1.703E-11, , , , 
DataValue, 9.22, 0.25, 8.86E-12, 1.566E-11, , , , 
DataValue, 9.33, 0.25, 8.85E-12, 1.4300000000000002E-11, , , , 
DataValue, 9.44, 0.25, 8.95E-12, 1.63E-11, , , , 
DataValue, 9.55, 0.25, 9.27E-12, 1.7650000000000002E-11, , , , 
DataValue, 9.66, 0.25, 9.390000000000001E-12, 1.61E-11, , , , 
DataValue, 9.77, 0.25, 9.75E-12, 1.464E-11, , , , 
DataValue, 9.88, 0.25, 9.57E-12, 1.6160000000000002E-11, , , , 
DataValue, 9.99, 0.25, 1.036E-11, 1.804E-11, , , , 
DataValue, 10.1, 0.25, 1.0010000000000001E-11, 1.661E-11, , , , 
DataValue, 10.21, 0.25, 1.0310000000000001E-11, 1.484E-11, , , , 
DataValue, 10.32, 0.25, 1.107E-11, 1.65E-11, , , , 
DataValue, 10.43, 0.25, 1.0900000000000001E-11, 1.7600000000000003E-11, , , , 
DataValue, 10.540000000000001, 0.25, 1.1410000000000001E-11, 1.6270000000000002E-11, , , , 
DataValue, 10.65, 0.25, 1.1210000000000001E-11, 1.4810000000000002E-11, , , , 
DataValue, 10.76, 0.25, 1.14E-11, 1.612E-11, , , , 
DataValue, 10.870000000000001, 0.25, 1.1820000000000001E-11, 1.706E-11, , , , 
DataValue, 10.98, 0.25, 1.2840000000000001E-11, 1.586E-11, , , , 
DataValue, 11.09, 0.25, 1.269E-11, 1.5560000000000002E-11, , , , 
DataValue, 11.200000000000001, 0.25, 1.31E-11, 1.52E-11, , , , 
DataValue, 11.31, 0.25, 1.2980000000000002E-11, 1.6740000000000002E-11, , , , 
DataValue, 11.42, 0.25, 1.3760000000000001E-11, 1.646E-11, , , , 
DataValue, 11.53, 0.25, 1.422E-11, 1.551E-11, , , , 
DataValue, 11.64, 0.25, 1.4070000000000001E-11, 1.442E-11, , , , 
DataValue, 11.75, 0.25, 1.473E-11, 1.6250000000000002E-11, , , , 
DataValue, 11.86, 0.25, 1.597E-11, 1.5980000000000003E-11, , , , 
DataValue, 11.97, 0.25, 1.553E-11, 1.502E-11, , , , 
DataValue, 12.08, 0.25, 1.633E-11, 1.498E-11, , , , 
DataValue, 12.19, 0.25, 1.6140000000000002E-11, 1.582E-11, , , , 
DataValue, 12.3, 0.25, 1.7380000000000002E-11, 1.555E-11, , , , 
DataValue, 12.41, 0.25, 1.7890000000000002E-11, 1.4190000000000002E-11, , , , 
DataValue, 12.52, 0.25, 1.801E-11, 1.372E-11, , , , 
DataValue, 12.63, 0.25, 1.8890000000000002E-11, 1.4670000000000003E-11, , , , 
DataValue, 12.74, 0.25, 1.9020000000000003E-11, 1.544E-11, , , , 
DataValue, 12.85, 0.25, 1.9730000000000003E-11, 1.557E-11, , , , 
DataValue, 12.96, 0.25, 2.0060000000000003E-11, 1.323E-11, , , , 
DataValue, 13.07, 0.25, 2.07E-11, 1.4180000000000001E-11, , , , 
DataValue, 13.18, 0.25, 2.074E-11, 1.504E-11, , , , 
DataValue, 13.290000000000001, 0.25, 2.216E-11, 1.3870000000000001E-11, , , , 
DataValue, 13.4, 0.25, 2.2040000000000002E-11, 1.228E-11, , , , 
DataValue, 13.51, 0.25, 2.2570000000000003E-11, 1.3990000000000002E-11, , , , 
DataValue, 13.620000000000001, 0.25, 2.347E-11, 1.488E-11, , , , 
DataValue, 13.73, 0.25, 2.3770000000000002E-11, 1.3290000000000002E-11, , , , 
DataValue, 13.84, 0.25, 2.4940000000000003E-11, 1.1960000000000002E-11, , , , 
DataValue, 13.950000000000001, 0.25, 2.4920000000000003E-11, 1.4290000000000002E-11, , , , 
DataValue, 14.06, 0.25, 2.5300000000000002E-11, 1.477E-11, , , , 
DataValue, 14.17, 0.25, 2.706E-11, 1.352E-11, , , , 
DataValue, 14.280000000000001, 0.25, 2.6980000000000003E-11, 1.1830000000000001E-11, , , , 
DataValue, 14.39, 0.25, 2.8120000000000002E-11, 1.231E-11, , , , 
DataValue, 14.5, 0.25, 2.875E-11, 1.381E-11, , , , 
DataValue, 14.61, 0.25, 2.8960000000000003E-11, 1.19E-11, , , , 
DataValue, 14.72, 0.25, 3.1370000000000004E-11, 1.208E-11, , , , 
DataValue, 14.83, 0.25, 2.942E-11, 1.1640000000000001E-11, , , , 
DataValue, 14.94, 0.25, 3.2830000000000005E-11, 1.478E-11, , , , 
DataValue, 15.05, 0.25, 3.16E-11, 1.1860000000000002E-11, , , , 
DataValue, 15.16, 0.25, 3.209E-11, 1.2160000000000002E-11, , , , 
DataValue, 15.27, 0.25, 3.365E-11, 1.067E-11, , , , 
DataValue, 15.38, 0.25, 3.329E-11, 1.2940000000000001E-11, , , , 
DataValue, 15.49, 0.25, 3.4830000000000004E-11, 1.2060000000000002E-11, , , , 
DataValue, 15.6, 0.25, 3.51E-11, 1.0820000000000001E-11, , , , 
DataValue, 15.71, 0.25, 3.6210000000000003E-11, 1.0430000000000001E-11, , , , 
DataValue, 15.82, 0.25, 3.6370000000000006E-11, 1.1870000000000002E-11, , , , 
DataValue, 15.93, 0.25, 3.686E-11, 1.2270000000000002E-11, , , , 
DataValue, 16.04, 0.25, 3.7460000000000006E-11, 1.015E-11, , , , 
DataValue, 16.15, 0.25, 3.8550000000000005E-11, 9.85E-12, , , , 
DataValue, 16.26, 0.25, 3.893E-11, 1.096E-11, , , , 
DataValue, 16.37, 0.25, 4.053E-11, 1.0500000000000001E-11, , , , 
DataValue, 16.48, 0.25, 4.068E-11, 9.34E-12, , , , 
DataValue, 16.59, 0.25, 4.1830000000000006E-11, 8.22E-12, , , , 
DataValue, 16.7, 0.25, 4.225E-11, 9.84E-12, , , , 
DataValue, 16.81, 0.25, 4.2480000000000005E-11, 9.6100000000000013E-12, , , , 
DataValue, 16.92, 0.25, 4.356E-11, 7.5600000000000009E-12, , , , 
DataValue, 17.03, 0.25, 4.4380000000000006E-11, 8.4000000000000014E-12, , , , 
DataValue, 17.14, 0.25, 4.436E-11, 1.0340000000000002E-11, , , , 
DataValue, 17.25, 0.25, 4.654E-11, 9.8300000000000015E-12, , , , 
DataValue, 17.36, 0.25, 4.6240000000000007E-11, 7.7600000000000009E-12, , , , 
DataValue, 17.47, 0.25, 4.727E-11, 6.4400000000000008E-12, , , , 
DataValue, 17.580000000000002, 0.25, 4.826E-11, 9.1100000000000014E-12, , , , 
DataValue, 17.69, 0.25, 4.934E-11, 8.97E-12, , , , 
DataValue, 17.8, 0.25, 5.022E-11, 7.53E-12, , , , 
DataValue, 17.91, 0.25, 5.0740000000000004E-11, 6.4200000000000005E-12, , , , 
DataValue, 18.02, 0.25, 5.1320000000000003E-11, 8.4000000000000014E-12, , , , 
DataValue, 18.13, 0.25, 5.2780000000000004E-11, 8.5000000000000013E-12, , , , 
DataValue, 18.240000000000002, 0.25, 5.299E-11, 5.79E-12, , , , 
DataValue, 18.35, 0.25, 5.4270000000000004E-11, 6.0600000000000004E-12, , , , 
DataValue, 18.46, 0.25, 5.452E-11, 7.0000000000000009E-12, , , , 
DataValue, 18.57, 0.25, 5.525E-11, 6.6700000000000005E-12, , , , 
DataValue, 18.68, 0.25, 5.5690000000000004E-11, 5.8200000000000006E-12, , , , 
DataValue, 18.79, 0.25, 5.6900000000000005E-11, 5.48E-12, , , , 
DataValue, 18.900000000000002, 0.25, 5.7960000000000006E-11, 6.0700000000000006E-12, , , , 
DataValue, 19.01, 0.25, 5.9240000000000007E-11, 5.9200000000000006E-12, , , , 
DataValue, 19.12, 0.25, 5.969E-11, 4.63E-12, , , , 
DataValue, 19.23, 0.25, 6.046E-11, 5.2000000000000005E-12, , , , 
DataValue, 19.34, 0.25, 6.053000000000001E-11, 6.25E-12, , , , 
DataValue, 19.45, 0.25, 6.258E-11, 5.0600000000000007E-12, , , , 
DataValue, 19.56, 0.25, 6.251E-11, 4.07E-12, , , , 
DataValue, 19.67, 0.25, 6.338E-11, 4.27E-12, , , , 
DataValue, 19.78, 0.25, 6.43E-11, 6.4400000000000008E-12, , , , 
DataValue, 19.89, 0.25, 6.5610000000000007E-11, 5.09E-12, , , , 
DataValue, 20, 0.25, 6.5580000000000008E-11, 3.7900000000000006E-12, , , , 
DataValue, 20, 0.25, 6.6020000000000008E-11, 4.51E-12, , , , 
DataValue, 19.89, 0.25, 6.3040000000000009E-11, 4.99E-12, , , , 
DataValue, 19.78, 0.25, 5.927E-11, 4.1000000000000007E-12, , , , 
DataValue, 19.67, 0.25, 5.7710000000000007E-11, 5.4100000000000006E-12, , , , 
