
SetupTitle, ID-VG Postbreak
PrimitiveTest, I/V Sweep
TestParameter, Context.MainFrame, B1500A
TestParameter, Channel.UnitType, SMU, SMU
TestParameter, Channel.Unit, SMU1:MP, SMU2:MP
TestParameter, Channel.IName, I1, I2
TestParameter, Channel.VName, V1, V2
TestParameter, Channel.Mode, V, V
TestParameter, Channel.Func, VAR1, CONST
TestParameter, Channel.Index, 
TestParameter, Channel.Time, 
TestParameter, Measurement.Port.Unit, SMU1:MP, SMU2:MP
TestParameter, Measurement.Port.SeriesResistor, NONE, NONE
TestParameter, Measurement.Port.Filter, ON, ON
TestParameter, Measurement.Port.OutputVoltageComparison, 0, 0
TestParameter, Measurement.Primary.Locus, Double
TestParameter, Measurement.Primary.Scale, LINEAR
TestParameter, Measurement.Primary.Start, -2
TestParameter, Measurement.Primary.Stop, 20
TestParameter, Measurement.Primary.Step, 0.11
TestParameter, Measurement.Primary.Compliance, 0.1
TestParameter, Measurement.Primary.PowerCompliance, 0
TestParameter, Measurement.Aborting.Condition, CONTINUE AT ANY
TestParameter, Measurement.PostOutput.Value, START
TestParameter, Measurement.PostOutput.Retention, OFF
TestParameter, Measurement.Bias.Source, -2, 0.25
TestParameter, Measurement.Bias.Compliance, 0.1, 0.1
TestParameter, Measurement.Monitor.Unit, SMU1:MP, SMU2:MP
TestParameter, Measurement.Monitor.Adc, HR ADC, HR ADC
TestParameter, Measurement.Monitor.Measurement, Compliance Side, Compliance Side
TestParameter, Measurement.Monitor.RangingMode, LIMITED, LIMITED
TestParameter, Measurement.Monitor.RangeBoundary, 1nA, 1nA
TestParameter, Measurement.Monitor.RangeRating, BY FULL RANGE, BY FULL RANGE
TestParameter, Measurement.Monitor.RangeRatingCoeff, 50, 50
TestParameter, Measurement.Timing.Hold, 0
TestParameter, Measurement.Timing.Delay, 0
TestParameter, Measurement.Adc.HighSpeed.Mode, AUTO
TestParameter, Measurement.Adc.HighSpeed.Coeff, 1
TestParameter, Measurement.Adc.HighResolution.AutoZero, OFF
TestParameter, Measurement.Adc.HighResolution.Mode, AUTO
TestParameter, Measurement.Adc.HighResolution.Coeff, 6
TestParameter, Measurement.WaitTime.Source.Coeff, 1
TestParameter, Measurement.WaitTime.Source.Offset, 0
TestParameter, Measurement.WaitTime.Monitor.Coeff, 1
TestParameter, Measurement.WaitTime.Monitor.Offset, 0
TestParameter, Output.Graph.Enabled, true
TestParameter, Output.Graph.AutoScaling, false
TestParameter, Output.Graph.XAxis.Data, V1
TestParameter, Output.Graph.XAxis.Scale, Linear
TestParameter, Output.Graph.XAxis.Left, -2
TestParameter, Output.Graph.XAxis.Right, 6
TestParameter, Output.Graph.XAxis.RunTimeAutoScale, true
TestParameter, Output.Graph.YAxis.Data, I2
TestParameter, Output.Graph.YAxis.Scale, Linear
TestParameter, Output.Graph.YAxis.Bottom, -0.1
TestParameter, Output.Graph.YAxis.Top, 0.1
TestParameter, Output.Graph.YAxis.Group, 
TestParameter, Output.Graph.YAxis.RunTimeAutoScale, true
TestParameter, Output.List.Data, V1, I1, V2, I2, V3, I3, V4, I4
TestParameter, AutoAnalysis.Interpolation, false
TestParameter, AutoAnalysis.Line1.Enabled, false
TestParameter, AutoAnalysis.Line1.Type, 1
TestParameter, AutoAnalysis.Line1.Fix, True
TestParameter, AutoAnalysis.Line1.YAxis, 0
TestParameter, AutoAnalysis.Line1.Point1.Type, 0
TestParameter, AutoAnalysis.Line1.Point1.XY.X, 
TestParameter, AutoAnalysis.Line1.Point1.XY.Y, 
TestParameter, AutoAnalysis.Line1.Point1.Data.Var, 
TestParameter, AutoAnalysis.Line1.Point1.Data.Condition, 
TestParameter, AutoAnalysis.Line1.Point1.Data.Start, false
TestParameter, AutoAnalysis.Line1.Point1.Data.StartVar, 
TestParameter, AutoAnalysis.Line1.Point1.Data.StartCondition, 
TestParameter, AutoAnalysis.Line1.Point2.Type, 0
TestParameter, AutoAnalysis.Line1.Point2.XY.X, 
TestParameter, AutoAnalysis.Line1.Point2.XY.Y, 
TestParameter, AutoAnalysis.Line1.Point2.Data.Var, 
TestParameter, AutoAnalysis.Line1.Point2.Data.Condition, 
TestParameter, AutoAnalysis.Line1.Point2.Data.Start, false
TestParameter, AutoAnalysis.Line1.Point2.Data.StartVar, 
TestParameter, AutoAnalysis.Line1.Point2.Data.StartCondition, 
TestParameter, AutoAnalysis.Line1.GradientExpr, 0
TestParameter, AutoAnalysis.Line2.Enabled, false
TestParameter, AutoAnalysis.Line2.Type, 1
TestParameter, AutoAnalysis.Line2.Fix, True
TestParameter, AutoAnalysis.Line2.YAxis, 0
TestParameter, AutoAnalysis.Line2.Point1.Type, 0
TestParameter, AutoAnalysis.Line2.Point1.XY.X, 
TestParameter, AutoAnalysis.Line2.Point1.XY.Y, 
TestParameter, AutoAnalysis.Line2.Point1.Data.Var, 
TestParameter, AutoAnalysis.Line2.Point1.Data.Condition, 
TestParameter, AutoAnalysis.Line2.Point1.Data.Start, false
TestParameter, AutoAnalysis.Line2.Point1.Data.StartVar, 
TestParameter, AutoAnalysis.Line2.Point1.Data.StartCondition, 
TestParameter, AutoAnalysis.Line2.Point2.Type, 0
TestParameter, AutoAnalysis.Line2.Point2.XY.X, 
TestParameter, AutoAnalysis.Line2.Point2.XY.Y, 
TestParameter, AutoAnalysis.Line2.Point2.Data.Var, 
TestParameter, AutoAnalysis.Line2.Point2.Data.Condition, 
TestParameter, AutoAnalysis.Line2.Point2.Data.Start, false
TestParameter, AutoAnalysis.Line2.Point2.Data.StartVar, 
TestParameter, AutoAnalysis.Line2.Point2.Data.StartCondition, 
TestParameter, AutoAnalysis.Line2.GradientExpr, 0
TestParameter, AutoAnalysis.Marker.Enabled, false
TestParameter, AutoAnalysis.Marker.Data.Var, 
TestParameter, AutoAnalysis.Marker.Data.Condition, 
TestParameter, AutoAnalysis.Marker.Data.Start, false
TestParameter, AutoAnalysis.Marker.Data.StartVar, 
TestParameter, AutoAnalysis.Marker.Data.StartCondition, 
MetaData, TestRecord.EntryPoint, true
MetaData, TestRecord.RecordTime, 03/10/2023 17:35:05
MetaData, TestRecord.TestTarget, 
MetaData, TestRecord.IterationIndex, 74
MetaData, TestRecord.Preservation, true
MetaData, TestRecord.Flag, 
MetaData, TestRecord.Remarks, 
MetaData, TestRecord.LinkKey, c80b54e5-ef89-4fec-96c6-69e47b05d419
Dimension1, 402, 402, 402, 402, 402, 402, 402, 402
Dimension2, 1, 1, 1, 1, 1, 1, 1, 1
DataName, V1, V2, I1, I2, V3, I3, V4, I4
DataValue, -2, 0.25, -4.03E-12, 1.9730000000000003E-11, , , , 
DataValue, -1.8900000000000001, 0.25, -1.93E-12, 1.8730000000000003E-11, , , , 
DataValue, -1.78, 0.25, -1.5400000000000001E-12, 1.754E-11, , , , 
DataValue, -1.67, 0.25, -8.300000000000001E-13, 1.9640000000000003E-11, , , , 
DataValue, -1.56, 0.25, -2.6E-13, 2.0290000000000002E-11, , , , 
DataValue, -1.45, 0.25, -4.4000000000000004E-13, 1.854E-11, , , , 
DataValue, -1.34, 0.25, -3.2000000000000005E-13, 1.7580000000000002E-11, , , , 
DataValue, -1.23, 0.25, -2.5E-13, 1.965E-11, , , , 
DataValue, -1.12, 0.25, 3.4E-13, 2.0150000000000003E-11, , , , 
DataValue, -1.01, 0.25, 8.1000000000000008E-13, 1.857E-11, , , , 
DataValue, -0.9, 0.25, 3.2000000000000005E-13, 1.783E-11, , , , 
DataValue, -0.79, 0.25, 2.6E-13, 1.9620000000000002E-11, , , , 
DataValue, -0.68, 0.25, 9.1000000000000016E-13, 1.983E-11, , , , 
DataValue, -0.57000000000000006, 0.25, 7.6000000000000009E-13, 1.8510000000000003E-11, , , , 
DataValue, -0.46, 0.25, 1.2000000000000001E-12, 1.7340000000000002E-11, , , , 
DataValue, -0.35000000000000003, 0.25, 1.0600000000000001E-12, 1.9660000000000003E-11, , , , 
DataValue, -0.24, 0.25, 1.46E-12, 1.981E-11, , , , 
DataValue, -0.13, 0.25, 1.2400000000000002E-12, 1.881E-11, , , , 
DataValue, -0.02, 0.25, 1.4400000000000001E-12, 1.755E-11, , , , 
DataValue, 0.09, 0.25, 8.4000000000000006E-13, 1.919E-11, , , , 
DataValue, 0.2, 0.25, 1.5700000000000002E-12, 1.9620000000000002E-11, , , , 
DataValue, 0.31, 0.25, 1.36E-12, 1.8950000000000003E-11, , , , 
DataValue, 0.42, 0.25, 1.79E-12, 1.77E-11, , , , 
DataValue, 0.53, 0.25, 9.7000000000000011E-13, 1.839E-11, , , , 
DataValue, 0.64, 0.25, 1.8700000000000003E-12, 2.014E-11, , , , 
DataValue, 0.75, 0.25, 1.5400000000000001E-12, 1.905E-11, , , , 
DataValue, 0.86, 0.25, 2.82E-12, 1.768E-11, , , , 
DataValue, 0.97, 0.25, 1.4300000000000002E-12, 1.803E-11, , , , 
DataValue, 1.08, 0.25, 1.86E-12, 1.99E-11, , , , 
DataValue, 1.19, 0.25, 2.0200000000000003E-12, 1.875E-11, , , , 
DataValue, 1.3, 0.25, 2.3800000000000004E-12, 1.8050000000000002E-11, , , , 
DataValue, 1.41, 0.25, 1.9200000000000003E-12, 1.719E-11, , , , 
DataValue, 1.52, 0.25, 2.2700000000000002E-12, 1.948E-11, , , , 
DataValue, 1.6300000000000001, 0.25, 2.19E-12, 1.875E-11, , , , 
DataValue, 1.74, 0.25, 2.6100000000000004E-12, 1.7050000000000002E-11, , , , 
DataValue, 1.85, 0.25, 1.7700000000000001E-12, 1.741E-11, , , , 
DataValue, 1.96, 0.25, 2.3300000000000004E-12, 2.014E-11, , , , 
DataValue, 2.07, 0.25, 2.59E-12, 1.8760000000000002E-11, , , , 
DataValue, 2.18, 0.25, 3.51E-12, 1.6960000000000002E-11, , , , 
DataValue, 2.29, 0.25, 2.2500000000000003E-12, 1.683E-11, , , , 
DataValue, 2.4, 0.25, 3.13E-12, 2.0260000000000003E-11, , , , 
DataValue, 2.5100000000000002, 0.25, 2.62E-12, 1.837E-11, , , , 
DataValue, 2.62, 0.25, 3.07E-12, 1.695E-11, , , , 
DataValue, 2.73, 0.25, 2.6600000000000004E-12, 1.7420000000000003E-11, , , , 
DataValue, 2.84, 0.25, 2.8300000000000003E-12, 1.9150000000000003E-11, , , , 
DataValue, 2.95, 0.25, 3.23E-12, 1.908E-11, , , , 
DataValue, 3.06, 0.25, 3.85E-12, 1.835E-11, , , , 
DataValue, 3.17, 0.25, 3.2600000000000002E-12, 1.7000000000000003E-11, , , , 
DataValue, 3.2800000000000002, 0.25, 3.8300000000000004E-12, 1.9470000000000002E-11, , , , 
DataValue, 3.39, 0.25, 3.85E-12, 1.8870000000000002E-11, , , , 
DataValue, 3.5, 0.25, 3.72E-12, 1.7850000000000002E-11, , , , 
DataValue, 3.61, 0.25, 2.97E-12, 1.774E-11, , , , 
DataValue, 3.72, 0.25, 3.6900000000000006E-12, 1.8470000000000002E-11, , , , 
DataValue, 3.83, 0.25, 3.8800000000000004E-12, 1.8110000000000003E-11, , , , 
DataValue, 3.94, 0.25, 3.8300000000000004E-12, 1.753E-11, , , , 
DataValue, 4.05, 0.25, 3.8900000000000006E-12, 1.7780000000000002E-11, , , , 
DataValue, 4.16, 0.25, 4.8000000000000005E-12, 1.8730000000000003E-11, , , , 
DataValue, 4.2700000000000005, 0.25, 4.63E-12, 1.81E-11, , , , 
DataValue, 4.38, 0.25, 4.5900000000000004E-12, 1.7200000000000003E-11, , , , 
DataValue, 4.49, 0.25, 4.51E-12, 1.7580000000000002E-11, , , , 
DataValue, 4.6000000000000005, 0.25, 5.24E-12, 1.976E-11, , , , 
DataValue, 4.71, 0.25, 4.4400000000000005E-12, 1.7760000000000002E-11, , , , 
DataValue, 4.82, 0.25, 5.3200000000000008E-12, 1.701E-11, , , , 
DataValue, 4.93, 0.25, 4.5900000000000004E-12, 1.774E-11, , , , 
DataValue, 5.04, 0.25, 4.8500000000000005E-12, 1.977E-11, , , , 
DataValue, 5.15, 0.25, 5.2500000000000004E-12, 1.855E-11, , , , 
DataValue, 5.26, 0.25, 5.39E-12, 1.719E-11, , , , 
DataValue, 5.37, 0.25, 4.94E-12, 1.6290000000000003E-11, , , , 
DataValue, 5.48, 0.25, 5.1700000000000008E-12, 1.8760000000000002E-11, , , , 
DataValue, 5.59, 0.25, 5.79E-12, 1.883E-11, , , , 
DataValue, 5.7, 0.25, 6.0600000000000004E-12, 1.635E-11, , , , 
DataValue, 5.8100000000000005, 0.25, 5.8E-12, 1.586E-11, , , , 
DataValue, 5.92, 0.25, 5.95E-12, 1.874E-11, , , , 
DataValue, 6.03, 0.25, 6.25E-12, 1.9200000000000002E-11, , , , 
DataValue, 6.1400000000000006, 0.25, 6.4900000000000008E-12, 1.688E-11, , , , 
DataValue, 6.25, 0.25, 6.7200000000000004E-12, 1.6090000000000003E-11, , , , 
DataValue, 6.36, 0.25, 6.5E-12, 1.8510000000000003E-11, , , , 
DataValue, 6.47, 0.25, 7.21E-12, 1.903E-11, , , , 
DataValue, 6.58, 0.25, 6.4700000000000005E-12, 1.744E-11, , , , 
DataValue, 6.69, 0.25, 6.91E-12, 1.611E-11, , , , 
DataValue, 6.8, 0.25, 6.7700000000000004E-12, 1.764E-11, , , , 
DataValue, 6.91, 0.25, 7.45E-12, 1.8600000000000002E-11, , , , 
DataValue, 7.0200000000000005, 0.25, 7.16E-12, 1.7250000000000002E-11, , , , 
DataValue, 7.13, 0.25, 7.6900000000000014E-12, 1.5960000000000002E-11, , , , 
DataValue, 7.24, 0.25, 7.1800000000000005E-12, 1.761E-11, , , , 
DataValue, 7.3500000000000005, 0.25, 8.22E-12, 1.777E-11, , , , 
DataValue, 7.46, 0.25, 7.7600000000000009E-12, 1.6850000000000002E-11, , , , 
DataValue, 7.57, 0.25, 8.31E-12, 1.6070000000000002E-11, , , , 
DataValue, 7.68, 0.25, 7.16E-12, 1.764E-11, , , , 
DataValue, 7.79, 0.25, 8.1800000000000011E-12, 1.8110000000000003E-11, , , , 
DataValue, 7.9, 0.25, 8.05E-12, 1.661E-11, , , , 
DataValue, 8.01, 0.25, 8.5900000000000012E-12, 1.5320000000000002E-11, , , , 
DataValue, 8.120000000000001, 0.25, 8.2000000000000014E-12, 1.71E-11, , , , 
DataValue, 8.23, 0.25, 8.5000000000000013E-12, 1.823E-11, , , , 
DataValue, 8.34, 0.25, 8.8100000000000014E-12, 1.6940000000000002E-11, , , , 
DataValue, 8.45, 0.25, 8.86E-12, 1.499E-11, , , , 
DataValue, 8.56, 0.25, 8.96E-12, 1.743E-11, , , , 
DataValue, 8.67, 0.25, 9.13E-12, 1.801E-11, , , , 
DataValue, 8.78, 0.25, 8.92E-12, 1.5740000000000002E-11, , , , 
DataValue, 8.89, 0.25, 9.8000000000000011E-12, 1.5120000000000002E-11, , , , 
DataValue, 9, 0.25, 1.0020000000000001E-11, 1.7450000000000002E-11, , , , 
DataValue, 9.11, 0.25, 1.0440000000000002E-11, 1.832E-11, , , , 
DataValue, 9.22, 0.25, 9.98E-12, 1.644E-11, , , , 
DataValue, 9.33, 0.25, 1.099E-11, 1.497E-11, , , , 
DataValue, 9.44, 0.25, 9.7900000000000009E-12, 1.622E-11, , , , 
DataValue, 9.55, 0.25, 1.1150000000000002E-11, 1.7340000000000002E-11, , , , 
DataValue, 9.66, 0.25, 1.1420000000000001E-11, 1.6160000000000002E-11, , , , 
DataValue, 9.77, 0.25, 1.1820000000000001E-11, 1.5360000000000002E-11, , , , 
DataValue, 9.88, 0.25, 1.1230000000000001E-11, 1.548E-11, , , , 
DataValue, 9.99, 0.25, 1.3040000000000001E-11, 1.681E-11, , , , 
DataValue, 10.1, 0.25, 1.26E-11, 1.5690000000000003E-11, , , , 
DataValue, 10.21, 0.25, 1.3080000000000002E-11, 1.52E-11, , , , 
DataValue, 10.32, 0.25, 1.331E-11, 1.5380000000000003E-11, , , , 
DataValue, 10.43, 0.25, 1.4260000000000001E-11, 1.624E-11, , , , 
DataValue, 10.540000000000001, 0.25, 1.402E-11, 1.5960000000000002E-11, , , , 
DataValue, 10.65, 0.25, 1.4720000000000002E-11, 1.4500000000000002E-11, , , , 
DataValue, 10.76, 0.25, 1.5050000000000002E-11, 1.4300000000000002E-11, , , , 
DataValue, 10.870000000000001, 0.25, 1.571E-11, 1.6740000000000002E-11, , , , 
DataValue, 10.98, 0.25, 1.651E-11, 1.6050000000000002E-11, , , , 
DataValue, 11.09, 0.25, 1.628E-11, 1.343E-11, , , , 
DataValue, 11.200000000000001, 0.25, 1.7050000000000002E-11, 1.371E-11, , , , 
DataValue, 11.31, 0.25, 1.712E-11, 1.635E-11, , , , 
DataValue, 11.42, 0.25, 1.7910000000000003E-11, 1.593E-11, , , , 
DataValue, 11.53, 0.25, 1.894E-11, 1.3190000000000002E-11, , , , 
DataValue, 11.64, 0.25, 1.905E-11, 1.3E-11, , , , 
DataValue, 11.75, 0.25, 1.9490000000000002E-11, 1.5180000000000003E-11, , , , 
DataValue, 11.86, 0.25, 2.0000000000000002E-11, 1.551E-11, , , , 
DataValue, 11.97, 0.25, 2.1020000000000002E-11, 1.4260000000000001E-11, , , , 
DataValue, 12.08, 0.25, 2.149E-11, 1.2680000000000002E-11, , , , 
DataValue, 12.19, 0.25, 2.1730000000000002E-11, 1.4310000000000002E-11, , , , 
DataValue, 12.3, 0.25, 2.3230000000000003E-11, 1.4480000000000001E-11, , , , 
DataValue, 12.41, 0.25, 2.349E-11, 1.3090000000000002E-11, , , , 
DataValue, 12.52, 0.25, 2.376E-11, 1.1640000000000001E-11, , , , 
DataValue, 12.63, 0.25, 2.407E-11, 1.362E-11, , , , 
DataValue, 12.74, 0.25, 2.562E-11, 1.3880000000000001E-11, , , , 
DataValue, 12.85, 0.25, 2.5650000000000003E-11, 1.2880000000000002E-11, , , , 
DataValue, 12.96, 0.25, 2.629E-11, 1.1E-11, , , , 
DataValue, 13.07, 0.25, 2.684E-11, 1.3260000000000001E-11, , , , 
DataValue, 13.18, 0.25, 2.866E-11, 1.3650000000000001E-11, , , , 
DataValue, 13.290000000000001, 0.25, 2.8850000000000002E-11, 1.188E-11, , , , 
DataValue, 13.4, 0.25, 2.958E-11, 1.0130000000000002E-11, , , , 
DataValue, 13.51, 0.25, 3.029E-11, 1.2030000000000001E-11, , , , 
DataValue, 13.620000000000001, 0.25, 3.131E-11, 1.2450000000000001E-11, , , , 
DataValue, 13.73, 0.25, 3.3380000000000005E-11, 1.118E-11, , , , 
DataValue, 13.84, 0.25, 3.3230000000000004E-11, 9.84E-12, , , , 
DataValue, 13.950000000000001, 0.25, 3.361E-11, 1.1730000000000001E-11, , , , 
DataValue, 14.06, 0.25, 3.551E-11, 1.2070000000000002E-11, , , , 
DataValue, 14.17, 0.25, 3.587E-11, 1.055E-11, , , , 
DataValue, 14.280000000000001, 0.25, 3.6430000000000004E-11, 8.680000000000001E-12, , , , 
DataValue, 14.39, 0.25, 3.6830000000000004E-11, 1.0210000000000001E-11, , , , 
DataValue, 14.5, 0.25, 3.846E-11, 1.117E-11, , , , 
DataValue, 14.61, 0.25, 3.925E-11, 9.87E-12, , , , 
DataValue, 14.72, 0.25, 3.9790000000000006E-11, 8.6700000000000008E-12, , , , 
DataValue, 14.83, 0.25, 4.05E-11, 9.45E-12, , , , 
DataValue, 14.94, 0.25, 4.116E-11, 9.34E-12, , , , 
DataValue, 15.05, 0.25, 4.2150000000000004E-11, 9.0800000000000009E-12, , , , 
DataValue, 15.16, 0.25, 4.3210000000000005E-11, 7.55E-12, , , , 
DataValue, 15.27, 0.25, 4.4200000000000006E-11, 8.21E-12, , , , 
DataValue, 15.38, 0.25, 4.545E-11, 8.61E-12, , , , 
DataValue, 15.49, 0.25, 4.6260000000000004E-11, 7.1900000000000007E-12, , , , 
DataValue, 15.6, 0.25, 4.6750000000000007E-11, 6.3700000000000005E-12, , , , 
DataValue, 15.71, 0.25, 4.712E-11, 7.45E-12, , , , 
DataValue, 15.82, 0.25, 4.924E-11, 7.8800000000000012E-12, , , , 
DataValue, 15.93, 0.25, 4.9500000000000004E-11, 6.2800000000000007E-12, , , , 
DataValue, 16.04, 0.25, 5.1290000000000005E-11, 6.0800000000000008E-12, , , , 
DataValue, 16.15, 0.25, 5.1590000000000006E-11, 6.4400000000000008E-12, , , , 
DataValue, 16.26, 0.25, 5.237E-11, 6.6400000000000008E-12, , , , 
DataValue, 16.37, 0.25, 5.31E-11, 5.6800000000000008E-12, , , , 
DataValue, 16.48, 0.25, 5.4930000000000004E-11, 5.0500000000000005E-12, , , , 
DataValue, 16.59, 0.25, 5.5520000000000006E-11, 5.1600000000000006E-12, , , , 
DataValue, 16.7, 0.25, 5.6530000000000004E-11, 6.3200000000000005E-12, , , , 
DataValue, 16.81, 0.25, 5.6730000000000007E-11, 5.34E-12, , , , 
DataValue, 16.92, 0.25, 5.87E-11, 2E-12, , , , 
DataValue, 17.03, 0.25, 5.904000000000001E-11, 4.6400000000000004E-12, , , , 
DataValue, 17.14, 0.25, 6.11E-11, 4.4900000000000005E-12, , , , 
DataValue, 17.25, 0.25, 6.0840000000000007E-11, 3.8800000000000004E-12, , , , 
DataValue, 17.36, 0.25, 6.264E-11, 2.36E-12, , , , 
DataValue, 17.47, 0.25, 6.292E-11, 3.4900000000000003E-12, , , , 
DataValue, 17.580000000000002, 0.25, 6.524E-11, 4.2000000000000007E-12, , , , 
DataValue, 17.69, 0.25, 6.57E-11, 2.9E-12, , , , 
DataValue, 17.8, 0.25, 6.6680000000000009E-11, 1.31E-12, , , , 
DataValue, 17.91, 0.25, 6.6730000000000012E-11, 2.7800000000000003E-12, , , , 
DataValue, 18.02, 0.25, 6.905000000000001E-11, 3.63E-12, , , , 
DataValue, 18.13, 0.25, 6.997E-11, 1.31E-12, , , , 
DataValue, 18.240000000000002, 0.25, 7.0840000000000011E-11, -1.6000000000000003E-13, , , , 
DataValue, 18.35, 0.25, 7.171E-11, 2.1700000000000002E-12, , , , 
DataValue, 18.46, 0.25, 7.3100000000000011E-11, 2.31E-12, , , , 
DataValue, 18.57, 0.25, 7.392E-11, 5.3000000000000006E-13, , , , 
DataValue, 18.68, 0.25, 7.496E-11, -1.8100000000000002E-12, , , , 
DataValue, 18.79, 0.25, 7.613E-11, 9.000000000000001E-13, , , , 
DataValue, 18.900000000000002, 0.25, 7.664E-11, 1.2500000000000001E-12, , , , 
DataValue, 19.01, 0.25, 7.758E-11, -2.6E-13, , , , 
DataValue, 19.12, 0.25, 7.9010000000000007E-11, -2.42E-12, , , , 
DataValue, 19.23, 0.25, 7.979E-11, -5.7E-13, , , , 
DataValue, 19.34, 0.25, 8.155E-11, 4.0000000000000006E-14, , , , 
DataValue, 19.45, 0.25, 8.2530000000000011E-11, -2.1700000000000002E-12, , , , 
DataValue, 19.56, 0.25, 8.393E-11, -2.3500000000000003E-12, , , , 
DataValue, 19.67, 0.25, 8.3770000000000012E-11, -1.9400000000000002E-12, , , , 
DataValue, 19.78, 0.25, 8.5260000000000011E-11, -5.7E-13, , , , 
DataValue, 19.89, 0.25, 8.631000000000001E-11, -1.79E-12, , , , 
DataValue, 20, 0.25, 8.787E-11, -3.5700000000000003E-12, , , , 
DataValue, 20, 0.25, 8.7490000000000013E-11, -2.0200000000000003E-12, , , , 
DataValue, 19.89, 0.25, 8.384E-11, -1.9400000000000002E-12, , , , 
DataValue, 19.78, 0.25, 7.9560000000000008E-11, -2.24E-12, , , , 
