
SetupTitle, ID-VG Postbreak
PrimitiveTest, I/V Sweep
TestParameter, Context.MainFrame, B1500A
TestParameter, Channel.UnitType, SMU, SMU
TestParameter, Channel.Unit, SMU1:MP, SMU2:MP
TestParameter, Channel.IName, I1, I2
TestParameter, Channel.VName, V1, V2
TestParameter, Channel.Mode, V, V
TestParameter, Channel.Func, VAR1, CONST
TestParameter, Channel.Index, 
TestParameter, Channel.Time, 
TestParameter, Measurement.Port.Unit, SMU1:MP, SMU2:MP
TestParameter, Measurement.Port.SeriesResistor, NONE, NONE
TestParameter, Measurement.Port.Filter, ON, ON
TestParameter, Measurement.Port.OutputVoltageComparison, 0, 0
TestParameter, Measurement.Primary.Locus, Double
TestParameter, Measurement.Primary.Scale, LINEAR
TestParameter, Measurement.Primary.Start, -2
TestParameter, Measurement.Primary.Stop, 20
TestParameter, Measurement.Primary.Step, 0.11
TestParameter, Measurement.Primary.Compliance, 0.1
TestParameter, Measurement.Primary.PowerCompliance, 0
TestParameter, Measurement.Aborting.Condition, CONTINUE AT ANY
TestParameter, Measurement.PostOutput.Value, START
TestParameter, Measurement.PostOutput.Retention, OFF
TestParameter, Measurement.Bias.Source, -2, 0.25
TestParameter, Measurement.Bias.Compliance, 0.1, 0.1
TestParameter, Measurement.Monitor.Unit, SMU1:MP, SMU2:MP
TestParameter, Measurement.Monitor.Adc, HR ADC, HR ADC
TestParameter, Measurement.Monitor.Measurement, Compliance Side, Compliance Side
TestParameter, Measurement.Monitor.RangingMode, LIMITED, LIMITED
TestParameter, Measurement.Monitor.RangeBoundary, 1nA, 1nA
TestParameter, Measurement.Monitor.RangeRating, BY FULL RANGE, BY FULL RANGE
TestParameter, Measurement.Monitor.RangeRatingCoeff, 50, 50
TestParameter, Measurement.Timing.Hold, 0
TestParameter, Measurement.Timing.Delay, 0
TestParameter, Measurement.Adc.HighSpeed.Mode, AUTO
TestParameter, Measurement.Adc.HighSpeed.Coeff, 1
TestParameter, Measurement.Adc.HighResolution.AutoZero, OFF
TestParameter, Measurement.Adc.HighResolution.Mode, AUTO
TestParameter, Measurement.Adc.HighResolution.Coeff, 6
TestParameter, Measurement.WaitTime.Source.Coeff, 1
TestParameter, Measurement.WaitTime.Source.Offset, 0
TestParameter, Measurement.WaitTime.Monitor.Coeff, 1
TestParameter, Measurement.WaitTime.Monitor.Offset, 0
TestParameter, Output.Graph.Enabled, true
TestParameter, Output.Graph.AutoScaling, false
TestParameter, Output.Graph.XAxis.Data, V1
TestParameter, Output.Graph.XAxis.Scale, Linear
TestParameter, Output.Graph.XAxis.Left, -2
TestParameter, Output.Graph.XAxis.Right, 6
TestParameter, Output.Graph.XAxis.RunTimeAutoScale, true
TestParameter, Output.Graph.YAxis.Data, I2
TestParameter, Output.Graph.YAxis.Scale, Linear
TestParameter, Output.Graph.YAxis.Bottom, -0.1
TestParameter, Output.Graph.YAxis.Top, 0.1
TestParameter, Output.Graph.YAxis.Group, 
TestParameter, Output.Graph.YAxis.RunTimeAutoScale, true
TestParameter, Output.List.Data, V1, I1, V2, I2, V3, I3, V4, I4
TestParameter, AutoAnalysis.Interpolation, false
TestParameter, AutoAnalysis.Line1.Enabled, false
TestParameter, AutoAnalysis.Line1.Type, 1
TestParameter, AutoAnalysis.Line1.Fix, True
TestParameter, AutoAnalysis.Line1.YAxis, 0
TestParameter, AutoAnalysis.Line1.Point1.Type, 0
TestParameter, AutoAnalysis.Line1.Point1.XY.X, 
TestParameter, AutoAnalysis.Line1.Point1.XY.Y, 
TestParameter, AutoAnalysis.Line1.Point1.Data.Var, 
TestParameter, AutoAnalysis.Line1.Point1.Data.Condition, 
TestParameter, AutoAnalysis.Line1.Point1.Data.Start, false
TestParameter, AutoAnalysis.Line1.Point1.Data.StartVar, 
TestParameter, AutoAnalysis.Line1.Point1.Data.StartCondition, 
TestParameter, AutoAnalysis.Line1.Point2.Type, 0
TestParameter, AutoAnalysis.Line1.Point2.XY.X, 
TestParameter, AutoAnalysis.Line1.Point2.XY.Y, 
TestParameter, AutoAnalysis.Line1.Point2.Data.Var, 
TestParameter, AutoAnalysis.Line1.Point2.Data.Condition, 
TestParameter, AutoAnalysis.Line1.Point2.Data.Start, false
TestParameter, AutoAnalysis.Line1.Point2.Data.StartVar, 
TestParameter, AutoAnalysis.Line1.Point2.Data.StartCondition, 
TestParameter, AutoAnalysis.Line1.GradientExpr, 0
TestParameter, AutoAnalysis.Line2.Enabled, false
TestParameter, AutoAnalysis.Line2.Type, 1
TestParameter, AutoAnalysis.Line2.Fix, True
TestParameter, AutoAnalysis.Line2.YAxis, 0
TestParameter, AutoAnalysis.Line2.Point1.Type, 0
TestParameter, AutoAnalysis.Line2.Point1.XY.X, 
TestParameter, AutoAnalysis.Line2.Point1.XY.Y, 
TestParameter, AutoAnalysis.Line2.Point1.Data.Var, 
TestParameter, AutoAnalysis.Line2.Point1.Data.Condition, 
TestParameter, AutoAnalysis.Line2.Point1.Data.Start, false
TestParameter, AutoAnalysis.Line2.Point1.Data.StartVar, 
TestParameter, AutoAnalysis.Line2.Point1.Data.StartCondition, 
TestParameter, AutoAnalysis.Line2.Point2.Type, 0
TestParameter, AutoAnalysis.Line2.Point2.XY.X, 
TestParameter, AutoAnalysis.Line2.Point2.XY.Y, 
TestParameter, AutoAnalysis.Line2.Point2.Data.Var, 
TestParameter, AutoAnalysis.Line2.Point2.Data.Condition, 
TestParameter, AutoAnalysis.Line2.Point2.Data.Start, false
TestParameter, AutoAnalysis.Line2.Point2.Data.StartVar, 
TestParameter, AutoAnalysis.Line2.Point2.Data.StartCondition, 
TestParameter, AutoAnalysis.Line2.GradientExpr, 0
TestParameter, AutoAnalysis.Marker.Enabled, false
TestParameter, AutoAnalysis.Marker.Data.Var, 
TestParameter, AutoAnalysis.Marker.Data.Condition, 
TestParameter, AutoAnalysis.Marker.Data.Start, false
TestParameter, AutoAnalysis.Marker.Data.StartVar, 
TestParameter, AutoAnalysis.Marker.Data.StartCondition, 
MetaData, TestRecord.EntryPoint, true
MetaData, TestRecord.RecordTime, 03/10/2023 17:34:24
MetaData, TestRecord.TestTarget, 
MetaData, TestRecord.IterationIndex, 73
MetaData, TestRecord.Preservation, true
MetaData, TestRecord.Flag, 
MetaData, TestRecord.Remarks, 
MetaData, TestRecord.LinkKey, b19c9af0-bc9a-479c-9ce5-d5064cd310f6
Dimension1, 402, 402, 402, 402, 402, 402, 402, 402
Dimension2, 1, 1, 1, 1, 1, 1, 1, 1
DataName, V1, V2, I1, I2, V3, I3, V4, I4
DataValue, -2, 0.25, -4.28E-12, 2.132E-11, , , , 
DataValue, -1.8900000000000001, 0.25, -1.9200000000000003E-12, 1.8950000000000003E-11, , , , 
DataValue, -1.78, 0.25, -1.45E-12, 1.7110000000000003E-11, , , , 
DataValue, -1.67, 0.25, -7.2000000000000006E-13, 2.072E-11, , , , 
DataValue, -1.56, 0.25, -7.5E-13, 2.1000000000000002E-11, , , , 
DataValue, -1.45, 0.25, 6.0000000000000009E-14, 1.926E-11, , , , 
DataValue, -1.34, 0.25, -3.9000000000000005E-13, 1.786E-11, , , , 
DataValue, -1.23, 0.25, -7E-14, 2.0460000000000003E-11, , , , 
DataValue, -1.12, 0.25, 6.2000000000000008E-13, 2.152E-11, , , , 
DataValue, -1.01, 0.25, 5.9E-13, 1.899E-11, , , , 
DataValue, -0.9, 0.25, 3.6000000000000003E-13, 1.79E-11, , , , 
DataValue, -0.79, 0.25, 2E-13, 2.0510000000000002E-11, , , , 
DataValue, -0.68, 0.25, 1.2500000000000001E-12, 2.092E-11, , , , 
DataValue, -0.57000000000000006, 0.25, 1.7600000000000002E-12, 1.835E-11, , , , 
DataValue, -0.46, 0.25, -4.0000000000000006E-14, 1.826E-11, , , , 
DataValue, -0.35000000000000003, 0.25, 9.7000000000000011E-13, 2.078E-11, , , , 
DataValue, -0.24, 0.25, 1.4200000000000002E-12, 2.05E-11, , , , 
DataValue, -0.13, 0.25, 1.5800000000000001E-12, 1.748E-11, , , , 
DataValue, -0.02, 0.25, 9.9E-13, 1.812E-11, , , , 
DataValue, 0.09, 0.25, 1.96E-12, 2.129E-11, , , , 
DataValue, 0.2, 0.25, 1.4200000000000002E-12, 1.945E-11, , , , 
DataValue, 0.31, 0.25, 2.16E-12, 1.675E-11, , , , 
DataValue, 0.42, 0.25, 1.78E-12, 1.837E-11, , , , 
DataValue, 0.53, 0.25, 2.2500000000000003E-12, 2.136E-11, , , , 
DataValue, 0.64, 0.25, 1.3400000000000002E-12, 2.0330000000000002E-11, , , , 
DataValue, 0.75, 0.25, 2.1700000000000002E-12, 1.746E-11, , , , 
DataValue, 0.86, 0.25, 1.74E-12, 1.8090000000000002E-11, , , , 
DataValue, 0.97, 0.25, 1.9900000000000002E-12, 2.083E-11, , , , 
DataValue, 1.08, 0.25, 1.9200000000000003E-12, 2.0600000000000002E-11, , , , 
DataValue, 1.19, 0.25, 2.1000000000000003E-12, 1.803E-11, , , , 
DataValue, 1.3, 0.25, 2.42E-12, 1.7160000000000002E-11, , , , 
DataValue, 1.41, 0.25, 2.3800000000000004E-12, 2.0060000000000003E-11, , , , 
DataValue, 1.52, 0.25, 2.4000000000000003E-12, 2.047E-11, , , , 
DataValue, 1.6300000000000001, 0.25, 2.62E-12, 1.854E-11, , , , 
DataValue, 1.74, 0.25, 2.18E-12, 1.7290000000000002E-11, , , , 
DataValue, 1.85, 0.25, 1.9900000000000002E-12, 1.987E-11, , , , 
DataValue, 1.96, 0.25, 2.87E-12, 2.0890000000000002E-11, , , , 
DataValue, 2.07, 0.25, 3.1700000000000004E-12, 1.837E-11, , , , 
DataValue, 2.18, 0.25, 3.43E-12, 1.713E-11, , , , 
DataValue, 2.29, 0.25, 3.1900000000000003E-12, 1.8160000000000002E-11, , , , 
DataValue, 2.4, 0.25, 3.9300000000000004E-12, 2.0880000000000003E-11, , , , 
DataValue, 2.5100000000000002, 0.25, 2.95E-12, 1.9310000000000002E-11, , , , 
DataValue, 2.62, 0.25, 3.4700000000000004E-12, 1.6980000000000002E-11, , , , 
DataValue, 2.73, 0.25, 3.23E-12, 1.79E-11, , , , 
DataValue, 2.84, 0.25, 3.2900000000000003E-12, 2.059E-11, , , , 
DataValue, 2.95, 0.25, 3.8900000000000006E-12, 1.9150000000000003E-11, , , , 
DataValue, 3.06, 0.25, 3.4700000000000004E-12, 1.7600000000000003E-11, , , , 
DataValue, 3.17, 0.25, 3.7400000000000006E-12, 1.748E-11, , , , 
DataValue, 3.2800000000000002, 0.25, 4.2500000000000007E-12, 2.0970000000000003E-11, , , , 
DataValue, 3.39, 0.25, 4.2400000000000005E-12, 1.9000000000000002E-11, , , , 
DataValue, 3.5, 0.25, 4.89E-12, 1.7110000000000003E-11, , , , 
DataValue, 3.61, 0.25, 4.42E-12, 1.6400000000000003E-11, , , , 
DataValue, 3.72, 0.25, 5.23E-12, 1.9710000000000002E-11, , , , 
DataValue, 3.83, 0.25, 5.02E-12, 2.032E-11, , , , 
DataValue, 3.94, 0.25, 5.3600000000000006E-12, 1.8220000000000003E-11, , , , 
DataValue, 4.05, 0.25, 5.4000000000000004E-12, 1.7290000000000002E-11, , , , 
DataValue, 4.16, 0.25, 5.2500000000000004E-12, 1.854E-11, , , , 
DataValue, 4.2700000000000005, 0.25, 5.5E-12, 2.034E-11, , , , 
DataValue, 4.38, 0.25, 5.1600000000000006E-12, 1.835E-11, , , , 
DataValue, 4.49, 0.25, 6.0800000000000008E-12, 1.661E-11, , , , 
DataValue, 4.6000000000000005, 0.25, 5.48E-12, 1.835E-11, , , , 
DataValue, 4.71, 0.25, 5.69E-12, 1.983E-11, , , , 
DataValue, 4.82, 0.25, 6.61E-12, 1.774E-11, , , , 
DataValue, 4.93, 0.25, 7.0000000000000009E-12, 1.5850000000000002E-11, , , , 
DataValue, 5.04, 0.25, 6.2200000000000006E-12, 1.75E-11, , , , 
DataValue, 5.15, 0.25, 7.17E-12, 2.0260000000000003E-11, , , , 
DataValue, 5.26, 0.25, 7.33E-12, 1.8220000000000003E-11, , , , 
DataValue, 5.37, 0.25, 7.42E-12, 1.619E-11, , , , 
DataValue, 5.48, 0.25, 6.96E-12, 1.728E-11, , , , 
DataValue, 5.59, 0.25, 7.71E-12, 1.899E-11, , , , 
DataValue, 5.7, 0.25, 7.9800000000000011E-12, 1.8890000000000002E-11, , , , 
DataValue, 5.8100000000000005, 0.25, 8.06E-12, 1.6400000000000003E-11, , , , 
DataValue, 5.92, 0.25, 7.6E-12, 1.5470000000000003E-11, , , , 
DataValue, 6.03, 0.25, 7.9800000000000011E-12, 1.919E-11, , , , 
DataValue, 6.1400000000000006, 0.25, 8.2900000000000012E-12, 1.8400000000000002E-11, , , , 
DataValue, 6.25, 0.25, 9.2100000000000013E-12, 1.628E-11, , , , 
DataValue, 6.36, 0.25, 7.45E-12, 1.54E-11, , , , 
DataValue, 6.47, 0.25, 8.7000000000000013E-12, 1.888E-11, , , , 
DataValue, 6.58, 0.25, 8.9900000000000011E-12, 1.8710000000000002E-11, , , , 
DataValue, 6.69, 0.25, 9.5200000000000014E-12, 1.6580000000000002E-11, , , , 
DataValue, 6.8, 0.25, 9.35E-12, 1.52E-11, , , , 
DataValue, 6.91, 0.25, 1.017E-11, 1.826E-11, , , , 
DataValue, 7.0200000000000005, 0.25, 9.6900000000000009E-12, 1.863E-11, , , , 
DataValue, 7.13, 0.25, 1.0700000000000001E-11, 1.675E-11, , , , 
DataValue, 7.24, 0.25, 1.0600000000000001E-11, 1.5540000000000002E-11, , , , 
DataValue, 7.3500000000000005, 0.25, 1.0440000000000002E-11, 1.737E-11, , , , 
DataValue, 7.46, 0.25, 1.18E-11, 1.8470000000000002E-11, , , , 
DataValue, 7.57, 0.25, 1.2320000000000001E-11, 1.662E-11, , , , 
DataValue, 7.68, 0.25, 1.1640000000000001E-11, 1.488E-11, , , , 
DataValue, 7.79, 0.25, 1.2030000000000001E-11, 1.7890000000000002E-11, , , , 
DataValue, 7.9, 0.25, 1.3280000000000002E-11, 1.8640000000000003E-11, , , , 
DataValue, 8.01, 0.25, 1.3680000000000002E-11, 1.706E-11, , , , 
DataValue, 8.120000000000001, 0.25, 1.4470000000000001E-11, 1.4500000000000002E-11, , , , 
DataValue, 8.23, 0.25, 1.444E-11, 1.7650000000000002E-11, , , , 
DataValue, 8.34, 0.25, 1.542E-11, 1.828E-11, , , , 
DataValue, 8.45, 0.25, 1.6E-11, 1.602E-11, , , , 
DataValue, 8.56, 0.25, 1.612E-11, 1.393E-11, , , , 
DataValue, 8.67, 0.25, 1.6850000000000002E-11, 1.641E-11, , , , 
DataValue, 8.78, 0.25, 1.7780000000000002E-11, 1.71E-11, , , , 
DataValue, 8.89, 0.25, 1.832E-11, 1.55E-11, , , , 
DataValue, 9, 0.25, 1.91E-11, 1.4350000000000001E-11, , , , 
DataValue, 9.11, 0.25, 1.95E-11, 1.498E-11, , , , 
DataValue, 9.22, 0.25, 2.059E-11, 1.7290000000000002E-11, , , , 
DataValue, 9.33, 0.25, 2.1440000000000002E-11, 1.531E-11, , , , 
DataValue, 9.44, 0.25, 2.229E-11, 1.279E-11, , , , 
DataValue, 9.55, 0.25, 2.2770000000000003E-11, 1.469E-11, , , , 
DataValue, 9.66, 0.25, 2.46E-11, 1.6470000000000002E-11, , , , 
DataValue, 9.77, 0.25, 2.615E-11, 1.432E-11, , , , 
DataValue, 9.88, 0.25, 2.6370000000000002E-11, 1.25E-11, , , , 
DataValue, 9.99, 0.25, 2.7080000000000002E-11, 1.2850000000000001E-11, , , , 
DataValue, 10.1, 0.25, 2.8290000000000003E-11, 1.5690000000000003E-11, , , , 
DataValue, 10.21, 0.25, 2.98E-11, 1.3580000000000002E-11, , , , 
DataValue, 10.32, 0.25, 3.133E-11, 1.1720000000000001E-11, , , , 
DataValue, 10.43, 0.25, 3.176E-11, 1.159E-11, , , , 
DataValue, 10.540000000000001, 0.25, 3.3420000000000006E-11, 1.433E-11, , , , 
DataValue, 10.65, 0.25, 3.499E-11, 1.3350000000000001E-11, , , , 
DataValue, 10.76, 0.25, 3.671E-11, 1.0920000000000001E-11, , , , 
DataValue, 10.870000000000001, 0.25, 3.6980000000000004E-11, 1.0510000000000001E-11, , , , 
DataValue, 10.98, 0.25, 3.9530000000000005E-11, 1.3060000000000001E-11, , , , 
DataValue, 11.09, 0.25, 4.003E-11, 1.2230000000000001E-11, , , , 
DataValue, 11.200000000000001, 0.25, 4.195E-11, 8.7100000000000015E-12, , , , 
DataValue, 11.31, 0.25, 4.2950000000000004E-11, 8.780000000000001E-12, , , , 
DataValue, 11.42, 0.25, 4.632E-11, 1.198E-11, , , , 
DataValue, 11.53, 0.25, 4.738E-11, 1.0240000000000002E-11, , , , 
DataValue, 11.64, 0.25, 4.8850000000000004E-11, 7.61E-12, , , , 
DataValue, 11.75, 0.25, 5.059E-11, 8.3700000000000009E-12, , , , 
DataValue, 11.86, 0.25, 5.2960000000000004E-11, 1.098E-11, , , , 
DataValue, 11.97, 0.25, 5.4600000000000004E-11, 8.34E-12, , , , 
DataValue, 12.08, 0.25, 5.6580000000000006E-11, 6.56E-12, , , , 
DataValue, 12.19, 0.25, 5.801E-11, 6.0300000000000008E-12, , , , 
DataValue, 12.3, 0.25, 5.988E-11, 8.85E-12, , , , 
DataValue, 12.41, 0.25, 6.2740000000000008E-11, 8.4000000000000014E-12, , , , 
DataValue, 12.52, 0.25, 6.4920000000000007E-11, 5.14E-12, , , , 
DataValue, 12.63, 0.25, 6.632000000000001E-11, 4.11E-12, , , , 
DataValue, 12.74, 0.25, 6.923E-11, 7.4800000000000012E-12, , , , 
DataValue, 12.85, 0.25, 7.143E-11, 6.31E-12, , , , 
DataValue, 12.96, 0.25, 7.3160000000000009E-11, 4.07E-12, , , , 
DataValue, 13.07, 0.25, 7.4900000000000008E-11, 2.0500000000000004E-12, , , , 
DataValue, 13.18, 0.25, 7.7620000000000012E-11, 4.5900000000000004E-12, , , , 
DataValue, 13.290000000000001, 0.25, 7.9700000000000007E-11, 4.3000000000000007E-12, , , , 
DataValue, 13.4, 0.25, 8.2480000000000009E-11, 2.36E-12, , , , 
DataValue, 13.51, 0.25, 8.416000000000001E-11, 3.8000000000000005E-13, , , , 
DataValue, 13.620000000000001, 0.25, 8.6250000000000012E-11, 2.85E-12, , , , 
DataValue, 13.73, 0.25, 8.8380000000000009E-11, 3.1600000000000003E-12, , , , 
DataValue, 13.84, 0.25, 9.1850000000000011E-11, 9.8E-13, , , , 
DataValue, 13.950000000000001, 0.25, 9.3290000000000008E-11, -2.2500000000000003E-12, , , , 
DataValue, 14.06, 0.25, 9.617E-11, 6.9000000000000009E-13, , , , 
DataValue, 14.17, 0.25, 9.887E-11, 9.3E-13, , , , 
DataValue, 14.280000000000001, 0.25, 1.0171E-10, -1.2400000000000002E-12, , , , 
DataValue, 14.39, 0.25, 1.0221E-10, -3.0100000000000003E-12, , , , 
DataValue, 14.5, 0.25, 1.0535E-10, -1.2900000000000002E-12, , , , 
DataValue, 14.61, 0.25, 1.0823000000000001E-10, -1.12E-12, , , , 
DataValue, 14.72, 0.25, 1.1127000000000001E-10, -4.1000000000000007E-12, , , , 
DataValue, 14.83, 0.25, 1.1239000000000001E-10, -5.0000000000000005E-12, , , , 
DataValue, 14.94, 0.25, 1.1538E-10, -2.5300000000000003E-12, , , , 
DataValue, 15.05, 0.25, 1.1859E-10, -3.3100000000000002E-12, , , , 
DataValue, 15.16, 0.25, 1.2116E-10, -5.3500000000000004E-12, , , , 
DataValue, 15.27, 0.25, 1.2222000000000002E-10, -7.2300000000000005E-12, , , , 
DataValue, 15.38, 0.25, 1.2615E-10, -4.93E-12, , , , 
DataValue, 15.49, 0.25, 1.2844E-10, -5.2200000000000008E-12, , , , 
DataValue, 15.6, 0.25, 1.315E-10, -7.51E-12, , , , 
DataValue, 15.71, 0.25, 1.3342000000000002E-10, -1.0220000000000001E-11, , , , 
DataValue, 15.82, 0.25, 1.3594E-10, -7.72E-12, , , , 
DataValue, 15.93, 0.25, 1.3888000000000002E-10, -7.83E-12, , , , 
DataValue, 16.04, 0.25, 1.4084E-10, -9.98E-12, , , , 
DataValue, 16.15, 0.25, 1.4399E-10, -1.2360000000000002E-11, , , , 
DataValue, 16.26, 0.25, 1.4645000000000002E-10, -1.036E-11, , , , 
DataValue, 16.37, 0.25, 1.4892000000000001E-10, -9.6100000000000013E-12, , , , 
DataValue, 16.48, 0.25, 1.5213000000000002E-10, -1.2270000000000002E-11, , , , 
DataValue, 16.59, 0.25, 1.5431E-10, -1.4310000000000002E-11, , , , 
DataValue, 16.7, 0.25, 1.5677000000000002E-10, -1.2460000000000001E-11, , , , 
DataValue, 16.81, 0.25, 1.5960000000000002E-10, -1.157E-11, , , , 
DataValue, 16.92, 0.25, 1.6323000000000001E-10, -1.4650000000000002E-11, , , , 
DataValue, 17.03, 0.25, 1.6491E-10, -1.6960000000000002E-11, , , , 
DataValue, 17.14, 0.25, 1.6728000000000002E-10, -1.458E-11, , , , 
DataValue, 17.25, 0.25, 1.6988E-10, -1.444E-11, , , , 
DataValue, 17.36, 0.25, 1.7427E-10, -1.759E-11, , , , 
DataValue, 17.47, 0.25, 1.7616000000000002E-10, -1.883E-11, , , , 
DataValue, 17.580000000000002, 0.25, 1.7854E-10, -1.613E-11, , , , 
DataValue, 17.69, 0.25, 1.8124E-10, -1.6800000000000003E-11, , , , 
DataValue, 17.8, 0.25, 1.8433000000000002E-10, -1.899E-11, , , , 
DataValue, 17.91, 0.25, 1.8563E-10, -2.1700000000000003E-11, , , , 
DataValue, 18.02, 0.25, 1.8929000000000003E-10, -1.9440000000000003E-11, , , , 
DataValue, 18.13, 0.25, 1.9236000000000002E-10, -1.8800000000000002E-11, , , , 
DataValue, 18.240000000000002, 0.25, 1.9501E-10, -2.1570000000000003E-11, , , , 
DataValue, 18.35, 0.25, 1.979E-10, -2.316E-11, , , , 
DataValue, 18.46, 0.25, 2.0061000000000002E-10, -2.1620000000000002E-11, , , , 
DataValue, 18.57, 0.25, 2.0404000000000003E-10, -2.0910000000000002E-11, , , , 
DataValue, 18.68, 0.25, 2.0671000000000003E-10, -2.396E-11, , , , 
DataValue, 18.79, 0.25, 2.0862000000000003E-10, -2.706E-11, , , , 
DataValue, 18.900000000000002, 0.25, 2.1191000000000002E-10, -2.3680000000000002E-11, , , , 
DataValue, 19.01, 0.25, 2.1488E-10, -2.3230000000000003E-11, , , , 
DataValue, 19.12, 0.25, 2.1782000000000003E-10, -2.602E-11, , , , 
DataValue, 19.23, 0.25, 2.2025000000000002E-10, -2.925E-11, , , , 
DataValue, 19.34, 0.25, 2.231E-10, -2.62E-11, , , , 
DataValue, 19.45, 0.25, 2.2664E-10, -2.613E-11, , , , 
DataValue, 19.56, 0.25, 2.2927000000000003E-10, -2.8290000000000003E-11, , , , 
DataValue, 19.67, 0.25, 2.3230000000000002E-10, -3.11E-11, , , , 
DataValue, 19.78, 0.25, 2.3521E-10, -2.9220000000000004E-11, , , , 
DataValue, 19.89, 0.25, 2.3806E-10, -2.8730000000000004E-11, , , , 
DataValue, 20, 0.25, 2.4137E-10, -3.139E-11, , , , 
DataValue, 20, 0.25, 2.3913000000000003E-10, -3.018E-11, , , , 
DataValue, 19.89, 0.25, 2.3016E-10, -2.6470000000000003E-11, , , , 
DataValue, 19.78, 0.25, 2.2063000000000002E-10, -2.7490000000000003E-11, , , , 
