
SetupTitle, R-V
ApplicationTest, R-V, Public
TestParameter, Name, Port1, Port2, V1Start, V1Stop, V1Step, V2, I1Limit, IntegTime, HoldTime, DelayTime, Port1MinRng
TestParameter, Value, SMU1:MP	MPSMU, SMU2:MP	MPSMU, 0, 1, 0.05, 0, 0.01, MEDIUM, 0, 0, 1nA
DutParameter, Name, L, W, Temp
DutParameter, Value, 1E-05, 1E-06, 25
MetaData, TestRecord.EntryPoint, true
MetaData, TestRecord.RecordTime, 03/04/2023 18:22:22
MetaData, TestRecord.TestTarget, 
MetaData, TestRecord.IterationIndex, 219
MetaData, TestRecord.Preservation, true
MetaData, TestRecord.Flag, 
MetaData, TestRecord.Remarks, 
MetaData, TestRecord.LinkKey, 86888d15-fc3e-4e52-ae66-84913426b8e9
Dimension1, 21, 21, 21, 21
Dimension2, 1, 1, 1, 1
DataName, V1, I1, R, Rsheet
DataValue, 0, -6.9000000000000009E-14, -0, -0
DataValue, 0.05, 5.5200000000000007E-13, 90579710144.927536, 9057971014.4927521
DataValue, 0.1, 5.89E-13, 169779286926.9949, 16977928692.699488
DataValue, 0.15, 7.9300000000000005E-13, 189155107187.89404, 18915510718.789402
DataValue, 0.2, 1.0040000000000002E-12, 199203187250.996, 19920318725.099598
DataValue, 0.25, 1.1060000000000001E-12, 226039783001.80829, 22603978300.180824
DataValue, 0.3, 1.172E-12, 255972696245.73377, 25597269624.573376
DataValue, 0.35000000000000003, 1.31E-12, 267175572519.08398, 26717557251.908394
DataValue, 0.4, 1.333E-12, 300075018754.68866, 30007501875.468864
DataValue, 0.45, 1.4470000000000002E-12, 310988251554.94122, 31098825155.494122
DataValue, 0.5, 1.6430000000000002E-12, 304321363359.70782, 30432136335.970779
DataValue, 0.55, 1.7690000000000002E-12, 310910118711.13623, 31091011871.113621
DataValue, 0.6, 1.842E-12, 325732899022.80127, 32573289902.280125
DataValue, 0.65, 1.79E-12, 363128491620.11176, 36312849162.011169
DataValue, 0.70000000000000007, 1.954E-12, 358239508700.10242, 35823950870.010239
DataValue, 0.75, 2.009E-12, 373320059731.20953, 37332005973.120949
DataValue, 0.8, 2.2030000000000002E-12, 363141171130.27686, 36314117113.027687
DataValue, 0.85000000000000009, 2.2540000000000003E-12, 377107364685.00446, 37710736468.500443
DataValue, 0.9, 2.439E-12, 369003690036.90039, 36900369003.690041
DataValue, 0.95000000000000007, 2.537E-12, 374458021284.98224, 37445802128.498215
DataValue, 1, 2.4620000000000002E-12, 406173842404.54913, 40617384240.45491
SetupTitle, R-V
PrimitiveTest, I/V Sweep
TestParameter, Context.MainFrame, B1500A
TestParameter, Channel.UnitType, SMU, SMU
TestParameter, Channel.Unit, Port1, Port2
TestParameter, Channel.IName, I1, I2
TestParameter, Channel.VName, V1, V2
TestParameter, Channel.Mode, V, V
TestParameter, Channel.Func, VAR1, CONST
TestParameter, Channel.Index, 
TestParameter, Channel.Time, 
TestParameter, Measurement.Port.Unit, Port1, Port2
TestParameter, Measurement.Port.SeriesResistor, NONE, NONE
TestParameter, Measurement.Port.Filter, OFF, OFF
TestParameter, Measurement.Port.OutputVoltageComparison, 0, 0
TestParameter, Measurement.Primary.Locus, Single
TestParameter, Measurement.Primary.Scale, LINEAR
TestParameter, Measurement.Primary.Start, V1Start
TestParameter, Measurement.Primary.Stop, V1Stop
TestParameter, Measurement.Primary.Step, V1Step
TestParameter, Measurement.Primary.Compliance, I1Limit
TestParameter, Measurement.Primary.PowerCompliance, 0
TestParameter, Measurement.Aborting.Condition, CONTINUE AT ANY
TestParameter, Measurement.PostOutput.Value, START
TestParameter, Measurement.PostOutput.Retention, OFF
TestParameter, Measurement.Bias.Source, 0, V2
TestParameter, Measurement.Bias.Compliance, 0.01, I1Limit
TestParameter, Measurement.Monitor.Unit, SMU:=Port1, SMU:=Port2
TestParameter, Measurement.Monitor.Adc, HR ADC, HR ADC
TestParameter, Measurement.Monitor.Measurement, Compliance Side, Compliance Side
TestParameter, Measurement.Monitor.RangingMode, LIMITED, LIMITED
TestParameter, Measurement.Monitor.RangeBoundary, Port1MinRng, 1nA
TestParameter, Measurement.Monitor.RangeRating, BY FULL RANGE, BY FULL RANGE
TestParameter, Measurement.Monitor.RangeRatingCoeff, 50, 50
TestParameter, Measurement.Timing.Hold, HoldTime
TestParameter, Measurement.Timing.Delay, DelayTime
TestParameter, Measurement.Adc.HighSpeed.Mode, AUTO
TestParameter, Measurement.Adc.HighSpeed.Coeff, 1
TestParameter, Measurement.Adc.HighResolution.AutoZero, ON
TestParameter, Measurement.Adc.HighResolution.Mode, IntegMode
TestParameter, Measurement.Adc.HighResolution.Coeff, AdcFactor
TestParameter, Measurement.WaitTime.Source.Coeff, 1
TestParameter, Measurement.WaitTime.Source.Offset, 0
TestParameter, Measurement.WaitTime.Monitor.Coeff, 1
TestParameter, Measurement.WaitTime.Monitor.Offset, 0
TestParameter, Function.User.Name, R, Rsheet
TestParameter, Function.User.Unit, ohm, ohm/sheet
TestParameter, Function.User.Definition, V1/I1, R*W/L
TestParameter, Output.Graph.Enabled, true
TestParameter, Output.Graph.AutoScaling, false
TestParameter, Output.Graph.XAxis.Data, V1
TestParameter, Output.Graph.XAxis.Scale, Linear
TestParameter, Output.Graph.XAxis.Left, V1Start
TestParameter, Output.Graph.XAxis.Right, V1Stop
TestParameter, Output.Graph.XAxis.RunTimeAutoScale, false
TestParameter, Output.Graph.YAxis.Data, R, I1
TestParameter, Output.Graph.YAxis.Scale, Linear, Linear
TestParameter, Output.Graph.YAxis.Bottom, 0, 0
TestParameter, Output.Graph.YAxis.Top, V1Stop/I1Limit, I1Limit
TestParameter, Output.Graph.YAxis.Group, , 
TestParameter, Output.Graph.YAxis.RunTimeAutoScale, false, false
TestParameter, Output.List.Data, V1, I1, R, Rsheet
TestParameter, AutoAnalysis.Interpolation, false
TestParameter, AutoAnalysis.Line1.Enabled, false
TestParameter, AutoAnalysis.Line1.Type, 1
TestParameter, AutoAnalysis.Line1.Fix, False
TestParameter, AutoAnalysis.Line1.YAxis, 0
TestParameter, AutoAnalysis.Line1.Point1.Type, 0
TestParameter, AutoAnalysis.Line1.Point1.XY.X, 
TestParameter, AutoAnalysis.Line1.Point1.XY.Y, 
TestParameter, AutoAnalysis.Line1.Point1.Data.Var, 
TestParameter, AutoAnalysis.Line1.Point1.Data.Condition, 
TestParameter, AutoAnalysis.Line1.Point1.Data.Start, false
TestParameter, AutoAnalysis.Line1.Point1.Data.StartVar, 
TestParameter, AutoAnalysis.Line1.Point1.Data.StartCondition, 
TestParameter, AutoAnalysis.Line1.Point2.Type, 0
TestParameter, AutoAnalysis.Line1.Point2.XY.X, 
TestParameter, AutoAnalysis.Line1.Point2.XY.Y, 
TestParameter, AutoAnalysis.Line1.Point2.Data.Var, 
TestParameter, AutoAnalysis.Line1.Point2.Data.Condition, 
TestParameter, AutoAnalysis.Line1.Point2.Data.Start, false
TestParameter, AutoAnalysis.Line1.Point2.Data.StartVar, 
TestParameter, AutoAnalysis.Line1.Point2.Data.StartCondition, 
TestParameter, AutoAnalysis.Line1.GradientExpr, 0
TestParameter, AutoAnalysis.Line2.Enabled, false
TestParameter, AutoAnalysis.Line2.Type, 1
TestParameter, AutoAnalysis.Line2.Fix, False
TestParameter, AutoAnalysis.Line2.YAxis, 0
TestParameter, AutoAnalysis.Line2.Point1.Type, 0
TestParameter, AutoAnalysis.Line2.Point1.XY.X, 
TestParameter, AutoAnalysis.Line2.Point1.XY.Y, 
TestParameter, AutoAnalysis.Line2.Point1.Data.Var, 
TestParameter, AutoAnalysis.Line2.Point1.Data.Condition, 
TestParameter, AutoAnalysis.Line2.Point1.Data.Start, false
TestParameter, AutoAnalysis.Line2.Point1.Data.StartVar, 
TestParameter, AutoAnalysis.Line2.Point1.Data.StartCondition, 
TestParameter, AutoAnalysis.Line2.Point2.Type, 0
TestParameter, AutoAnalysis.Line2.Point2.XY.X, 
TestParameter, AutoAnalysis.Line2.Point2.XY.Y, 
TestParameter, AutoAnalysis.Line2.Point2.Data.Var, 
TestParameter, AutoAnalysis.Line2.Point2.Data.Condition, 
TestParameter, AutoAnalysis.Line2.Point2.Data.Start, false
TestParameter, AutoAnalysis.Line2.Point2.Data.StartVar, 
TestParameter, AutoAnalysis.Line2.Point2.Data.StartCondition, 
TestParameter, AutoAnalysis.Line2.GradientExpr, 0
TestParameter, AutoAnalysis.Marker.Enabled, false
TestParameter, AutoAnalysis.Marker.Data.Var, 
TestParameter, AutoAnalysis.Marker.Data.Condition, 
TestParameter, AutoAnalysis.Marker.Data.Start, false
TestParameter, AutoAnalysis.Marker.Data.StartVar, 
TestParameter, AutoAnalysis.Marker.Data.StartCondition, 
MetaData, TestRecord.EntryPoint, false
MetaData, TestRecord.RecordTime, 03/04/2023 18:22:22
MetaData, TestRecord.TestTarget, 
MetaData, TestRecord.IterationIndex, 219
MetaData, TestRecord.Preservation, true
MetaData, TestRecord.Flag, 
MetaData, TestRecord.Remarks, 
MetaData, TestRecord.LinkKey, 86888d15-fc3e-4e52-ae66-84913426b8e9
Dimension1, 21, 21, 21, 21
Dimension2, 1, 1, 1, 1
DataName, V1, I1, R, Rsheet
DataValue, 0, -6.9000000000000009E-14, -0, -0
DataValue, 0.05, 5.5200000000000007E-13, 90579710144.927536, 9057971014.4927521
DataValue, 0.1, 5.89E-13, 169779286926.9949, 16977928692.699488
DataValue, 0.15, 7.9300000000000005E-13, 189155107187.89404, 18915510718.789402
DataValue, 0.2, 1.0040000000000002E-12, 199203187250.996, 19920318725.099598
DataValue, 0.25, 1.1060000000000001E-12, 226039783001.80829, 22603978300.180824
DataValue, 0.3, 1.172E-12, 255972696245.73377, 25597269624.573376
DataValue, 0.35000000000000003, 1.31E-12, 267175572519.08398, 26717557251.908394
DataValue, 0.4, 1.333E-12, 300075018754.68866, 30007501875.468864
DataValue, 0.45, 1.4470000000000002E-12, 310988251554.94122, 31098825155.494122
DataValue, 0.5, 1.6430000000000002E-12, 304321363359.70782, 30432136335.970779
DataValue, 0.55, 1.7690000000000002E-12, 310910118711.13623, 31091011871.113621
DataValue, 0.6, 1.842E-12, 325732899022.80127, 32573289902.280125
DataValue, 0.65, 1.79E-12, 363128491620.11176, 36312849162.011169
DataValue, 0.70000000000000007, 1.954E-12, 358239508700.10242, 35823950870.010239
DataValue, 0.75, 2.009E-12, 373320059731.20953, 37332005973.120949
DataValue, 0.8, 2.2030000000000002E-12, 363141171130.27686, 36314117113.027687
DataValue, 0.85000000000000009, 2.2540000000000003E-12, 377107364685.00446, 37710736468.500443
DataValue, 0.9, 2.439E-12, 369003690036.90039, 36900369003.690041
DataValue, 0.95000000000000007, 2.537E-12, 374458021284.98224, 37445802128.498215
DataValue, 1, 2.4620000000000002E-12, 406173842404.54913, 40617384240.45491