
SetupTitle, R-V
ApplicationTest, R-V, Public
TestParameter, Name, Port1, Port2, V1Start, V1Stop, V1Step, V2, I1Limit, IntegTime, HoldTime, DelayTime, Port1MinRng
TestParameter, Value, SMU1:MP	MPSMU, SMU2:MP	MPSMU, 0, 1, 0.05, 0, 0.01, MEDIUM, 0, 0, 1nA
DutParameter, Name, L, W, Temp
DutParameter, Value, 1E-05, 1E-06, 25
MetaData, TestRecord.EntryPoint, true
MetaData, TestRecord.RecordTime, 03/04/2023 18:22:47
MetaData, TestRecord.TestTarget, 
MetaData, TestRecord.IterationIndex, 220
MetaData, TestRecord.Preservation, true
MetaData, TestRecord.Flag, 
MetaData, TestRecord.Remarks, 
MetaData, TestRecord.LinkKey, 99d8a2fe-6dcf-4cc9-a671-bedfdcc1630b
Dimension1, 21, 21, 21, 21
Dimension2, 1, 1, 1, 1
DataName, V1, I1, R, Rsheet
DataValue, 0, -1.4E-14, -0, -0
DataValue, 0.05, 4.5100000000000005E-13, 110864745011.08647, 11086474501.108645
DataValue, 0.1, 6.31E-13, 158478605388.27258, 15847860538.827257
DataValue, 0.15, 9.88E-13, 151821862348.17813, 15182186234.81781
DataValue, 0.2, 1.0290000000000002E-12, 194363459669.58209, 19436345966.958206
DataValue, 0.25, 1.268E-12, 197160883280.75708, 19716088328.075703
DataValue, 0.3, 1.366E-12, 219619326500.73206, 21961932650.073204
DataValue, 0.35000000000000003, 1.4090000000000002E-12, 248403122782.11496, 24840312278.211494
DataValue, 0.4, 1.577E-12, 253646163601.77554, 25364616360.177551
DataValue, 0.45, 1.7080000000000002E-12, 263466042154.56671, 26346604215.456665
DataValue, 0.5, 1.6910000000000002E-12, 295683027794.20459, 29568302779.420456
DataValue, 0.55, 1.809E-12, 304035378662.24432, 30403537866.224426
DataValue, 0.6, 2E-12, 300000000000, 29999999999.999996
DataValue, 0.65, 2.1490000000000002E-12, 302466263378.31549, 30246626337.831547
DataValue, 0.70000000000000007, 2.256E-12, 310283687943.26245, 31028368794.326244
DataValue, 0.75, 2.3710000000000003E-12, 316322226908.47742, 31632222690.84774
DataValue, 0.8, 2.478E-12, 322841000807.10248, 32284100080.710247
DataValue, 0.85000000000000009, 2.452E-12, 346655791190.86462, 34665579119.086464
DataValue, 0.9, 2.6390000000000004E-12, 341038272072.75482, 34103827207.275478
DataValue, 0.95000000000000007, 2.669E-12, 355938553765.45526, 35593855376.545525
DataValue, 1, 2.8340000000000002E-12, 352858151023.28864, 35285815102.328857
SetupTitle, R-V
PrimitiveTest, I/V Sweep
TestParameter, Context.MainFrame, B1500A
TestParameter, Channel.UnitType, SMU, SMU
TestParameter, Channel.Unit, Port1, Port2
TestParameter, Channel.IName, I1, I2
TestParameter, Channel.VName, V1, V2
TestParameter, Channel.Mode, V, V
TestParameter, Channel.Func, VAR1, CONST
TestParameter, Channel.Index, 
TestParameter, Channel.Time, 
TestParameter, Measurement.Port.Unit, Port1, Port2
TestParameter, Measurement.Port.SeriesResistor, NONE, NONE
TestParameter, Measurement.Port.Filter, OFF, OFF
TestParameter, Measurement.Port.OutputVoltageComparison, 0, 0
TestParameter, Measurement.Primary.Locus, Single
TestParameter, Measurement.Primary.Scale, LINEAR
TestParameter, Measurement.Primary.Start, V1Start
TestParameter, Measurement.Primary.Stop, V1Stop
TestParameter, Measurement.Primary.Step, V1Step
TestParameter, Measurement.Primary.Compliance, I1Limit
TestParameter, Measurement.Primary.PowerCompliance, 0
TestParameter, Measurement.Aborting.Condition, CONTINUE AT ANY
TestParameter, Measurement.PostOutput.Value, START
TestParameter, Measurement.PostOutput.Retention, OFF
TestParameter, Measurement.Bias.Source, 0, V2
TestParameter, Measurement.Bias.Compliance, 0.01, I1Limit
TestParameter, Measurement.Monitor.Unit, SMU:=Port1, SMU:=Port2
TestParameter, Measurement.Monitor.Adc, HR ADC, HR ADC
TestParameter, Measurement.Monitor.Measurement, Compliance Side, Compliance Side
TestParameter, Measurement.Monitor.RangingMode, LIMITED, LIMITED
TestParameter, Measurement.Monitor.RangeBoundary, Port1MinRng, 1nA
TestParameter, Measurement.Monitor.RangeRating, BY FULL RANGE, BY FULL RANGE
TestParameter, Measurement.Monitor.RangeRatingCoeff, 50, 50
TestParameter, Measurement.Timing.Hold, HoldTime
TestParameter, Measurement.Timing.Delay, DelayTime
TestParameter, Measurement.Adc.HighSpeed.Mode, AUTO
TestParameter, Measurement.Adc.HighSpeed.Coeff, 1
TestParameter, Measurement.Adc.HighResolution.AutoZero, ON
TestParameter, Measurement.Adc.HighResolution.Mode, IntegMode
TestParameter, Measurement.Adc.HighResolution.Coeff, AdcFactor
TestParameter, Measurement.WaitTime.Source.Coeff, 1
TestParameter, Measurement.WaitTime.Source.Offset, 0
TestParameter, Measurement.WaitTime.Monitor.Coeff, 1
TestParameter, Measurement.WaitTime.Monitor.Offset, 0
TestParameter, Function.User.Name, R, Rsheet
TestParameter, Function.User.Unit, ohm, ohm/sheet
TestParameter, Function.User.Definition, V1/I1, R*W/L
TestParameter, Output.Graph.Enabled, true
TestParameter, Output.Graph.AutoScaling, false
TestParameter, Output.Graph.XAxis.Data, V1
TestParameter, Output.Graph.XAxis.Scale, Linear
TestParameter, Output.Graph.XAxis.Left, V1Start
TestParameter, Output.Graph.XAxis.Right, V1Stop
TestParameter, Output.Graph.XAxis.RunTimeAutoScale, false
TestParameter, Output.Graph.YAxis.Data, R, I1
TestParameter, Output.Graph.YAxis.Scale, Linear, Linear
TestParameter, Output.Graph.YAxis.Bottom, 0, 0
TestParameter, Output.Graph.YAxis.Top, V1Stop/I1Limit, I1Limit
TestParameter, Output.Graph.YAxis.Group, , 
TestParameter, Output.Graph.YAxis.RunTimeAutoScale, false, false
TestParameter, Output.List.Data, V1, I1, R, Rsheet
TestParameter, AutoAnalysis.Interpolation, false
TestParameter, AutoAnalysis.Line1.Enabled, false
TestParameter, AutoAnalysis.Line1.Type, 1
TestParameter, AutoAnalysis.Line1.Fix, False
TestParameter, AutoAnalysis.Line1.YAxis, 0
TestParameter, AutoAnalysis.Line1.Point1.Type, 0
TestParameter, AutoAnalysis.Line1.Point1.XY.X, 
TestParameter, AutoAnalysis.Line1.Point1.XY.Y, 
TestParameter, AutoAnalysis.Line1.Point1.Data.Var, 
TestParameter, AutoAnalysis.Line1.Point1.Data.Condition, 
TestParameter, AutoAnalysis.Line1.Point1.Data.Start, false
TestParameter, AutoAnalysis.Line1.Point1.Data.StartVar, 
TestParameter, AutoAnalysis.Line1.Point1.Data.StartCondition, 
TestParameter, AutoAnalysis.Line1.Point2.Type, 0
TestParameter, AutoAnalysis.Line1.Point2.XY.X, 
TestParameter, AutoAnalysis.Line1.Point2.XY.Y, 
TestParameter, AutoAnalysis.Line1.Point2.Data.Var, 
TestParameter, AutoAnalysis.Line1.Point2.Data.Condition, 
TestParameter, AutoAnalysis.Line1.Point2.Data.Start, false
TestParameter, AutoAnalysis.Line1.Point2.Data.StartVar, 
TestParameter, AutoAnalysis.Line1.Point2.Data.StartCondition, 
TestParameter, AutoAnalysis.Line1.GradientExpr, 0
TestParameter, AutoAnalysis.Line2.Enabled, false
TestParameter, AutoAnalysis.Line2.Type, 1
TestParameter, AutoAnalysis.Line2.Fix, False
TestParameter, AutoAnalysis.Line2.YAxis, 0
TestParameter, AutoAnalysis.Line2.Point1.Type, 0
TestParameter, AutoAnalysis.Line2.Point1.XY.X, 
TestParameter, AutoAnalysis.Line2.Point1.XY.Y, 
TestParameter, AutoAnalysis.Line2.Point1.Data.Var, 
TestParameter, AutoAnalysis.Line2.Point1.Data.Condition, 
TestParameter, AutoAnalysis.Line2.Point1.Data.Start, false
TestParameter, AutoAnalysis.Line2.Point1.Data.StartVar, 
TestParameter, AutoAnalysis.Line2.Point1.Data.StartCondition, 
TestParameter, AutoAnalysis.Line2.Point2.Type, 0
TestParameter, AutoAnalysis.Line2.Point2.XY.X, 
TestParameter, AutoAnalysis.Line2.Point2.XY.Y, 
TestParameter, AutoAnalysis.Line2.Point2.Data.Var, 
TestParameter, AutoAnalysis.Line2.Point2.Data.Condition, 
TestParameter, AutoAnalysis.Line2.Point2.Data.Start, false
TestParameter, AutoAnalysis.Line2.Point2.Data.StartVar, 
TestParameter, AutoAnalysis.Line2.Point2.Data.StartCondition, 
TestParameter, AutoAnalysis.Line2.GradientExpr, 0
TestParameter, AutoAnalysis.Marker.Enabled, false
TestParameter, AutoAnalysis.Marker.Data.Var, 
TestParameter, AutoAnalysis.Marker.Data.Condition, 
TestParameter, AutoAnalysis.Marker.Data.Start, false
TestParameter, AutoAnalysis.Marker.Data.StartVar, 
TestParameter, AutoAnalysis.Marker.Data.StartCondition, 
MetaData, TestRecord.EntryPoint, false
MetaData, TestRecord.RecordTime, 03/04/2023 18:22:47
MetaData, TestRecord.TestTarget, 
MetaData, TestRecord.IterationIndex, 220
MetaData, TestRecord.Preservation, true
MetaData, TestRecord.Flag, 
MetaData, TestRecord.Remarks, 
MetaData, TestRecord.LinkKey, 99d8a2fe-6dcf-4cc9-a671-bedfdcc1630b
Dimension1, 21, 21, 21, 21
Dimension2, 1, 1, 1, 1
DataName, V1, I1, R, Rsheet
DataValue, 0, -1.4E-14, -0, -0
DataValue, 0.05, 4.5100000000000005E-13, 110864745011.08647, 11086474501.108645
DataValue, 0.1, 6.31E-13, 158478605388.27258, 15847860538.827257
DataValue, 0.15, 9.88E-13, 151821862348.17813, 15182186234.81781
DataValue, 0.2, 1.0290000000000002E-12, 194363459669.58209, 19436345966.958206
DataValue, 0.25, 1.268E-12, 197160883280.75708, 19716088328.075703
DataValue, 0.3, 1.366E-12, 219619326500.73206, 21961932650.073204
DataValue, 0.35000000000000003, 1.4090000000000002E-12, 248403122782.11496, 24840312278.211494
DataValue, 0.4, 1.577E-12, 253646163601.77554, 25364616360.177551
DataValue, 0.45, 1.7080000000000002E-12, 263466042154.56671, 26346604215.456665
DataValue, 0.5, 1.6910000000000002E-12, 295683027794.20459, 29568302779.420456
DataValue, 0.55, 1.809E-12, 304035378662.24432, 30403537866.224426
DataValue, 0.6, 2E-12, 300000000000, 29999999999.999996
DataValue, 0.65, 2.1490000000000002E-12, 302466263378.31549, 30246626337.831547
DataValue, 0.70000000000000007, 2.256E-12, 310283687943.26245, 31028368794.326244
DataValue, 0.75, 2.3710000000000003E-12, 316322226908.47742, 31632222690.84774
DataValue, 0.8, 2.478E-12, 322841000807.10248, 32284100080.710247
DataValue, 0.85000000000000009, 2.452E-12, 346655791190.86462, 34665579119.086464
DataValue, 0.9, 2.6390000000000004E-12, 341038272072.75482, 34103827207.275478
DataValue, 0.95000000000000007, 2.669E-12, 355938553765.45526, 35593855376.545525
DataValue, 1, 2.8340000000000002E-12, 352858151023.28864, 35285815102.328857