
SetupTitle, R-V
ApplicationTest, R-V, Public
TestParameter, Name, Port1, Port2, V1Start, V1Stop, V1Step, V2, I1Limit, IntegTime, HoldTime, DelayTime, Port1MinRng
TestParameter, Value, SMU1:MP	MPSMU, SMU2:MP	MPSMU, 0, 1, 0.05, 0, 0.01, MEDIUM, 0, 0, 1nA
DutParameter, Name, L, W, Temp
DutParameter, Value, 1E-05, 1E-06, 25
MetaData, TestRecord.EntryPoint, true
MetaData, TestRecord.RecordTime, 03/04/2023 18:29:10
MetaData, TestRecord.TestTarget, 
MetaData, TestRecord.IterationIndex, 230
MetaData, TestRecord.Preservation, true
MetaData, TestRecord.Flag, 
MetaData, TestRecord.Remarks, 
MetaData, TestRecord.LinkKey, 2393fddc-cb1f-477d-9aea-4db84eb70d02
Dimension1, 21, 21, 21, 21
Dimension2, 1, 1, 1, 1
DataName, V1, I1, R, Rsheet
DataValue, 0, -1.8000000000000002E-14, -0, -0
DataValue, 0.05, 1.2201000000000001E-11, 4098024752.0695024, 409802475.20695019
DataValue, 0.1, 2.103E-11, 4755111745.1260109, 475511174.512601
DataValue, 0.15, 2.7788E-11, 5398013531.0205841, 539801353.10205841
DataValue, 0.2, 3.3722000000000005E-11, 5930846331.7715435, 593084633.1771543
DataValue, 0.25, 3.9619000000000006E-11, 6310103738.1054535, 631010373.81054521
DataValue, 0.3, 4.541E-11, 6606474344.8579607, 660647434.485796
DataValue, 0.35000000000000003, 5.1138000000000006E-11, 6844225429.2307091, 684422542.92307079
DataValue, 0.4, 5.7231000000000008E-11, 6989219129.4927568, 698921912.94927561
DataValue, 0.45, 6.3383E-11, 7099695501.948472, 709969550.19484711
DataValue, 0.5, 6.9532000000000009E-11, 7190933670.82782, 719093367.08278191
DataValue, 0.55, 7.5856E-11, 7250580046.4037123, 725058004.64037108
DataValue, 0.6, 8.244700000000001E-11, 7277402452.4846249, 727740245.24846244
DataValue, 0.65, 8.916E-11, 7290264692.6873035, 729026469.26873028
DataValue, 0.70000000000000007, 9.6143E-11, 7280821276.6400051, 728082127.66400039
DataValue, 0.75, 1.03343E-10, 7257385599.4116678, 725738559.94116664
DataValue, 0.8, 1.1076300000000001E-10, 7222628495.0750694, 722262849.50750685
DataValue, 0.85000000000000009, 1.1829E-10, 7185729985.62854, 718572998.56285393
DataValue, 0.9, 1.26193E-10, 7131932833.0414524, 713193283.3041451
DataValue, 0.95000000000000007, 1.3462200000000001E-10, 7056796066.0218983, 705679606.60218978
DataValue, 1, 1.43182E-10, 6984118115.4055672, 698411811.54055655
SetupTitle, R-V
PrimitiveTest, I/V Sweep
TestParameter, Context.MainFrame, B1500A
TestParameter, Channel.UnitType, SMU, SMU
TestParameter, Channel.Unit, Port1, Port2
TestParameter, Channel.IName, I1, I2
TestParameter, Channel.VName, V1, V2
TestParameter, Channel.Mode, V, V
TestParameter, Channel.Func, VAR1, CONST
TestParameter, Channel.Index, 
TestParameter, Channel.Time, 
TestParameter, Measurement.Port.Unit, Port1, Port2
TestParameter, Measurement.Port.SeriesResistor, NONE, NONE
TestParameter, Measurement.Port.Filter, OFF, OFF
TestParameter, Measurement.Port.OutputVoltageComparison, 0, 0
TestParameter, Measurement.Primary.Locus, Single
TestParameter, Measurement.Primary.Scale, LINEAR
TestParameter, Measurement.Primary.Start, V1Start
TestParameter, Measurement.Primary.Stop, V1Stop
TestParameter, Measurement.Primary.Step, V1Step
TestParameter, Measurement.Primary.Compliance, I1Limit
TestParameter, Measurement.Primary.PowerCompliance, 0
TestParameter, Measurement.Aborting.Condition, CONTINUE AT ANY
TestParameter, Measurement.PostOutput.Value, START
TestParameter, Measurement.PostOutput.Retention, OFF
TestParameter, Measurement.Bias.Source, 0, V2
TestParameter, Measurement.Bias.Compliance, 0.01, I1Limit
TestParameter, Measurement.Monitor.Unit, SMU:=Port1, SMU:=Port2
TestParameter, Measurement.Monitor.Adc, HR ADC, HR ADC
TestParameter, Measurement.Monitor.Measurement, Compliance Side, Compliance Side
TestParameter, Measurement.Monitor.RangingMode, LIMITED, LIMITED
TestParameter, Measurement.Monitor.RangeBoundary, Port1MinRng, 1nA
TestParameter, Measurement.Monitor.RangeRating, BY FULL RANGE, BY FULL RANGE
TestParameter, Measurement.Monitor.RangeRatingCoeff, 50, 50
TestParameter, Measurement.Timing.Hold, HoldTime
TestParameter, Measurement.Timing.Delay, DelayTime
TestParameter, Measurement.Adc.HighSpeed.Mode, AUTO
TestParameter, Measurement.Adc.HighSpeed.Coeff, 1
TestParameter, Measurement.Adc.HighResolution.AutoZero, ON
TestParameter, Measurement.Adc.HighResolution.Mode, IntegMode
TestParameter, Measurement.Adc.HighResolution.Coeff, AdcFactor
TestParameter, Measurement.WaitTime.Source.Coeff, 1
TestParameter, Measurement.WaitTime.Source.Offset, 0
TestParameter, Measurement.WaitTime.Monitor.Coeff, 1
TestParameter, Measurement.WaitTime.Monitor.Offset, 0
TestParameter, Function.User.Name, R, Rsheet
TestParameter, Function.User.Unit, ohm, ohm/sheet
TestParameter, Function.User.Definition, V1/I1, R*W/L
TestParameter, Output.Graph.Enabled, true
TestParameter, Output.Graph.AutoScaling, false
TestParameter, Output.Graph.XAxis.Data, V1
TestParameter, Output.Graph.XAxis.Scale, Linear
TestParameter, Output.Graph.XAxis.Left, V1Start
TestParameter, Output.Graph.XAxis.Right, V1Stop
TestParameter, Output.Graph.XAxis.RunTimeAutoScale, false
TestParameter, Output.Graph.YAxis.Data, R, I1
TestParameter, Output.Graph.YAxis.Scale, Linear, Linear
TestParameter, Output.Graph.YAxis.Bottom, 0, 0
TestParameter, Output.Graph.YAxis.Top, V1Stop/I1Limit, I1Limit
TestParameter, Output.Graph.YAxis.Group, , 
TestParameter, Output.Graph.YAxis.RunTimeAutoScale, false, false
TestParameter, Output.List.Data, V1, I1, R, Rsheet
TestParameter, AutoAnalysis.Interpolation, false
TestParameter, AutoAnalysis.Line1.Enabled, false
TestParameter, AutoAnalysis.Line1.Type, 1
TestParameter, AutoAnalysis.Line1.Fix, False
TestParameter, AutoAnalysis.Line1.YAxis, 0
TestParameter, AutoAnalysis.Line1.Point1.Type, 0
TestParameter, AutoAnalysis.Line1.Point1.XY.X, 
TestParameter, AutoAnalysis.Line1.Point1.XY.Y, 
TestParameter, AutoAnalysis.Line1.Point1.Data.Var, 
TestParameter, AutoAnalysis.Line1.Point1.Data.Condition, 
TestParameter, AutoAnalysis.Line1.Point1.Data.Start, false
TestParameter, AutoAnalysis.Line1.Point1.Data.StartVar, 
TestParameter, AutoAnalysis.Line1.Point1.Data.StartCondition, 
TestParameter, AutoAnalysis.Line1.Point2.Type, 0
TestParameter, AutoAnalysis.Line1.Point2.XY.X, 
TestParameter, AutoAnalysis.Line1.Point2.XY.Y, 
TestParameter, AutoAnalysis.Line1.Point2.Data.Var, 
TestParameter, AutoAnalysis.Line1.Point2.Data.Condition, 
TestParameter, AutoAnalysis.Line1.Point2.Data.Start, false
TestParameter, AutoAnalysis.Line1.Point2.Data.StartVar, 
TestParameter, AutoAnalysis.Line1.Point2.Data.StartCondition, 
TestParameter, AutoAnalysis.Line1.GradientExpr, 0
TestParameter, AutoAnalysis.Line2.Enabled, false
TestParameter, AutoAnalysis.Line2.Type, 1
TestParameter, AutoAnalysis.Line2.Fix, False
TestParameter, AutoAnalysis.Line2.YAxis, 0
TestParameter, AutoAnalysis.Line2.Point1.Type, 0
TestParameter, AutoAnalysis.Line2.Point1.XY.X, 
TestParameter, AutoAnalysis.Line2.Point1.XY.Y, 
TestParameter, AutoAnalysis.Line2.Point1.Data.Var, 
TestParameter, AutoAnalysis.Line2.Point1.Data.Condition, 
TestParameter, AutoAnalysis.Line2.Point1.Data.Start, false
TestParameter, AutoAnalysis.Line2.Point1.Data.StartVar, 
TestParameter, AutoAnalysis.Line2.Point1.Data.StartCondition, 
TestParameter, AutoAnalysis.Line2.Point2.Type, 0
TestParameter, AutoAnalysis.Line2.Point2.XY.X, 
TestParameter, AutoAnalysis.Line2.Point2.XY.Y, 
TestParameter, AutoAnalysis.Line2.Point2.Data.Var, 
TestParameter, AutoAnalysis.Line2.Point2.Data.Condition, 
TestParameter, AutoAnalysis.Line2.Point2.Data.Start, false
TestParameter, AutoAnalysis.Line2.Point2.Data.StartVar, 
TestParameter, AutoAnalysis.Line2.Point2.Data.StartCondition, 
TestParameter, AutoAnalysis.Line2.GradientExpr, 0
TestParameter, AutoAnalysis.Marker.Enabled, false
TestParameter, AutoAnalysis.Marker.Data.Var, 
TestParameter, AutoAnalysis.Marker.Data.Condition, 
TestParameter, AutoAnalysis.Marker.Data.Start, false
TestParameter, AutoAnalysis.Marker.Data.StartVar, 
TestParameter, AutoAnalysis.Marker.Data.StartCondition, 
MetaData, TestRecord.EntryPoint, false
MetaData, TestRecord.RecordTime, 03/04/2023 18:29:10
MetaData, TestRecord.TestTarget, 
MetaData, TestRecord.IterationIndex, 230
MetaData, TestRecord.Preservation, true
MetaData, TestRecord.Flag, 
MetaData, TestRecord.Remarks, 
MetaData, TestRecord.LinkKey, 2393fddc-cb1f-477d-9aea-4db84eb70d02
Dimension1, 21, 21, 21, 21
Dimension2, 1, 1, 1, 1
DataName, V1, I1, R, Rsheet
DataValue, 0, -1.8000000000000002E-14, -0, -0
DataValue, 0.05, 1.2201000000000001E-11, 4098024752.0695024, 409802475.20695019
DataValue, 0.1, 2.103E-11, 4755111745.1260109, 475511174.512601
DataValue, 0.15, 2.7788E-11, 5398013531.0205841, 539801353.10205841
DataValue, 0.2, 3.3722000000000005E-11, 5930846331.7715435, 593084633.1771543
DataValue, 0.25, 3.9619000000000006E-11, 6310103738.1054535, 631010373.81054521
DataValue, 0.3, 4.541E-11, 6606474344.8579607, 660647434.485796
DataValue, 0.35000000000000003, 5.1138000000000006E-11, 6844225429.2307091, 684422542.92307079
DataValue, 0.4, 5.7231000000000008E-11, 6989219129.4927568, 698921912.94927561
DataValue, 0.45, 6.3383E-11, 7099695501.948472, 709969550.19484711
DataValue, 0.5, 6.9532000000000009E-11, 7190933670.82782, 719093367.08278191
DataValue, 0.55, 7.5856E-11, 7250580046.4037123, 725058004.64037108
DataValue, 0.6, 8.244700000000001E-11, 7277402452.4846249, 727740245.24846244
DataValue, 0.65, 8.916E-11, 7290264692.6873035, 729026469.26873028
DataValue, 0.70000000000000007, 9.6143E-11, 7280821276.6400051, 728082127.66400039
DataValue, 0.75, 1.03343E-10, 7257385599.4116678, 725738559.94116664
DataValue, 0.8, 1.1076300000000001E-10, 7222628495.0750694, 722262849.50750685
DataValue, 0.85000000000000009, 1.1829E-10, 7185729985.62854, 718572998.56285393
DataValue, 0.9, 1.26193E-10, 7131932833.0414524, 713193283.3041451
DataValue, 0.95000000000000007, 1.3462200000000001E-10, 7056796066.0218983, 705679606.60218978
DataValue, 1, 1.43182E-10, 6984118115.4055672, 698411811.54055655