
SetupTitle, R-V
ApplicationTest, R-V, Public
TestParameter, Name, Port1, Port2, V1Start, V1Stop, V1Step, V2, I1Limit, IntegTime, HoldTime, DelayTime, Port1MinRng
TestParameter, Value, SMU1:MP	MPSMU, SMU2:MP	MPSMU, 0, 1, 0.02, 0, 0.01, MEDIUM, 0, 0, 1nA
DutParameter, Name, L, W, Temp
DutParameter, Value, 1E-05, 1E-06, 25
MetaData, TestRecord.EntryPoint, true
MetaData, TestRecord.RecordTime, 03/03/2023 16:23:23
MetaData, TestRecord.TestTarget, 
MetaData, TestRecord.IterationIndex, 14
MetaData, TestRecord.Preservation, true
MetaData, TestRecord.Flag, 
MetaData, TestRecord.Remarks, 
MetaData, TestRecord.LinkKey, 339b58aa-0c90-49a6-8c7f-7238e2512f9c
Dimension1, 51, 51, 51, 51
Dimension2, 1, 1, 1, 1
DataName, V1, I1, R, Rsheet
DataValue, 0, 1.6E-14, 0, 0
DataValue, 0.02, 1.4E-13, 142857142857.14285, 14285714285.714283
DataValue, 0.04, 1.17E-13, 341880341880.34186, 34188034188.03418
DataValue, 0.060000000000000005, -1.06E-13, -566037735849.05664, -56603773584.905655
DataValue, 0.08, 1.77E-13, 451977401129.94348, 45197740112.994339
DataValue, 0.1, 1.12E-13, 892857142857.143, 89285714285.7143
DataValue, 0.12000000000000001, 2.3900000000000004E-13, 502092050209.20496, 50209205020.920494
DataValue, 0.14, 3.8400000000000003E-13, 364583333333.33331, 36458333333.333328
DataValue, 0.16, 3.62E-13, 441988950276.2431, 44198895027.624306
DataValue, 0.18000000000000002, -1.46E-13, -1232876712328.7671, -123287671232.87668
DataValue, 0.2, 4.6000000000000006E-14, 4347826086956.5215, 434782608695.6521
DataValue, 0.22, 2E-15, 109999999999999.98, 10999999999999.998
DataValue, 0.24000000000000002, 1.3700000000000002E-13, 1751824817518.2481, 175182481751.8248
DataValue, 0.26, 1.1100000000000001E-13, 2342342342342.3423, 234234234234.23419
DataValue, 0.28, -5.41E-13, -517560073937.15344, -51756007393.71534
DataValue, 0.3, 2.37E-13, 1265822784810.1265, 126582278481.01262
DataValue, 0.32, 5.92E-13, 540540540540.54053, 54054054054.054047
DataValue, 0.34, 2.8E-14, 12142857142857.143, 1214285714285.7141
DataValue, 0.36000000000000004, -7E-14, -5142857142857.1436, -514285714285.71429
DataValue, 0.38, 6.06E-13, 627062706270.62708, 62706270627.062706
DataValue, 0.4, 2.6E-13, 1538461538461.5386, 153846153846.15384
DataValue, 0.42000000000000004, 1.9000000000000002E-13, 2210526315789.4736, 221052631578.94736
DataValue, 0.44, -5.3E-14, -8301886792452.83, -830188679245.283
DataValue, 0.46, 1.23E-13, 3739837398373.9839, 373983739837.39838
DataValue, 0.48000000000000004, -1.0200000000000001E-13, -4705882352941.1768, -470588235294.11768
DataValue, 0.5, 5.34E-13, 936329588014.9812, 93632958801.498108
DataValue, 0.52, -5.2000000000000006E-14, -10000000000000, -999999999999.99988
DataValue, 0.54, 2.8900000000000003E-13, 1868512110726.6436, 186851211072.66434
DataValue, 0.56, 1.88E-13, 2978723404255.3193, 297872340425.53192
DataValue, 0.58000000000000007, 4.6200000000000005E-13, 1255411255411.2554, 125541125541.12553
DataValue, 0.6, -1.0400000000000001E-13, -5769230769230.7686, -576923076923.07678
DataValue, 0.62, 2.05E-13, 3024390243902.439, 302439024390.24384
DataValue, 0.64, 2.3900000000000004E-13, 2677824267782.4263, 267782426778.24258
DataValue, 0.66, 8.2E-14, 8048780487804.8779, 804878048780.48767
DataValue, 0.68, 2.6400000000000004E-13, 2575757575757.5757, 257575757575.75754
DataValue, 0.70000000000000007, 4.8400000000000006E-13, 1446280991735.5371, 144628099173.55368
DataValue, 0.72000000000000008, -1.2000000000000002E-13, -6000000000000, -600000000000
DataValue, 0.74, 1.0200000000000001E-13, 7254901960784.3135, 725490196078.43127
DataValue, 0.76, 2.72E-13, 2794117647058.8237, 279411764705.88232
DataValue, 0.78, 2.44E-13, 3196721311475.4097, 319672131147.54095
DataValue, 0.8, -1.0700000000000001E-13, -7476635514018.6914, -747663551401.869
DataValue, 0.82000000000000006, 3.3500000000000004E-13, 2447761194029.8506, 244776119402.98502
DataValue, 0.84000000000000008, 3.4900000000000003E-13, 2406876790830.9458, 240687679083.09454
DataValue, 0.86, 4.24E-13, 2028301886792.4526, 202830188679.24524
DataValue, 0.88, 3.4400000000000005E-13, 2558139534883.7207, 255813953488.37207
DataValue, 0.9, 4.7800000000000008E-13, 1882845188284.5186, 188284518828.45181
DataValue, 0.92, 1.1100000000000001E-13, 8288288288288.2881, 828828828828.82874
DataValue, 0.94000000000000006, 4.0800000000000003E-13, 2303921568627.4512, 230392156862.74509
DataValue, 0.96000000000000008, 5.0900000000000005E-13, 1886051080550.0981, 188605108055.0098
DataValue, 0.98000000000000009, 2.1300000000000003E-13, 4600938967136.15, 460093896713.615
DataValue, 1, 1.8500000000000002E-13, 5405405405405.4053, 540540540540.54047
SetupTitle, R-V
PrimitiveTest, I/V Sweep
TestParameter, Context.MainFrame, B1500A
TestParameter, Channel.UnitType, SMU, SMU
TestParameter, Channel.Unit, Port1, Port2
TestParameter, Channel.IName, I1, I2
TestParameter, Channel.VName, V1, V2
TestParameter, Channel.Mode, V, V
TestParameter, Channel.Func, VAR1, CONST
TestParameter, Channel.Index, 
TestParameter, Channel.Time, 
TestParameter, Measurement.Port.Unit, Port1, Port2
TestParameter, Measurement.Port.SeriesResistor, NONE, NONE
TestParameter, Measurement.Port.Filter, OFF, OFF
TestParameter, Measurement.Port.OutputVoltageComparison, 0, 0
TestParameter, Measurement.Primary.Locus, Single
TestParameter, Measurement.Primary.Scale, LINEAR
TestParameter, Measurement.Primary.Start, V1Start
TestParameter, Measurement.Primary.Stop, V1Stop
TestParameter, Measurement.Primary.Step, V1Step
TestParameter, Measurement.Primary.Compliance, I1Limit
TestParameter, Measurement.Primary.PowerCompliance, 0
TestParameter, Measurement.Aborting.Condition, CONTINUE AT ANY
TestParameter, Measurement.PostOutput.Value, START
TestParameter, Measurement.PostOutput.Retention, OFF
TestParameter, Measurement.Bias.Source, 0, V2
TestParameter, Measurement.Bias.Compliance, 0.01, I1Limit
TestParameter, Measurement.Monitor.Unit, SMU:=Port1, SMU:=Port2
TestParameter, Measurement.Monitor.Adc, HR ADC, HR ADC
TestParameter, Measurement.Monitor.Measurement, Compliance Side, Compliance Side
TestParameter, Measurement.Monitor.RangingMode, LIMITED, LIMITED
TestParameter, Measurement.Monitor.RangeBoundary, Port1MinRng, 1nA
TestParameter, Measurement.Monitor.RangeRating, BY FULL RANGE, BY FULL RANGE
TestParameter, Measurement.Monitor.RangeRatingCoeff, 50, 50
TestParameter, Measurement.Timing.Hold, HoldTime
TestParameter, Measurement.Timing.Delay, DelayTime
TestParameter, Measurement.Adc.HighSpeed.Mode, AUTO
TestParameter, Measurement.Adc.HighSpeed.Coeff, 1
TestParameter, Measurement.Adc.HighResolution.AutoZero, ON
TestParameter, Measurement.Adc.HighResolution.Mode, IntegMode
TestParameter, Measurement.Adc.HighResolution.Coeff, AdcFactor
TestParameter, Measurement.WaitTime.Source.Coeff, 1
TestParameter, Measurement.WaitTime.Source.Offset, 0
TestParameter, Measurement.WaitTime.Monitor.Coeff, 1
TestParameter, Measurement.WaitTime.Monitor.Offset, 0
TestParameter, Function.User.Name, R, Rsheet
TestParameter, Function.User.Unit, ohm, ohm/sheet
TestParameter, Function.User.Definition, V1/I1, R*W/L
TestParameter, Output.Graph.Enabled, true
TestParameter, Output.Graph.AutoScaling, false
TestParameter, Output.Graph.XAxis.Data, V1
TestParameter, Output.Graph.XAxis.Scale, Linear
TestParameter, Output.Graph.XAxis.Left, V1Start
TestParameter, Output.Graph.XAxis.Right, V1Stop
TestParameter, Output.Graph.XAxis.RunTimeAutoScale, false
TestParameter, Output.Graph.YAxis.Data, R, I1
TestParameter, Output.Graph.YAxis.Scale, Linear, Linear
TestParameter, Output.Graph.YAxis.Bottom, 0, 0
TestParameter, Output.Graph.YAxis.Top, V1Stop/I1Limit, I1Limit
TestParameter, Output.Graph.YAxis.Group, , 
TestParameter, Output.Graph.YAxis.RunTimeAutoScale, false, false
TestParameter, Output.List.Data, V1, I1, R, Rsheet
TestParameter, AutoAnalysis.Interpolation, false
TestParameter, AutoAnalysis.Line1.Enabled, false
TestParameter, AutoAnalysis.Line1.Type, 1
TestParameter, AutoAnalysis.Line1.Fix, False
TestParameter, AutoAnalysis.Line1.YAxis, 0
TestParameter, AutoAnalysis.Line1.Point1.Type, 0
TestParameter, AutoAnalysis.Line1.Point1.XY.X, 
TestParameter, AutoAnalysis.Line1.Point1.XY.Y, 
TestParameter, AutoAnalysis.Line1.Point1.Data.Var, 
TestParameter, AutoAnalysis.Line1.Point1.Data.Condition, 
TestParameter, AutoAnalysis.Line1.Point1.Data.Start, false
TestParameter, AutoAnalysis.Line1.Point1.Data.StartVar, 
TestParameter, AutoAnalysis.Line1.Point1.Data.StartCondition, 
TestParameter, AutoAnalysis.Line1.Point2.Type, 0
TestParameter, AutoAnalysis.Line1.Point2.XY.X, 
TestParameter, AutoAnalysis.Line1.Point2.XY.Y, 
TestParameter, AutoAnalysis.Line1.Point2.Data.Var, 
TestParameter, AutoAnalysis.Line1.Point2.Data.Condition, 
TestParameter, AutoAnalysis.Line1.Point2.Data.Start, false
TestParameter, AutoAnalysis.Line1.Point2.Data.StartVar, 
TestParameter, AutoAnalysis.Line1.Point2.Data.StartCondition, 
TestParameter, AutoAnalysis.Line1.GradientExpr, 0
TestParameter, AutoAnalysis.Line2.Enabled, false
TestParameter, AutoAnalysis.Line2.Type, 1
TestParameter, AutoAnalysis.Line2.Fix, False
TestParameter, AutoAnalysis.Line2.YAxis, 0
TestParameter, AutoAnalysis.Line2.Point1.Type, 0
TestParameter, AutoAnalysis.Line2.Point1.XY.X, 
TestParameter, AutoAnalysis.Line2.Point1.XY.Y, 
TestParameter, AutoAnalysis.Line2.Point1.Data.Var, 
TestParameter, AutoAnalysis.Line2.Point1.Data.Condition, 
TestParameter, AutoAnalysis.Line2.Point1.Data.Start, false
TestParameter, AutoAnalysis.Line2.Point1.Data.StartVar, 
TestParameter, AutoAnalysis.Line2.Point1.Data.StartCondition, 
TestParameter, AutoAnalysis.Line2.Point2.Type, 0
TestParameter, AutoAnalysis.Line2.Point2.XY.X, 
TestParameter, AutoAnalysis.Line2.Point2.XY.Y, 
TestParameter, AutoAnalysis.Line2.Point2.Data.Var, 
TestParameter, AutoAnalysis.Line2.Point2.Data.Condition, 
TestParameter, AutoAnalysis.Line2.Point2.Data.Start, false
TestParameter, AutoAnalysis.Line2.Point2.Data.StartVar, 
TestParameter, AutoAnalysis.Line2.Point2.Data.StartCondition, 
TestParameter, AutoAnalysis.Line2.GradientExpr, 0
TestParameter, AutoAnalysis.Marker.Enabled, false
TestParameter, AutoAnalysis.Marker.Data.Var, 
TestParameter, AutoAnalysis.Marker.Data.Condition, 
TestParameter, AutoAnalysis.Marker.Data.Start, false
TestParameter, AutoAnalysis.Marker.Data.StartVar, 
TestParameter, AutoAnalysis.Marker.Data.StartCondition, 
MetaData, TestRecord.EntryPoint, false
MetaData, TestRecord.RecordTime, 03/03/2023 16:23:23
MetaData, TestRecord.TestTarget, 
MetaData, TestRecord.IterationIndex, 14
MetaData, TestRecord.Preservation, true
MetaData, TestRecord.Flag, 
MetaData, TestRecord.Remarks, 
MetaData, TestRecord.LinkKey, 339b58aa-0c90-49a6-8c7f-7238e2512f9c
Dimension1, 51, 51, 51, 51
Dimension2, 1, 1, 1, 1
DataName, V1, I1, R, Rsheet
DataValue, 0, 1.6E-14, 0, 0
DataValue, 0.02, 1.4E-13, 142857142857.14285, 14285714285.714283
DataValue, 0.04, 1.17E-13, 341880341880.34186, 34188034188.03418
DataValue, 0.060000000000000005, -1.06E-13, -566037735849.05664, -56603773584.905655
DataValue, 0.08, 1.77E-13, 451977401129.94348, 45197740112.994339
DataValue, 0.1, 1.12E-13, 892857142857.143, 89285714285.7143
DataValue, 0.12000000000000001, 2.3900000000000004E-13, 502092050209.20496, 50209205020.920494
DataValue, 0.14, 3.8400000000000003E-13, 364583333333.33331, 36458333333.333328
DataValue, 0.16, 3.62E-13, 441988950276.2431, 44198895027.624306
DataValue, 0.18000000000000002, -1.46E-13, -1232876712328.7671, -123287671232.87668
DataValue, 0.2, 4.6000000000000006E-14, 4347826086956.5215, 434782608695.6521
DataValue, 0.22, 2E-15, 109999999999999.98, 10999999999999.998
DataValue, 0.24000000000000002, 1.3700000000000002E-13, 1751824817518.2481, 175182481751.8248
DataValue, 0.26, 1.1100000000000001E-13, 2342342342342.3423, 234234234234.23419
DataValue, 0.28, -5.41E-13, -517560073937.15344, -51756007393.71534
DataValue, 0.3, 2.37E-13, 1265822784810.1265, 126582278481.01262
DataValue, 0.32, 5.92E-13, 540540540540.54053, 54054054054.054047
DataValue, 0.34, 2.8E-14, 12142857142857.143, 1214285714285.7141
DataValue, 0.36000000000000004, -7E-14, -5142857142857.1436, -514285714285.71429
DataValue, 0.38, 6.06E-13, 627062706270.62708, 62706270627.062706
DataValue, 0.4, 2.6E-13, 1538461538461.5386, 153846153846.15384
DataValue, 0.42000000000000004, 1.9000000000000002E-13, 2210526315789.4736, 221052631578.94736
DataValue, 0.44, -5.3E-14, -8301886792452.83, -830188679245.283
DataValue, 0.46, 1.23E-13, 3739837398373.9839, 373983739837.39838
DataValue, 0.48000000000000004, -1.0200000000000001E-13, -4705882352941.1768, -470588235294.11768
DataValue, 0.5, 5.34E-13, 936329588014.9812, 93632958801.498108
DataValue, 0.52, -5.2000000000000006E-14, -10000000000000, -999999999999.99988
DataValue, 0.54, 2.8900000000000003E-13, 1868512110726.6436, 186851211072.66434
DataValue, 0.56, 1.88E-13, 2978723404255.3193, 297872340425.53192
DataValue, 0.58000000000000007, 4.6200000000000005E-13, 1255411255411.2554, 125541125541.12553
DataValue, 0.6, -1.0400000000000001E-13, -5769230769230.7686, -576923076923.07678
DataValue, 0.62, 2.05E-13, 3024390243902.439, 302439024390.24384
DataValue, 0.64, 2.3900000000000004E-13, 2677824267782.4263, 267782426778.24258
DataValue, 0.66, 8.2E-14, 8048780487804.8779, 804878048780.48767
DataValue, 0.68, 2.6400000000000004E-13, 2575757575757.5757, 257575757575.75754
DataValue, 0.70000000000000007, 4.8400000000000006E-13, 1446280991735.5371, 144628099173.55368
DataValue, 0.72000000000000008, -1.2000000000000002E-13, -6000000000000, -600000000000
DataValue, 0.74, 1.0200000000000001E-13, 7254901960784.3135, 725490196078.43127
DataValue, 0.76, 2.72E-13, 2794117647058.8237, 279411764705.88232
DataValue, 0.78, 2.44E-13, 3196721311475.4097, 319672131147.54095
DataValue, 0.8, -1.0700000000000001E-13, -7476635514018.6914, -747663551401.869
DataValue, 0.82000000000000006, 3.3500000000000004E-13, 2447761194029.8506, 244776119402.98502
DataValue, 0.84000000000000008, 3.4900000000000003E-13, 2406876790830.9458, 240687679083.09454
DataValue, 0.86, 4.24E-13, 2028301886792.4526, 202830188679.24524
DataValue, 0.88, 3.4400000000000005E-13, 2558139534883.7207, 255813953488.37207
DataValue, 0.9, 4.7800000000000008E-13, 1882845188284.5186, 188284518828.45181
DataValue, 0.92, 1.1100000000000001E-13, 8288288288288.2881, 828828828828.82874
DataValue, 0.94000000000000006, 4.0800000000000003E-13, 2303921568627.4512, 230392156862.74509
DataValue, 0.96000000000000008, 5.0900000000000005E-13, 1886051080550.0981, 188605108055.0098
DataValue, 0.98000000000000009, 2.1300000000000003E-13, 4600938967136.15, 460093896713.615
DataValue, 1, 1.8500000000000002E-13, 5405405405405.4053, 540540540540.54047