
SetupTitle, R-V
ApplicationTest, R-V, Public
TestParameter, Name, Port1, Port2, V1Start, V1Stop, V1Step, V2, I1Limit, IntegTime, HoldTime, DelayTime, Port1MinRng
TestParameter, Value, SMU1:MP	MPSMU, SMU2:MP	MPSMU, 0, 1, 0.05, 0, 0.01, MEDIUM, 0, 0, 1nA
DutParameter, Name, L, W, Temp
DutParameter, Value, 1E-05, 1E-06, 25
MetaData, TestRecord.EntryPoint, true
MetaData, TestRecord.RecordTime, 03/04/2023 15:11:24
MetaData, TestRecord.TestTarget, 
MetaData, TestRecord.IterationIndex, 59
MetaData, TestRecord.Preservation, true
MetaData, TestRecord.Flag, 
MetaData, TestRecord.Remarks, 
MetaData, TestRecord.LinkKey, e60e2e01-bc8b-40b4-9ee5-d5db8612ff50
Dimension1, 21, 21, 21, 21
Dimension2, 1, 1, 1, 1
DataName, V1, I1, R, Rsheet
DataValue, 0, 2.2600000000000002E-13, 0, 0
DataValue, 0.05, -1.9700000000000002E-13, -253807106598.98477, -25380710659.898476
DataValue, 0.1, 4.09E-13, 244498777506.11246, 24449877750.61124
DataValue, 0.15, 3.3300000000000005E-13, 450450450450.45038, 45045045045.045029
DataValue, 0.2, -1.7300000000000002E-13, -1156069364161.8496, -115606936416.18494
DataValue, 0.25, 2.58E-13, 968992248062.0155, 96899224806.201538
DataValue, 0.3, 3.18E-13, 943396226415.09424, 94339622641.509415
DataValue, 0.35000000000000003, 2.1000000000000001E-13, 1666666666666.6668, 166666666666.66666
DataValue, 0.4, 2.3000000000000003E-13, 1739130434782.6086, 173913043478.26086
DataValue, 0.45, 3.98E-13, 1130653266331.6582, 113065326633.16582
DataValue, 0.5, 4.0500000000000004E-13, 1234567901234.5679, 123456790123.45677
DataValue, 0.55, 3.29E-13, 1671732522796.3525, 167173252279.63522
DataValue, 0.6, 1.59E-13, 3773584905660.377, 377358490566.03766
DataValue, 0.65, 4.0700000000000003E-13, 1597051597051.5969, 159705159705.1597
DataValue, 0.70000000000000007, 5.4800000000000009E-13, 1277372262773.7227, 127737226277.37225
DataValue, 0.75, 4.4200000000000004E-13, 1696832579185.5203, 169683257918.552
DataValue, 0.8, 4.11E-13, 1946472019464.7202, 194647201946.472
DataValue, 0.85000000000000009, 5.46E-13, 1556776556776.5569, 155677655677.65567
DataValue, 0.9, 3.9100000000000005E-13, 2301790281329.9229, 230179028132.99228
DataValue, 0.95000000000000007, 3.17E-13, 2996845425867.5078, 299684542586.75073
DataValue, 1, 3.4700000000000004E-13, 2881844380403.458, 288184438040.34576
SetupTitle, R-V
PrimitiveTest, I/V Sweep
TestParameter, Context.MainFrame, B1500A
TestParameter, Channel.UnitType, SMU, SMU
TestParameter, Channel.Unit, Port1, Port2
TestParameter, Channel.IName, I1, I2
TestParameter, Channel.VName, V1, V2
TestParameter, Channel.Mode, V, V
TestParameter, Channel.Func, VAR1, CONST
TestParameter, Channel.Index, 
TestParameter, Channel.Time, 
TestParameter, Measurement.Port.Unit, Port1, Port2
TestParameter, Measurement.Port.SeriesResistor, NONE, NONE
TestParameter, Measurement.Port.Filter, OFF, OFF
TestParameter, Measurement.Port.OutputVoltageComparison, 0, 0
TestParameter, Measurement.Primary.Locus, Single
TestParameter, Measurement.Primary.Scale, LINEAR
TestParameter, Measurement.Primary.Start, V1Start
TestParameter, Measurement.Primary.Stop, V1Stop
TestParameter, Measurement.Primary.Step, V1Step
TestParameter, Measurement.Primary.Compliance, I1Limit
TestParameter, Measurement.Primary.PowerCompliance, 0
TestParameter, Measurement.Aborting.Condition, CONTINUE AT ANY
TestParameter, Measurement.PostOutput.Value, START
TestParameter, Measurement.PostOutput.Retention, OFF
TestParameter, Measurement.Bias.Source, 0, V2
TestParameter, Measurement.Bias.Compliance, 0.01, I1Limit
TestParameter, Measurement.Monitor.Unit, SMU:=Port1, SMU:=Port2
TestParameter, Measurement.Monitor.Adc, HR ADC, HR ADC
TestParameter, Measurement.Monitor.Measurement, Compliance Side, Compliance Side
TestParameter, Measurement.Monitor.RangingMode, LIMITED, LIMITED
TestParameter, Measurement.Monitor.RangeBoundary, Port1MinRng, 1nA
TestParameter, Measurement.Monitor.RangeRating, BY FULL RANGE, BY FULL RANGE
TestParameter, Measurement.Monitor.RangeRatingCoeff, 50, 50
TestParameter, Measurement.Timing.Hold, HoldTime
TestParameter, Measurement.Timing.Delay, DelayTime
TestParameter, Measurement.Adc.HighSpeed.Mode, AUTO
TestParameter, Measurement.Adc.HighSpeed.Coeff, 1
TestParameter, Measurement.Adc.HighResolution.AutoZero, ON
TestParameter, Measurement.Adc.HighResolution.Mode, IntegMode
TestParameter, Measurement.Adc.HighResolution.Coeff, AdcFactor
TestParameter, Measurement.WaitTime.Source.Coeff, 1
TestParameter, Measurement.WaitTime.Source.Offset, 0
TestParameter, Measurement.WaitTime.Monitor.Coeff, 1
TestParameter, Measurement.WaitTime.Monitor.Offset, 0
TestParameter, Function.User.Name, R, Rsheet
TestParameter, Function.User.Unit, ohm, ohm/sheet
TestParameter, Function.User.Definition, V1/I1, R*W/L
TestParameter, Output.Graph.Enabled, true
TestParameter, Output.Graph.AutoScaling, false
TestParameter, Output.Graph.XAxis.Data, V1
TestParameter, Output.Graph.XAxis.Scale, Linear
TestParameter, Output.Graph.XAxis.Left, V1Start
TestParameter, Output.Graph.XAxis.Right, V1Stop
TestParameter, Output.Graph.XAxis.RunTimeAutoScale, false
TestParameter, Output.Graph.YAxis.Data, R, I1
TestParameter, Output.Graph.YAxis.Scale, Linear, Linear
TestParameter, Output.Graph.YAxis.Bottom, 0, 0
TestParameter, Output.Graph.YAxis.Top, V1Stop/I1Limit, I1Limit
TestParameter, Output.Graph.YAxis.Group, , 
TestParameter, Output.Graph.YAxis.RunTimeAutoScale, false, false
TestParameter, Output.List.Data, V1, I1, R, Rsheet
TestParameter, AutoAnalysis.Interpolation, false
TestParameter, AutoAnalysis.Line1.Enabled, false
TestParameter, AutoAnalysis.Line1.Type, 1
TestParameter, AutoAnalysis.Line1.Fix, False
TestParameter, AutoAnalysis.Line1.YAxis, 0
TestParameter, AutoAnalysis.Line1.Point1.Type, 0
TestParameter, AutoAnalysis.Line1.Point1.XY.X, 
TestParameter, AutoAnalysis.Line1.Point1.XY.Y, 
TestParameter, AutoAnalysis.Line1.Point1.Data.Var, 
TestParameter, AutoAnalysis.Line1.Point1.Data.Condition, 
TestParameter, AutoAnalysis.Line1.Point1.Data.Start, false
TestParameter, AutoAnalysis.Line1.Point1.Data.StartVar, 
TestParameter, AutoAnalysis.Line1.Point1.Data.StartCondition, 
TestParameter, AutoAnalysis.Line1.Point2.Type, 0
TestParameter, AutoAnalysis.Line1.Point2.XY.X, 
TestParameter, AutoAnalysis.Line1.Point2.XY.Y, 
TestParameter, AutoAnalysis.Line1.Point2.Data.Var, 
TestParameter, AutoAnalysis.Line1.Point2.Data.Condition, 
TestParameter, AutoAnalysis.Line1.Point2.Data.Start, false
TestParameter, AutoAnalysis.Line1.Point2.Data.StartVar, 
TestParameter, AutoAnalysis.Line1.Point2.Data.StartCondition, 
TestParameter, AutoAnalysis.Line1.GradientExpr, 0
TestParameter, AutoAnalysis.Line2.Enabled, false
TestParameter, AutoAnalysis.Line2.Type, 1
TestParameter, AutoAnalysis.Line2.Fix, False
TestParameter, AutoAnalysis.Line2.YAxis, 0
TestParameter, AutoAnalysis.Line2.Point1.Type, 0
TestParameter, AutoAnalysis.Line2.Point1.XY.X, 
TestParameter, AutoAnalysis.Line2.Point1.XY.Y, 
TestParameter, AutoAnalysis.Line2.Point1.Data.Var, 
TestParameter, AutoAnalysis.Line2.Point1.Data.Condition, 
TestParameter, AutoAnalysis.Line2.Point1.Data.Start, false
TestParameter, AutoAnalysis.Line2.Point1.Data.StartVar, 
TestParameter, AutoAnalysis.Line2.Point1.Data.StartCondition, 
TestParameter, AutoAnalysis.Line2.Point2.Type, 0
TestParameter, AutoAnalysis.Line2.Point2.XY.X, 
TestParameter, AutoAnalysis.Line2.Point2.XY.Y, 
TestParameter, AutoAnalysis.Line2.Point2.Data.Var, 
TestParameter, AutoAnalysis.Line2.Point2.Data.Condition, 
TestParameter, AutoAnalysis.Line2.Point2.Data.Start, false
TestParameter, AutoAnalysis.Line2.Point2.Data.StartVar, 
TestParameter, AutoAnalysis.Line2.Point2.Data.StartCondition, 
TestParameter, AutoAnalysis.Line2.GradientExpr, 0
TestParameter, AutoAnalysis.Marker.Enabled, false
TestParameter, AutoAnalysis.Marker.Data.Var, 
TestParameter, AutoAnalysis.Marker.Data.Condition, 
TestParameter, AutoAnalysis.Marker.Data.Start, false
TestParameter, AutoAnalysis.Marker.Data.StartVar, 
TestParameter, AutoAnalysis.Marker.Data.StartCondition, 
MetaData, TestRecord.EntryPoint, false
MetaData, TestRecord.RecordTime, 03/04/2023 15:11:24
MetaData, TestRecord.TestTarget, 
MetaData, TestRecord.IterationIndex, 59
MetaData, TestRecord.Preservation, true
MetaData, TestRecord.Flag, 
MetaData, TestRecord.Remarks, 
MetaData, TestRecord.LinkKey, e60e2e01-bc8b-40b4-9ee5-d5db8612ff50
Dimension1, 21, 21, 21, 21
Dimension2, 1, 1, 1, 1
DataName, V1, I1, R, Rsheet
DataValue, 0, 2.2600000000000002E-13, 0, 0
DataValue, 0.05, -1.9700000000000002E-13, -253807106598.98477, -25380710659.898476
DataValue, 0.1, 4.09E-13, 244498777506.11246, 24449877750.61124
DataValue, 0.15, 3.3300000000000005E-13, 450450450450.45038, 45045045045.045029
DataValue, 0.2, -1.7300000000000002E-13, -1156069364161.8496, -115606936416.18494
DataValue, 0.25, 2.58E-13, 968992248062.0155, 96899224806.201538
DataValue, 0.3, 3.18E-13, 943396226415.09424, 94339622641.509415
DataValue, 0.35000000000000003, 2.1000000000000001E-13, 1666666666666.6668, 166666666666.66666
DataValue, 0.4, 2.3000000000000003E-13, 1739130434782.6086, 173913043478.26086
DataValue, 0.45, 3.98E-13, 1130653266331.6582, 113065326633.16582
DataValue, 0.5, 4.0500000000000004E-13, 1234567901234.5679, 123456790123.45677
DataValue, 0.55, 3.29E-13, 1671732522796.3525, 167173252279.63522
DataValue, 0.6, 1.59E-13, 3773584905660.377, 377358490566.03766
DataValue, 0.65, 4.0700000000000003E-13, 1597051597051.5969, 159705159705.1597
DataValue, 0.70000000000000007, 5.4800000000000009E-13, 1277372262773.7227, 127737226277.37225
DataValue, 0.75, 4.4200000000000004E-13, 1696832579185.5203, 169683257918.552
DataValue, 0.8, 4.11E-13, 1946472019464.7202, 194647201946.472
DataValue, 0.85000000000000009, 5.46E-13, 1556776556776.5569, 155677655677.65567
DataValue, 0.9, 3.9100000000000005E-13, 2301790281329.9229, 230179028132.99228
DataValue, 0.95000000000000007, 3.17E-13, 2996845425867.5078, 299684542586.75073
DataValue, 1, 3.4700000000000004E-13, 2881844380403.458, 288184438040.34576