
SetupTitle, R-V
ApplicationTest, R-V, Public
TestParameter, Name, Port1, Port2, V1Start, V1Stop, V1Step, V2, I1Limit, IntegTime, HoldTime, DelayTime, Port1MinRng
TestParameter, Value, SMU1:MP	MPSMU, SMU2:MP	MPSMU, 0, 1, 0.05, 0, 0.01, MEDIUM, 0, 0, 1nA
DutParameter, Name, L, W, Temp
DutParameter, Value, 1E-05, 1E-06, 25
MetaData, TestRecord.EntryPoint, true
MetaData, TestRecord.RecordTime, 03/04/2023 15:00:45
MetaData, TestRecord.TestTarget, 
MetaData, TestRecord.IterationIndex, 49
MetaData, TestRecord.Preservation, true
MetaData, TestRecord.Flag, 
MetaData, TestRecord.Remarks, 
MetaData, TestRecord.LinkKey, e0d30834-3d0c-4441-9d9f-4d61f147a986
Dimension1, 21, 21, 21, 21
Dimension2, 1, 1, 1, 1
DataName, V1, I1, R, Rsheet
DataValue, 0, -4E-15, -0, -0
DataValue, 0.05, 1.47E-13, 340136054421.76874, 34013605442.176868
DataValue, 0.1, 4.46E-13, 224215246636.7713, 22421524663.677124
DataValue, 0.15, 3.9200000000000005E-13, 382653061224.48975, 38265306122.448967
DataValue, 0.2, 4.66E-13, 429184549356.22314, 42918454935.622314
DataValue, 0.25, 4.7800000000000008E-13, 523012552301.25513, 52301255230.1255
DataValue, 0.3, 4.8400000000000006E-13, 619834710743.80151, 61983471074.380142
DataValue, 0.35000000000000003, 5.0200000000000008E-13, 697211155378.486, 69721115537.848587
DataValue, 0.4, 4.34E-13, 921658986175.11523, 92165898617.51152
DataValue, 0.45, 5.4900000000000008E-13, 819672131147.54089, 81967213114.754074
DataValue, 0.5, 5.44E-13, 919117647058.82349, 91911764705.882339
DataValue, 0.55, 5.37E-13, 1024208566108.0075, 102420856610.80074
DataValue, 0.6, 4.86E-13, 1234567901234.5676, 123456790123.45676
DataValue, 0.65, 5.9700000000000008E-13, 1088777219430.4856, 108877721943.04854
DataValue, 0.70000000000000007, 6.9800000000000006E-13, 1002865329512.894, 100286532951.2894
DataValue, 0.75, 6.1E-13, 1229508196721.3115, 122950819672.13113
DataValue, 0.8, 6.8900000000000009E-13, 1161103047895.5007, 116110304789.55006
DataValue, 0.85000000000000009, 5.44E-13, 1562500000000.0002, 156250000000
DataValue, 0.9, 7.2200000000000005E-13, 1246537396121.8835, 124653739612.18834
DataValue, 0.95000000000000007, 7.6900000000000006E-13, 1235370611183.355, 123537061118.33548
DataValue, 1, 6.9100000000000008E-13, 1447178002894.3557, 144717800289.43555
SetupTitle, R-V
PrimitiveTest, I/V Sweep
TestParameter, Context.MainFrame, B1500A
TestParameter, Channel.UnitType, SMU, SMU
TestParameter, Channel.Unit, Port1, Port2
TestParameter, Channel.IName, I1, I2
TestParameter, Channel.VName, V1, V2
TestParameter, Channel.Mode, V, V
TestParameter, Channel.Func, VAR1, CONST
TestParameter, Channel.Index, 
TestParameter, Channel.Time, 
TestParameter, Measurement.Port.Unit, Port1, Port2
TestParameter, Measurement.Port.SeriesResistor, NONE, NONE
TestParameter, Measurement.Port.Filter, OFF, OFF
TestParameter, Measurement.Port.OutputVoltageComparison, 0, 0
TestParameter, Measurement.Primary.Locus, Single
TestParameter, Measurement.Primary.Scale, LINEAR
TestParameter, Measurement.Primary.Start, V1Start
TestParameter, Measurement.Primary.Stop, V1Stop
TestParameter, Measurement.Primary.Step, V1Step
TestParameter, Measurement.Primary.Compliance, I1Limit
TestParameter, Measurement.Primary.PowerCompliance, 0
TestParameter, Measurement.Aborting.Condition, CONTINUE AT ANY
TestParameter, Measurement.PostOutput.Value, START
TestParameter, Measurement.PostOutput.Retention, OFF
TestParameter, Measurement.Bias.Source, 0, V2
TestParameter, Measurement.Bias.Compliance, 0.01, I1Limit
TestParameter, Measurement.Monitor.Unit, SMU:=Port1, SMU:=Port2
TestParameter, Measurement.Monitor.Adc, HR ADC, HR ADC
TestParameter, Measurement.Monitor.Measurement, Compliance Side, Compliance Side
TestParameter, Measurement.Monitor.RangingMode, LIMITED, LIMITED
TestParameter, Measurement.Monitor.RangeBoundary, Port1MinRng, 1nA
TestParameter, Measurement.Monitor.RangeRating, BY FULL RANGE, BY FULL RANGE
TestParameter, Measurement.Monitor.RangeRatingCoeff, 50, 50
TestParameter, Measurement.Timing.Hold, HoldTime
TestParameter, Measurement.Timing.Delay, DelayTime
TestParameter, Measurement.Adc.HighSpeed.Mode, AUTO
TestParameter, Measurement.Adc.HighSpeed.Coeff, 1
TestParameter, Measurement.Adc.HighResolution.AutoZero, ON
TestParameter, Measurement.Adc.HighResolution.Mode, IntegMode
TestParameter, Measurement.Adc.HighResolution.Coeff, AdcFactor
TestParameter, Measurement.WaitTime.Source.Coeff, 1
TestParameter, Measurement.WaitTime.Source.Offset, 0
TestParameter, Measurement.WaitTime.Monitor.Coeff, 1
TestParameter, Measurement.WaitTime.Monitor.Offset, 0
TestParameter, Function.User.Name, R, Rsheet
TestParameter, Function.User.Unit, ohm, ohm/sheet
TestParameter, Function.User.Definition, V1/I1, R*W/L
TestParameter, Output.Graph.Enabled, true
TestParameter, Output.Graph.AutoScaling, false
TestParameter, Output.Graph.XAxis.Data, V1
TestParameter, Output.Graph.XAxis.Scale, Linear
TestParameter, Output.Graph.XAxis.Left, V1Start
TestParameter, Output.Graph.XAxis.Right, V1Stop
TestParameter, Output.Graph.XAxis.RunTimeAutoScale, false
TestParameter, Output.Graph.YAxis.Data, R, I1
TestParameter, Output.Graph.YAxis.Scale, Linear, Linear
TestParameter, Output.Graph.YAxis.Bottom, 0, 0
TestParameter, Output.Graph.YAxis.Top, V1Stop/I1Limit, I1Limit
TestParameter, Output.Graph.YAxis.Group, , 
TestParameter, Output.Graph.YAxis.RunTimeAutoScale, false, false
TestParameter, Output.List.Data, V1, I1, R, Rsheet
TestParameter, AutoAnalysis.Interpolation, false
TestParameter, AutoAnalysis.Line1.Enabled, false
TestParameter, AutoAnalysis.Line1.Type, 1
TestParameter, AutoAnalysis.Line1.Fix, False
TestParameter, AutoAnalysis.Line1.YAxis, 0
TestParameter, AutoAnalysis.Line1.Point1.Type, 0
TestParameter, AutoAnalysis.Line1.Point1.XY.X, 
TestParameter, AutoAnalysis.Line1.Point1.XY.Y, 
TestParameter, AutoAnalysis.Line1.Point1.Data.Var, 
TestParameter, AutoAnalysis.Line1.Point1.Data.Condition, 
TestParameter, AutoAnalysis.Line1.Point1.Data.Start, false
TestParameter, AutoAnalysis.Line1.Point1.Data.StartVar, 
TestParameter, AutoAnalysis.Line1.Point1.Data.StartCondition, 
TestParameter, AutoAnalysis.Line1.Point2.Type, 0
TestParameter, AutoAnalysis.Line1.Point2.XY.X, 
TestParameter, AutoAnalysis.Line1.Point2.XY.Y, 
TestParameter, AutoAnalysis.Line1.Point2.Data.Var, 
TestParameter, AutoAnalysis.Line1.Point2.Data.Condition, 
TestParameter, AutoAnalysis.Line1.Point2.Data.Start, false
TestParameter, AutoAnalysis.Line1.Point2.Data.StartVar, 
TestParameter, AutoAnalysis.Line1.Point2.Data.StartCondition, 
TestParameter, AutoAnalysis.Line1.GradientExpr, 0
TestParameter, AutoAnalysis.Line2.Enabled, false
TestParameter, AutoAnalysis.Line2.Type, 1
TestParameter, AutoAnalysis.Line2.Fix, False
TestParameter, AutoAnalysis.Line2.YAxis, 0
TestParameter, AutoAnalysis.Line2.Point1.Type, 0
TestParameter, AutoAnalysis.Line2.Point1.XY.X, 
TestParameter, AutoAnalysis.Line2.Point1.XY.Y, 
TestParameter, AutoAnalysis.Line2.Point1.Data.Var, 
TestParameter, AutoAnalysis.Line2.Point1.Data.Condition, 
TestParameter, AutoAnalysis.Line2.Point1.Data.Start, false
TestParameter, AutoAnalysis.Line2.Point1.Data.StartVar, 
TestParameter, AutoAnalysis.Line2.Point1.Data.StartCondition, 
TestParameter, AutoAnalysis.Line2.Point2.Type, 0
TestParameter, AutoAnalysis.Line2.Point2.XY.X, 
TestParameter, AutoAnalysis.Line2.Point2.XY.Y, 
TestParameter, AutoAnalysis.Line2.Point2.Data.Var, 
TestParameter, AutoAnalysis.Line2.Point2.Data.Condition, 
TestParameter, AutoAnalysis.Line2.Point2.Data.Start, false
TestParameter, AutoAnalysis.Line2.Point2.Data.StartVar, 
TestParameter, AutoAnalysis.Line2.Point2.Data.StartCondition, 
TestParameter, AutoAnalysis.Line2.GradientExpr, 0
TestParameter, AutoAnalysis.Marker.Enabled, false
TestParameter, AutoAnalysis.Marker.Data.Var, 
TestParameter, AutoAnalysis.Marker.Data.Condition, 
TestParameter, AutoAnalysis.Marker.Data.Start, false
TestParameter, AutoAnalysis.Marker.Data.StartVar, 
TestParameter, AutoAnalysis.Marker.Data.StartCondition, 
MetaData, TestRecord.EntryPoint, false
MetaData, TestRecord.RecordTime, 03/04/2023 15:00:45
MetaData, TestRecord.TestTarget, 
MetaData, TestRecord.IterationIndex, 49
MetaData, TestRecord.Preservation, true
MetaData, TestRecord.Flag, 
MetaData, TestRecord.Remarks, 
MetaData, TestRecord.LinkKey, e0d30834-3d0c-4441-9d9f-4d61f147a986
Dimension1, 21, 21, 21, 21
Dimension2, 1, 1, 1, 1
DataName, V1, I1, R, Rsheet
DataValue, 0, -4E-15, -0, -0
DataValue, 0.05, 1.47E-13, 340136054421.76874, 34013605442.176868
DataValue, 0.1, 4.46E-13, 224215246636.7713, 22421524663.677124
DataValue, 0.15, 3.9200000000000005E-13, 382653061224.48975, 38265306122.448967
DataValue, 0.2, 4.66E-13, 429184549356.22314, 42918454935.622314
DataValue, 0.25, 4.7800000000000008E-13, 523012552301.25513, 52301255230.1255
DataValue, 0.3, 4.8400000000000006E-13, 619834710743.80151, 61983471074.380142
DataValue, 0.35000000000000003, 5.0200000000000008E-13, 697211155378.486, 69721115537.848587
DataValue, 0.4, 4.34E-13, 921658986175.11523, 92165898617.51152
DataValue, 0.45, 5.4900000000000008E-13, 819672131147.54089, 81967213114.754074
DataValue, 0.5, 5.44E-13, 919117647058.82349, 91911764705.882339
DataValue, 0.55, 5.37E-13, 1024208566108.0075, 102420856610.80074
DataValue, 0.6, 4.86E-13, 1234567901234.5676, 123456790123.45676
DataValue, 0.65, 5.9700000000000008E-13, 1088777219430.4856, 108877721943.04854
DataValue, 0.70000000000000007, 6.9800000000000006E-13, 1002865329512.894, 100286532951.2894
DataValue, 0.75, 6.1E-13, 1229508196721.3115, 122950819672.13113
DataValue, 0.8, 6.8900000000000009E-13, 1161103047895.5007, 116110304789.55006
DataValue, 0.85000000000000009, 5.44E-13, 1562500000000.0002, 156250000000
DataValue, 0.9, 7.2200000000000005E-13, 1246537396121.8835, 124653739612.18834
DataValue, 0.95000000000000007, 7.6900000000000006E-13, 1235370611183.355, 123537061118.33548
DataValue, 1, 6.9100000000000008E-13, 1447178002894.3557, 144717800289.43555