
SetupTitle, R-V
ApplicationTest, R-V, Public
TestParameter, Name, Port1, Port2, V1Start, V1Stop, V1Step, V2, I1Limit, IntegTime, HoldTime, DelayTime, Port1MinRng
TestParameter, Value, SMU1:MP	MPSMU, SMU2:MP	MPSMU, 0, 1, 0.05, 0, 0.01, MEDIUM, 0, 0, 1nA
DutParameter, Name, L, W, Temp
DutParameter, Value, 1E-05, 1E-06, 25
MetaData, TestRecord.EntryPoint, true
MetaData, TestRecord.RecordTime, 03/04/2023 16:58:56
MetaData, TestRecord.TestTarget, 
MetaData, TestRecord.IterationIndex, 87
MetaData, TestRecord.Preservation, true
MetaData, TestRecord.Flag, 
MetaData, TestRecord.Remarks, 
MetaData, TestRecord.LinkKey, f78f2f66-f75c-4385-be47-1317bf1be4ae
Dimension1, 21, 21, 21, 21
Dimension2, 1, 1, 1, 1
DataName, V1, I1, R, Rsheet
DataValue, 0, 6.7E-14, 0, 0
DataValue, 0.05, 1.2420000000000002E-12, 40257648953.301125, 4025764895.3301125
DataValue, 0.1, 1.675E-12, 59701492537.313438, 5970149253.7313433
DataValue, 0.15, 1.7950000000000001E-12, 83565459610.027847, 8356545961.0027838
DataValue, 0.2, 2.0200000000000003E-12, 99009900990.099, 9900990099.0099
DataValue, 0.25, 2.0950000000000003E-12, 119331742243.43674, 11933174224.343672
DataValue, 0.3, 2.322E-12, 129198966408.26872, 12919896640.826872
DataValue, 0.35000000000000003, 2.261E-12, 154798761609.90714, 15479876160.990711
DataValue, 0.4, 2.503E-12, 159808230123.85138, 15980823012.385136
DataValue, 0.45, 2.4960000000000003E-12, 180288461538.46152, 18028846153.846149
DataValue, 0.5, 2.5930000000000004E-12, 192826841496.33627, 19282684149.633625
DataValue, 0.55, 2.715E-12, 202578268876.61142, 20257826887.661137
DataValue, 0.6, 2.946E-12, 203665987780.04071, 20366598778.00407
DataValue, 0.65, 3.1350000000000003E-12, 207336523125.9968, 20733652312.599678
DataValue, 0.70000000000000007, 3.1220000000000002E-12, 224215246636.7713, 22421524663.677124
DataValue, 0.75, 3.092E-12, 242561448900.38809, 24256144890.038807
DataValue, 0.8, 3.301E-12, 242350802787.03424, 24235080278.703419
DataValue, 0.85000000000000009, 3.2070000000000004E-12, 265045213595.26038, 26504521359.526031
DataValue, 0.9, 3.3160000000000004E-12, 271411338962.60553, 27141133896.260548
DataValue, 0.95000000000000007, 3.187E-12, 298085974270.47382, 29808597427.047379
DataValue, 1, 3.1430000000000002E-12, 318167356029.27136, 31816735602.927128
SetupTitle, R-V
PrimitiveTest, I/V Sweep
TestParameter, Context.MainFrame, B1500A
TestParameter, Channel.UnitType, SMU, SMU
TestParameter, Channel.Unit, Port1, Port2
TestParameter, Channel.IName, I1, I2
TestParameter, Channel.VName, V1, V2
TestParameter, Channel.Mode, V, V
TestParameter, Channel.Func, VAR1, CONST
TestParameter, Channel.Index, 
TestParameter, Channel.Time, 
TestParameter, Measurement.Port.Unit, Port1, Port2
TestParameter, Measurement.Port.SeriesResistor, NONE, NONE
TestParameter, Measurement.Port.Filter, OFF, OFF
TestParameter, Measurement.Port.OutputVoltageComparison, 0, 0
TestParameter, Measurement.Primary.Locus, Single
TestParameter, Measurement.Primary.Scale, LINEAR
TestParameter, Measurement.Primary.Start, V1Start
TestParameter, Measurement.Primary.Stop, V1Stop
TestParameter, Measurement.Primary.Step, V1Step
TestParameter, Measurement.Primary.Compliance, I1Limit
TestParameter, Measurement.Primary.PowerCompliance, 0
TestParameter, Measurement.Aborting.Condition, CONTINUE AT ANY
TestParameter, Measurement.PostOutput.Value, START
TestParameter, Measurement.PostOutput.Retention, OFF
TestParameter, Measurement.Bias.Source, 0, V2
TestParameter, Measurement.Bias.Compliance, 0.01, I1Limit
TestParameter, Measurement.Monitor.Unit, SMU:=Port1, SMU:=Port2
TestParameter, Measurement.Monitor.Adc, HR ADC, HR ADC
TestParameter, Measurement.Monitor.Measurement, Compliance Side, Compliance Side
TestParameter, Measurement.Monitor.RangingMode, LIMITED, LIMITED
TestParameter, Measurement.Monitor.RangeBoundary, Port1MinRng, 1nA
TestParameter, Measurement.Monitor.RangeRating, BY FULL RANGE, BY FULL RANGE
TestParameter, Measurement.Monitor.RangeRatingCoeff, 50, 50
TestParameter, Measurement.Timing.Hold, HoldTime
TestParameter, Measurement.Timing.Delay, DelayTime
TestParameter, Measurement.Adc.HighSpeed.Mode, AUTO
TestParameter, Measurement.Adc.HighSpeed.Coeff, 1
TestParameter, Measurement.Adc.HighResolution.AutoZero, ON
TestParameter, Measurement.Adc.HighResolution.Mode, IntegMode
TestParameter, Measurement.Adc.HighResolution.Coeff, AdcFactor
TestParameter, Measurement.WaitTime.Source.Coeff, 1
TestParameter, Measurement.WaitTime.Source.Offset, 0
TestParameter, Measurement.WaitTime.Monitor.Coeff, 1
TestParameter, Measurement.WaitTime.Monitor.Offset, 0
TestParameter, Function.User.Name, R, Rsheet
TestParameter, Function.User.Unit, ohm, ohm/sheet
TestParameter, Function.User.Definition, V1/I1, R*W/L
TestParameter, Output.Graph.Enabled, true
TestParameter, Output.Graph.AutoScaling, false
TestParameter, Output.Graph.XAxis.Data, V1
TestParameter, Output.Graph.XAxis.Scale, Linear
TestParameter, Output.Graph.XAxis.Left, V1Start
TestParameter, Output.Graph.XAxis.Right, V1Stop
TestParameter, Output.Graph.XAxis.RunTimeAutoScale, false
TestParameter, Output.Graph.YAxis.Data, R, I1
TestParameter, Output.Graph.YAxis.Scale, Linear, Linear
TestParameter, Output.Graph.YAxis.Bottom, 0, 0
TestParameter, Output.Graph.YAxis.Top, V1Stop/I1Limit, I1Limit
TestParameter, Output.Graph.YAxis.Group, , 
TestParameter, Output.Graph.YAxis.RunTimeAutoScale, false, false
TestParameter, Output.List.Data, V1, I1, R, Rsheet
TestParameter, AutoAnalysis.Interpolation, false
TestParameter, AutoAnalysis.Line1.Enabled, false
TestParameter, AutoAnalysis.Line1.Type, 1
TestParameter, AutoAnalysis.Line1.Fix, False
TestParameter, AutoAnalysis.Line1.YAxis, 0
TestParameter, AutoAnalysis.Line1.Point1.Type, 0
TestParameter, AutoAnalysis.Line1.Point1.XY.X, 
TestParameter, AutoAnalysis.Line1.Point1.XY.Y, 
TestParameter, AutoAnalysis.Line1.Point1.Data.Var, 
TestParameter, AutoAnalysis.Line1.Point1.Data.Condition, 
TestParameter, AutoAnalysis.Line1.Point1.Data.Start, false
TestParameter, AutoAnalysis.Line1.Point1.Data.StartVar, 
TestParameter, AutoAnalysis.Line1.Point1.Data.StartCondition, 
TestParameter, AutoAnalysis.Line1.Point2.Type, 0
TestParameter, AutoAnalysis.Line1.Point2.XY.X, 
TestParameter, AutoAnalysis.Line1.Point2.XY.Y, 
TestParameter, AutoAnalysis.Line1.Point2.Data.Var, 
TestParameter, AutoAnalysis.Line1.Point2.Data.Condition, 
TestParameter, AutoAnalysis.Line1.Point2.Data.Start, false
TestParameter, AutoAnalysis.Line1.Point2.Data.StartVar, 
TestParameter, AutoAnalysis.Line1.Point2.Data.StartCondition, 
TestParameter, AutoAnalysis.Line1.GradientExpr, 0
TestParameter, AutoAnalysis.Line2.Enabled, false
TestParameter, AutoAnalysis.Line2.Type, 1
TestParameter, AutoAnalysis.Line2.Fix, False
TestParameter, AutoAnalysis.Line2.YAxis, 0
TestParameter, AutoAnalysis.Line2.Point1.Type, 0
TestParameter, AutoAnalysis.Line2.Point1.XY.X, 
TestParameter, AutoAnalysis.Line2.Point1.XY.Y, 
TestParameter, AutoAnalysis.Line2.Point1.Data.Var, 
TestParameter, AutoAnalysis.Line2.Point1.Data.Condition, 
TestParameter, AutoAnalysis.Line2.Point1.Data.Start, false
TestParameter, AutoAnalysis.Line2.Point1.Data.StartVar, 
TestParameter, AutoAnalysis.Line2.Point1.Data.StartCondition, 
TestParameter, AutoAnalysis.Line2.Point2.Type, 0
TestParameter, AutoAnalysis.Line2.Point2.XY.X, 
TestParameter, AutoAnalysis.Line2.Point2.XY.Y, 
TestParameter, AutoAnalysis.Line2.Point2.Data.Var, 
TestParameter, AutoAnalysis.Line2.Point2.Data.Condition, 
TestParameter, AutoAnalysis.Line2.Point2.Data.Start, false
TestParameter, AutoAnalysis.Line2.Point2.Data.StartVar, 
TestParameter, AutoAnalysis.Line2.Point2.Data.StartCondition, 
TestParameter, AutoAnalysis.Line2.GradientExpr, 0
TestParameter, AutoAnalysis.Marker.Enabled, false
TestParameter, AutoAnalysis.Marker.Data.Var, 
TestParameter, AutoAnalysis.Marker.Data.Condition, 
TestParameter, AutoAnalysis.Marker.Data.Start, false
TestParameter, AutoAnalysis.Marker.Data.StartVar, 
TestParameter, AutoAnalysis.Marker.Data.StartCondition, 
MetaData, TestRecord.EntryPoint, false
MetaData, TestRecord.RecordTime, 03/04/2023 16:58:56
MetaData, TestRecord.TestTarget, 
MetaData, TestRecord.IterationIndex, 87
MetaData, TestRecord.Preservation, true
MetaData, TestRecord.Flag, 
MetaData, TestRecord.Remarks, 
MetaData, TestRecord.LinkKey, f78f2f66-f75c-4385-be47-1317bf1be4ae
Dimension1, 21, 21, 21, 21
Dimension2, 1, 1, 1, 1
DataName, V1, I1, R, Rsheet
DataValue, 0, 6.7E-14, 0, 0
DataValue, 0.05, 1.2420000000000002E-12, 40257648953.301125, 4025764895.3301125
DataValue, 0.1, 1.675E-12, 59701492537.313438, 5970149253.7313433
DataValue, 0.15, 1.7950000000000001E-12, 83565459610.027847, 8356545961.0027838
DataValue, 0.2, 2.0200000000000003E-12, 99009900990.099, 9900990099.0099
DataValue, 0.25, 2.0950000000000003E-12, 119331742243.43674, 11933174224.343672
DataValue, 0.3, 2.322E-12, 129198966408.26872, 12919896640.826872
DataValue, 0.35000000000000003, 2.261E-12, 154798761609.90714, 15479876160.990711
DataValue, 0.4, 2.503E-12, 159808230123.85138, 15980823012.385136
DataValue, 0.45, 2.4960000000000003E-12, 180288461538.46152, 18028846153.846149
DataValue, 0.5, 2.5930000000000004E-12, 192826841496.33627, 19282684149.633625
DataValue, 0.55, 2.715E-12, 202578268876.61142, 20257826887.661137
DataValue, 0.6, 2.946E-12, 203665987780.04071, 20366598778.00407
DataValue, 0.65, 3.1350000000000003E-12, 207336523125.9968, 20733652312.599678
DataValue, 0.70000000000000007, 3.1220000000000002E-12, 224215246636.7713, 22421524663.677124
DataValue, 0.75, 3.092E-12, 242561448900.38809, 24256144890.038807
DataValue, 0.8, 3.301E-12, 242350802787.03424, 24235080278.703419
DataValue, 0.85000000000000009, 3.2070000000000004E-12, 265045213595.26038, 26504521359.526031
DataValue, 0.9, 3.3160000000000004E-12, 271411338962.60553, 27141133896.260548
DataValue, 0.95000000000000007, 3.187E-12, 298085974270.47382, 29808597427.047379
DataValue, 1, 3.1430000000000002E-12, 318167356029.27136, 31816735602.927128