
SetupTitle, R-V
ApplicationTest, R-V, Public
TestParameter, Name, Port1, Port2, V1Start, V1Stop, V1Step, V2, I1Limit, IntegTime, HoldTime, DelayTime, Port1MinRng
TestParameter, Value, SMU1:MP	MPSMU, SMU2:MP	MPSMU, 0, 1, 0.05, 0, 0.01, MEDIUM, 0, 0, 1nA
DutParameter, Name, L, W, Temp
DutParameter, Value, 1E-05, 1E-06, 25
MetaData, TestRecord.EntryPoint, true
MetaData, TestRecord.RecordTime, 03/04/2023 17:38:45
MetaData, TestRecord.TestTarget, 
MetaData, TestRecord.IterationIndex, 150
MetaData, TestRecord.Preservation, true
MetaData, TestRecord.Flag, 
MetaData, TestRecord.Remarks, 
MetaData, TestRecord.LinkKey, 3f7c9eb8-6a05-4d22-8c26-1b8219fe5546
Dimension1, 21, 21, 21, 21
Dimension2, 1, 1, 1, 1
DataName, V1, I1, R, Rsheet
DataValue, 0, 1.4500000000000001E-13, 0, 0
DataValue, 0.05, 7.4300000000000007E-13, 67294751009.421265, 6729475100.9421253
DataValue, 0.1, 1.1560000000000001E-12, 86505190311.418686, 8650519031.1418686
DataValue, 0.15, 1.3970000000000002E-12, 107372942018.6113, 10737294201.86113
DataValue, 0.2, 1.684E-12, 118764845605.70071, 11876484560.57007
DataValue, 0.25, 2E-12, 125000000000, 12499999999.999998
DataValue, 0.3, 2.1530000000000002E-12, 139340455178.82022, 13934045517.882019
DataValue, 0.35000000000000003, 2.377E-12, 147244425746.73959, 14724442574.673956
DataValue, 0.4, 2.644E-12, 151285930408.47202, 15128593040.8472
DataValue, 0.45, 2.765E-12, 162748643761.302, 16274864376.130198
DataValue, 0.5, 2.857E-12, 175008750437.52188, 17500875043.752186
DataValue, 0.55, 3.017E-12, 182300298309.57907, 18230029830.957905
DataValue, 0.6, 3.158E-12, 189993666877.77072, 18999366687.777069
DataValue, 0.65, 3.2780000000000004E-12, 198291641244.66138, 19829164124.466133
DataValue, 0.70000000000000007, 3.4060000000000002E-12, 205519671168.52612, 20551967116.852608
DataValue, 0.75, 3.5160000000000004E-12, 213310580204.77814, 21331058020.47781
DataValue, 0.8, 3.622E-12, 220872446162.34125, 22087244616.234123
DataValue, 0.85000000000000009, 3.8220000000000005E-12, 222396650968.07953, 22239665096.807949
DataValue, 0.9, 3.894E-12, 231124807395.99384, 23112480739.59938
DataValue, 0.95000000000000007, 4.009E-12, 236966824644.54974, 23696682464.454971
DataValue, 1, 4.092E-12, 244379276637.34116, 24437927663.734116
SetupTitle, R-V
PrimitiveTest, I/V Sweep
TestParameter, Context.MainFrame, B1500A
TestParameter, Channel.UnitType, SMU, SMU
TestParameter, Channel.Unit, Port1, Port2
TestParameter, Channel.IName, I1, I2
TestParameter, Channel.VName, V1, V2
TestParameter, Channel.Mode, V, V
TestParameter, Channel.Func, VAR1, CONST
TestParameter, Channel.Index, 
TestParameter, Channel.Time, 
TestParameter, Measurement.Port.Unit, Port1, Port2
TestParameter, Measurement.Port.SeriesResistor, NONE, NONE
TestParameter, Measurement.Port.Filter, OFF, OFF
TestParameter, Measurement.Port.OutputVoltageComparison, 0, 0
TestParameter, Measurement.Primary.Locus, Single
TestParameter, Measurement.Primary.Scale, LINEAR
TestParameter, Measurement.Primary.Start, V1Start
TestParameter, Measurement.Primary.Stop, V1Stop
TestParameter, Measurement.Primary.Step, V1Step
TestParameter, Measurement.Primary.Compliance, I1Limit
TestParameter, Measurement.Primary.PowerCompliance, 0
TestParameter, Measurement.Aborting.Condition, CONTINUE AT ANY
TestParameter, Measurement.PostOutput.Value, START
TestParameter, Measurement.PostOutput.Retention, OFF
TestParameter, Measurement.Bias.Source, 0, V2
TestParameter, Measurement.Bias.Compliance, 0.01, I1Limit
TestParameter, Measurement.Monitor.Unit, SMU:=Port1, SMU:=Port2
TestParameter, Measurement.Monitor.Adc, HR ADC, HR ADC
TestParameter, Measurement.Monitor.Measurement, Compliance Side, Compliance Side
TestParameter, Measurement.Monitor.RangingMode, LIMITED, LIMITED
TestParameter, Measurement.Monitor.RangeBoundary, Port1MinRng, 1nA
TestParameter, Measurement.Monitor.RangeRating, BY FULL RANGE, BY FULL RANGE
TestParameter, Measurement.Monitor.RangeRatingCoeff, 50, 50
TestParameter, Measurement.Timing.Hold, HoldTime
TestParameter, Measurement.Timing.Delay, DelayTime
TestParameter, Measurement.Adc.HighSpeed.Mode, AUTO
TestParameter, Measurement.Adc.HighSpeed.Coeff, 1
TestParameter, Measurement.Adc.HighResolution.AutoZero, ON
TestParameter, Measurement.Adc.HighResolution.Mode, IntegMode
TestParameter, Measurement.Adc.HighResolution.Coeff, AdcFactor
TestParameter, Measurement.WaitTime.Source.Coeff, 1
TestParameter, Measurement.WaitTime.Source.Offset, 0
TestParameter, Measurement.WaitTime.Monitor.Coeff, 1
TestParameter, Measurement.WaitTime.Monitor.Offset, 0
TestParameter, Function.User.Name, R, Rsheet
TestParameter, Function.User.Unit, ohm, ohm/sheet
TestParameter, Function.User.Definition, V1/I1, R*W/L
TestParameter, Output.Graph.Enabled, true
TestParameter, Output.Graph.AutoScaling, false
TestParameter, Output.Graph.XAxis.Data, V1
TestParameter, Output.Graph.XAxis.Scale, Linear
TestParameter, Output.Graph.XAxis.Left, V1Start
TestParameter, Output.Graph.XAxis.Right, V1Stop
TestParameter, Output.Graph.XAxis.RunTimeAutoScale, false
TestParameter, Output.Graph.YAxis.Data, R, I1
TestParameter, Output.Graph.YAxis.Scale, Linear, Linear
TestParameter, Output.Graph.YAxis.Bottom, 0, 0
TestParameter, Output.Graph.YAxis.Top, V1Stop/I1Limit, I1Limit
TestParameter, Output.Graph.YAxis.Group, , 
TestParameter, Output.Graph.YAxis.RunTimeAutoScale, false, false
TestParameter, Output.List.Data, V1, I1, R, Rsheet
TestParameter, AutoAnalysis.Interpolation, false
TestParameter, AutoAnalysis.Line1.Enabled, false
TestParameter, AutoAnalysis.Line1.Type, 1
TestParameter, AutoAnalysis.Line1.Fix, False
TestParameter, AutoAnalysis.Line1.YAxis, 0
TestParameter, AutoAnalysis.Line1.Point1.Type, 0
TestParameter, AutoAnalysis.Line1.Point1.XY.X, 
TestParameter, AutoAnalysis.Line1.Point1.XY.Y, 
TestParameter, AutoAnalysis.Line1.Point1.Data.Var, 
TestParameter, AutoAnalysis.Line1.Point1.Data.Condition, 
TestParameter, AutoAnalysis.Line1.Point1.Data.Start, false
TestParameter, AutoAnalysis.Line1.Point1.Data.StartVar, 
TestParameter, AutoAnalysis.Line1.Point1.Data.StartCondition, 
TestParameter, AutoAnalysis.Line1.Point2.Type, 0
TestParameter, AutoAnalysis.Line1.Point2.XY.X, 
TestParameter, AutoAnalysis.Line1.Point2.XY.Y, 
TestParameter, AutoAnalysis.Line1.Point2.Data.Var, 
TestParameter, AutoAnalysis.Line1.Point2.Data.Condition, 
TestParameter, AutoAnalysis.Line1.Point2.Data.Start, false
TestParameter, AutoAnalysis.Line1.Point2.Data.StartVar, 
TestParameter, AutoAnalysis.Line1.Point2.Data.StartCondition, 
TestParameter, AutoAnalysis.Line1.GradientExpr, 0
TestParameter, AutoAnalysis.Line2.Enabled, false
TestParameter, AutoAnalysis.Line2.Type, 1
TestParameter, AutoAnalysis.Line2.Fix, False
TestParameter, AutoAnalysis.Line2.YAxis, 0
TestParameter, AutoAnalysis.Line2.Point1.Type, 0
TestParameter, AutoAnalysis.Line2.Point1.XY.X, 
TestParameter, AutoAnalysis.Line2.Point1.XY.Y, 
TestParameter, AutoAnalysis.Line2.Point1.Data.Var, 
TestParameter, AutoAnalysis.Line2.Point1.Data.Condition, 
TestParameter, AutoAnalysis.Line2.Point1.Data.Start, false
TestParameter, AutoAnalysis.Line2.Point1.Data.StartVar, 
TestParameter, AutoAnalysis.Line2.Point1.Data.StartCondition, 
TestParameter, AutoAnalysis.Line2.Point2.Type, 0
TestParameter, AutoAnalysis.Line2.Point2.XY.X, 
TestParameter, AutoAnalysis.Line2.Point2.XY.Y, 
TestParameter, AutoAnalysis.Line2.Point2.Data.Var, 
TestParameter, AutoAnalysis.Line2.Point2.Data.Condition, 
TestParameter, AutoAnalysis.Line2.Point2.Data.Start, false
TestParameter, AutoAnalysis.Line2.Point2.Data.StartVar, 
TestParameter, AutoAnalysis.Line2.Point2.Data.StartCondition, 
TestParameter, AutoAnalysis.Line2.GradientExpr, 0
TestParameter, AutoAnalysis.Marker.Enabled, false
TestParameter, AutoAnalysis.Marker.Data.Var, 
TestParameter, AutoAnalysis.Marker.Data.Condition, 
TestParameter, AutoAnalysis.Marker.Data.Start, false
TestParameter, AutoAnalysis.Marker.Data.StartVar, 
TestParameter, AutoAnalysis.Marker.Data.StartCondition, 
MetaData, TestRecord.EntryPoint, false
MetaData, TestRecord.RecordTime, 03/04/2023 17:38:45
MetaData, TestRecord.TestTarget, 
MetaData, TestRecord.IterationIndex, 150
MetaData, TestRecord.Preservation, true
MetaData, TestRecord.Flag, 
MetaData, TestRecord.Remarks, 
MetaData, TestRecord.LinkKey, 3f7c9eb8-6a05-4d22-8c26-1b8219fe5546
Dimension1, 21, 21, 21, 21
Dimension2, 1, 1, 1, 1
DataName, V1, I1, R, Rsheet
DataValue, 0, 1.4500000000000001E-13, 0, 0
DataValue, 0.05, 7.4300000000000007E-13, 67294751009.421265, 6729475100.9421253
DataValue, 0.1, 1.1560000000000001E-12, 86505190311.418686, 8650519031.1418686
DataValue, 0.15, 1.3970000000000002E-12, 107372942018.6113, 10737294201.86113
DataValue, 0.2, 1.684E-12, 118764845605.70071, 11876484560.57007
DataValue, 0.25, 2E-12, 125000000000, 12499999999.999998
DataValue, 0.3, 2.1530000000000002E-12, 139340455178.82022, 13934045517.882019
DataValue, 0.35000000000000003, 2.377E-12, 147244425746.73959, 14724442574.673956
DataValue, 0.4, 2.644E-12, 151285930408.47202, 15128593040.8472
DataValue, 0.45, 2.765E-12, 162748643761.302, 16274864376.130198
DataValue, 0.5, 2.857E-12, 175008750437.52188, 17500875043.752186
DataValue, 0.55, 3.017E-12, 182300298309.57907, 18230029830.957905
DataValue, 0.6, 3.158E-12, 189993666877.77072, 18999366687.777069
DataValue, 0.65, 3.2780000000000004E-12, 198291641244.66138, 19829164124.466133
DataValue, 0.70000000000000007, 3.4060000000000002E-12, 205519671168.52612, 20551967116.852608
DataValue, 0.75, 3.5160000000000004E-12, 213310580204.77814, 21331058020.47781
DataValue, 0.8, 3.622E-12, 220872446162.34125, 22087244616.234123
DataValue, 0.85000000000000009, 3.8220000000000005E-12, 222396650968.07953, 22239665096.807949
DataValue, 0.9, 3.894E-12, 231124807395.99384, 23112480739.59938
DataValue, 0.95000000000000007, 4.009E-12, 236966824644.54974, 23696682464.454971
DataValue, 1, 4.092E-12, 244379276637.34116, 24437927663.734116