
SetupTitle, Two Terminal IV Sweep
PrimitiveTest, I/V Sweep
TestParameter, Context.MainFrame, B1500A
TestParameter, Channel.UnitType, SMU, SMU
TestParameter, Channel.Unit, SMU3:MP, SMU4:MP
TestParameter, Channel.IName, I3, I4
TestParameter, Channel.VName, V3, V4
TestParameter, Channel.Mode, V, V
TestParameter, Channel.Func, VAR1, CONST
TestParameter, Channel.Index, 
TestParameter, Channel.Time, 
TestParameter, Measurement.Port.Unit, SMU3:MP, SMU4:MP
TestParameter, Measurement.Port.SeriesResistor, NONE, NONE
TestParameter, Measurement.Port.Filter, ON, ON
TestParameter, Measurement.Port.OutputVoltageComparison, 0, 0
TestParameter, Measurement.Primary.Locus, Single
TestParameter, Measurement.Primary.Scale, LINEAR
TestParameter, Measurement.Primary.Start, -3
TestParameter, Measurement.Primary.Stop, 5
TestParameter, Measurement.Primary.Step, 0.08
TestParameter, Measurement.Primary.Compliance, 0.01
TestParameter, Measurement.Primary.PowerCompliance, 0
TestParameter, Measurement.Aborting.Condition, CONTINUE AT ANY
TestParameter, Measurement.PostOutput.Value, START
TestParameter, Measurement.PostOutput.Retention, OFF
TestParameter, Measurement.Bias.Source, -3, 0
TestParameter, Measurement.Bias.Compliance, 0.01, 0.1
TestParameter, Measurement.Monitor.Unit, SMU3:MP, SMU4:MP
TestParameter, Measurement.Monitor.Adc, HR ADC, HR ADC
TestParameter, Measurement.Monitor.Measurement, Compliance Side, Compliance Side
TestParameter, Measurement.Monitor.RangingMode, LIMITED, LIMITED
TestParameter, Measurement.Monitor.RangeBoundary, 1nA, 1nA
TestParameter, Measurement.Monitor.RangeRating, BY FULL RANGE, BY FULL RANGE
TestParameter, Measurement.Monitor.RangeRatingCoeff, 50, 50
TestParameter, Measurement.Timing.Hold, 0
TestParameter, Measurement.Timing.Delay, 0
TestParameter, Measurement.Adc.HighSpeed.Mode, AUTO
TestParameter, Measurement.Adc.HighSpeed.Coeff, 1
TestParameter, Measurement.Adc.HighResolution.AutoZero, OFF
TestParameter, Measurement.Adc.HighResolution.Mode, AUTO
TestParameter, Measurement.Adc.HighResolution.Coeff, 6
TestParameter, Measurement.WaitTime.Source.Coeff, 1
TestParameter, Measurement.WaitTime.Source.Offset, 0
TestParameter, Measurement.WaitTime.Monitor.Coeff, 1
TestParameter, Measurement.WaitTime.Monitor.Offset, 0
TestParameter, Output.Graph.Enabled, true
TestParameter, Output.Graph.AutoScaling, false
TestParameter, Output.Graph.XAxis.Data, V3
TestParameter, Output.Graph.XAxis.Scale, Linear
TestParameter, Output.Graph.XAxis.Left, -5
TestParameter, Output.Graph.XAxis.Right, 5
TestParameter, Output.Graph.XAxis.RunTimeAutoScale, true
TestParameter, Output.Graph.YAxis.Data, I3
TestParameter, Output.Graph.YAxis.Scale, Linear
TestParameter, Output.Graph.YAxis.Bottom, -0.1
TestParameter, Output.Graph.YAxis.Top, 0.1
TestParameter, Output.Graph.YAxis.Group, 
TestParameter, Output.Graph.YAxis.RunTimeAutoScale, true
TestParameter, Output.List.Data, V1, I1, V2, I2
TestParameter, AutoAnalysis.Interpolation, false
TestParameter, AutoAnalysis.Line1.Enabled, false
TestParameter, AutoAnalysis.Line1.Type, 1
TestParameter, AutoAnalysis.Line1.Fix, True
TestParameter, AutoAnalysis.Line1.YAxis, 0
TestParameter, AutoAnalysis.Line1.Point1.Type, 0
TestParameter, AutoAnalysis.Line1.Point1.XY.X, 
TestParameter, AutoAnalysis.Line1.Point1.XY.Y, 
TestParameter, AutoAnalysis.Line1.Point1.Data.Var, 
TestParameter, AutoAnalysis.Line1.Point1.Data.Condition, 
TestParameter, AutoAnalysis.Line1.Point1.Data.Start, false
TestParameter, AutoAnalysis.Line1.Point1.Data.StartVar, 
TestParameter, AutoAnalysis.Line1.Point1.Data.StartCondition, 
TestParameter, AutoAnalysis.Line1.Point2.Type, 0
TestParameter, AutoAnalysis.Line1.Point2.XY.X, 
TestParameter, AutoAnalysis.Line1.Point2.XY.Y, 
TestParameter, AutoAnalysis.Line1.Point2.Data.Var, 
TestParameter, AutoAnalysis.Line1.Point2.Data.Condition, 
TestParameter, AutoAnalysis.Line1.Point2.Data.Start, false
TestParameter, AutoAnalysis.Line1.Point2.Data.StartVar, 
TestParameter, AutoAnalysis.Line1.Point2.Data.StartCondition, 
TestParameter, AutoAnalysis.Line1.GradientExpr, 0
TestParameter, AutoAnalysis.Line2.Enabled, false
TestParameter, AutoAnalysis.Line2.Type, 1
TestParameter, AutoAnalysis.Line2.Fix, True
TestParameter, AutoAnalysis.Line2.YAxis, 0
TestParameter, AutoAnalysis.Line2.Point1.Type, 0
TestParameter, AutoAnalysis.Line2.Point1.XY.X, 
TestParameter, AutoAnalysis.Line2.Point1.XY.Y, 
TestParameter, AutoAnalysis.Line2.Point1.Data.Var, 
TestParameter, AutoAnalysis.Line2.Point1.Data.Condition, 
TestParameter, AutoAnalysis.Line2.Point1.Data.Start, false
TestParameter, AutoAnalysis.Line2.Point1.Data.StartVar, 
TestParameter, AutoAnalysis.Line2.Point1.Data.StartCondition, 
TestParameter, AutoAnalysis.Line2.Point2.Type, 0
TestParameter, AutoAnalysis.Line2.Point2.XY.X, 
TestParameter, AutoAnalysis.Line2.Point2.XY.Y, 
TestParameter, AutoAnalysis.Line2.Point2.Data.Var, 
TestParameter, AutoAnalysis.Line2.Point2.Data.Condition, 
TestParameter, AutoAnalysis.Line2.Point2.Data.Start, false
TestParameter, AutoAnalysis.Line2.Point2.Data.StartVar, 
TestParameter, AutoAnalysis.Line2.Point2.Data.StartCondition, 
TestParameter, AutoAnalysis.Line2.GradientExpr, 0
TestParameter, AutoAnalysis.Marker.Enabled, false
TestParameter, AutoAnalysis.Marker.Data.Var, 
TestParameter, AutoAnalysis.Marker.Data.Condition, 
TestParameter, AutoAnalysis.Marker.Data.Start, false
TestParameter, AutoAnalysis.Marker.Data.StartVar, 
TestParameter, AutoAnalysis.Marker.Data.StartCondition, 
MetaData, TestRecord.EntryPoint, true
MetaData, TestRecord.RecordTime, 03/06/2023 10:56:54
MetaData, TestRecord.TestTarget, 
MetaData, TestRecord.IterationIndex, 56
MetaData, TestRecord.Preservation, true
MetaData, TestRecord.Flag, 
MetaData, TestRecord.Remarks, 
MetaData, TestRecord.LinkKey, 73b7e463-3644-4c7f-abfe-c584374d3c54
Dimension1, 101, 101, 101, 101, 101, 101
Dimension2, 1, 1, 1, 1, 1, 1
DataName, V3, I3, V1, I1, V2, I2
DataValue, -3, -3.7194E-07, , , , 
DataValue, -2.92, -3.3891999999999997E-07, , , , 
DataValue, -2.84, -3.0678E-07, , , , 
DataValue, -2.7600000000000002, -2.7732E-07, , , , 
DataValue, -2.68, -2.5124E-07, , , , 
DataValue, -2.6, -2.2596E-07, , , , 
DataValue, -2.52, -2.05E-07, , , , 
DataValue, -2.44, -1.8462E-07, , , , 
DataValue, -2.36, -1.6558E-07, , , , 
DataValue, -2.2800000000000002, -1.4816E-07, , , , 
DataValue, -2.2, -1.3234E-07, , , , 
DataValue, -2.12, -1.1816E-07, , , , 
DataValue, -2.04, -1.0512E-07, , , , 
DataValue, -1.96, -9.37222E-08, , , , 
DataValue, -1.8800000000000001, -8.30674E-08, , , , 
DataValue, -1.8, -7.35408E-08, , , , 
DataValue, -1.72, -6.46328E-08, , , , 
DataValue, -1.6400000000000001, -5.6600599999999997E-08, , , , 
DataValue, -1.56, -4.9729399999999997E-08, , , , 
DataValue, -1.48, -4.31518E-08, , , , 
DataValue, -1.4000000000000001, -3.72704E-08, , , , 
DataValue, -1.32, -3.21928E-08, , , , 
DataValue, -1.24, -2.7559399999999997E-08, , , , 
DataValue, -1.16, -2.36952E-08, , , , 
DataValue, -1.08, -2.0002999999999997E-08, , , , 
DataValue, -1, -1.6924199999999997E-08, , , , 
DataValue, -0.92, -1.4165599999999999E-08, , , , 
DataValue, -0.84, -1.1727399999999998E-08, , , , 
DataValue, -0.76, -9.6525999999999987E-09, , , , 
DataValue, -0.68, -7.8109E-09, , , , 
DataValue, -0.6, -6.2802E-09, , , , 
DataValue, -0.52, -4.9334E-09, , , , 
DataValue, -0.44, -3.8234E-09, , , , 
DataValue, -0.36, -2.8736E-09, , , , 
DataValue, -0.28, -2.0444E-09, , , , 
DataValue, -0.2, -1.3737E-09, , , , 
DataValue, -0.12, -7.7408000000000008E-10, , , , 
DataValue, -0.04, -2.3871E-10, , , , 
DataValue, 0.04, 1.8624000000000002E-10, , , , 
DataValue, 0.12, 4.2029000000000006E-10, , , , 
DataValue, 0.2, 5.394E-10, , , , 
DataValue, 0.28, 6.4100000000000006E-10, , , , 
DataValue, 0.36, 7.4823E-10, , , , 
DataValue, 0.44, 8.7163E-10, , , , 
DataValue, 0.52, 1.0051E-09, , , , 
DataValue, 0.6, 1.1631E-09, , , , 
DataValue, 0.68, 1.3717E-09, , , , 
DataValue, 0.76, 1.6069E-09, , , , 
DataValue, 0.84, 1.8933E-09, , , , 
DataValue, 0.92, 2.2550999999999998E-09, , , , 
DataValue, 1, 2.7362E-09, , , , 
DataValue, 1.08, 3.3419E-09, , , , 
DataValue, 1.16, 4.0882E-09, , , , 
DataValue, 1.24, 5.0582E-09, , , , 
DataValue, 1.32, 6.1822E-09, , , , 
DataValue, 1.4000000000000001, 7.5726E-09, , , , 
DataValue, 1.48, 9.4997E-09, , , , 
DataValue, 1.56, 1.17664E-08, , , , 
DataValue, 1.6400000000000001, 1.4886399999999999E-08, , , , 
DataValue, 1.72, 1.83822E-08, , , , 
DataValue, 1.8, 2.2854599999999997E-08, , , , 
DataValue, 1.8800000000000001, 2.82762E-08, , , , 
DataValue, 1.96, 3.5398799999999994E-08, , , , 
DataValue, 2.04, 4.4347599999999993E-08, , , , 
DataValue, 2.12, 5.5882799999999994E-08, , , , 
DataValue, 2.2, 6.9725399999999993E-08, , , , 
DataValue, 2.2800000000000002, 8.84362E-08, , , , 
DataValue, 2.36, 1.1350539999999999E-07, , , , 
DataValue, 2.44, 1.4352E-07, , , , 
DataValue, 2.52, 1.8884E-07, , , , 
DataValue, 2.6, 2.5592E-07, , , , 
DataValue, 2.68, 3.4755999999999997E-07, , , , 
DataValue, 2.7600000000000002, 4.6106E-07, , , , 
DataValue, 2.84, 6.0388E-07, , , , 
DataValue, 2.92, 7.9266E-07, , , , 
DataValue, 3, 1.04352E-06, , , , 
DataValue, 3.08, 1.3782000000000002E-06, , , , 
DataValue, 3.16, 1.7569000000000003E-06, , , , 
DataValue, 3.24, 2.2084000000000003E-06, , , , 
DataValue, 3.3200000000000003, 2.7597000000000004E-06, , , , 
DataValue, 3.4, 3.492E-06, , , , 
DataValue, 3.48, 4.3454000000000008E-06, , , , 
DataValue, 3.56, 5.455E-06, , , , 
DataValue, 3.64, 7.0135000000000007E-06, , , , 
DataValue, 3.72, 8.5232000000000017E-06, , , , 
DataValue, 3.8000000000000003, 1.07948E-05, , , , 
DataValue, 3.88, 1.5452E-05, , , , 
DataValue, 3.96, 1.8896E-05, , , , 
DataValue, 4.04, 2.2554E-05, , , , 
DataValue, 4.12, 2.801E-05, , , , 
DataValue, 4.2, 3.4052E-05, , , , 
DataValue, 4.28, 4.3496E-05, , , , 
DataValue, 4.36, 5.6188000000000005E-05, , , , 
DataValue, 4.44, 7.1548E-05, , , , 
DataValue, 4.5200000000000005, 8.8034E-05, , , , 
DataValue, 4.6000000000000005, 0.000107222, , , , 
DataValue, 4.68, 0.00014704, , , , 
DataValue, 4.76, 0.00017472, , , , 
DataValue, 4.84, 0.00020930000000000002, , , , 
DataValue, 4.92, 0.00024806000000000003, , , , 
DataValue, 5, 0.00029356, , , , 