
SetupTitle, Two Terminal IV Sweep
PrimitiveTest, I/V Sweep
TestParameter, Context.MainFrame, B1500A
TestParameter, Channel.UnitType, SMU, SMU
TestParameter, Channel.Unit, SMU3:MP, SMU4:MP
TestParameter, Channel.IName, I3, I4
TestParameter, Channel.VName, V3, V4
TestParameter, Channel.Mode, V, V
TestParameter, Channel.Func, VAR1, CONST
TestParameter, Channel.Index, 
TestParameter, Channel.Time, 
TestParameter, Measurement.Port.Unit, SMU3:MP, SMU4:MP
TestParameter, Measurement.Port.SeriesResistor, NONE, NONE
TestParameter, Measurement.Port.Filter, ON, ON
TestParameter, Measurement.Port.OutputVoltageComparison, 0, 0
TestParameter, Measurement.Primary.Locus, Single
TestParameter, Measurement.Primary.Scale, LINEAR
TestParameter, Measurement.Primary.Start, -3
TestParameter, Measurement.Primary.Stop, 5
TestParameter, Measurement.Primary.Step, 0.08
TestParameter, Measurement.Primary.Compliance, 0.01
TestParameter, Measurement.Primary.PowerCompliance, 0
TestParameter, Measurement.Aborting.Condition, CONTINUE AT ANY
TestParameter, Measurement.PostOutput.Value, START
TestParameter, Measurement.PostOutput.Retention, OFF
TestParameter, Measurement.Bias.Source, -3, 0
TestParameter, Measurement.Bias.Compliance, 0.01, 0.1
TestParameter, Measurement.Monitor.Unit, SMU3:MP, SMU4:MP
TestParameter, Measurement.Monitor.Adc, HR ADC, HR ADC
TestParameter, Measurement.Monitor.Measurement, Compliance Side, Compliance Side
TestParameter, Measurement.Monitor.RangingMode, LIMITED, LIMITED
TestParameter, Measurement.Monitor.RangeBoundary, 1nA, 1nA
TestParameter, Measurement.Monitor.RangeRating, BY FULL RANGE, BY FULL RANGE
TestParameter, Measurement.Monitor.RangeRatingCoeff, 50, 50
TestParameter, Measurement.Timing.Hold, 0
TestParameter, Measurement.Timing.Delay, 0
TestParameter, Measurement.Adc.HighSpeed.Mode, AUTO
TestParameter, Measurement.Adc.HighSpeed.Coeff, 1
TestParameter, Measurement.Adc.HighResolution.AutoZero, OFF
TestParameter, Measurement.Adc.HighResolution.Mode, AUTO
TestParameter, Measurement.Adc.HighResolution.Coeff, 6
TestParameter, Measurement.WaitTime.Source.Coeff, 1
TestParameter, Measurement.WaitTime.Source.Offset, 0
TestParameter, Measurement.WaitTime.Monitor.Coeff, 1
TestParameter, Measurement.WaitTime.Monitor.Offset, 0
TestParameter, Output.Graph.Enabled, true
TestParameter, Output.Graph.AutoScaling, false
TestParameter, Output.Graph.XAxis.Data, V3
TestParameter, Output.Graph.XAxis.Scale, Linear
TestParameter, Output.Graph.XAxis.Left, -5
TestParameter, Output.Graph.XAxis.Right, 5
TestParameter, Output.Graph.XAxis.RunTimeAutoScale, true
TestParameter, Output.Graph.YAxis.Data, I3
TestParameter, Output.Graph.YAxis.Scale, Linear
TestParameter, Output.Graph.YAxis.Bottom, -0.1
TestParameter, Output.Graph.YAxis.Top, 0.1
TestParameter, Output.Graph.YAxis.Group, 
TestParameter, Output.Graph.YAxis.RunTimeAutoScale, true
TestParameter, Output.List.Data, V1, I1, V2, I2
TestParameter, AutoAnalysis.Interpolation, false
TestParameter, AutoAnalysis.Line1.Enabled, false
TestParameter, AutoAnalysis.Line1.Type, 1
TestParameter, AutoAnalysis.Line1.Fix, True
TestParameter, AutoAnalysis.Line1.YAxis, 0
TestParameter, AutoAnalysis.Line1.Point1.Type, 0
TestParameter, AutoAnalysis.Line1.Point1.XY.X, 
TestParameter, AutoAnalysis.Line1.Point1.XY.Y, 
TestParameter, AutoAnalysis.Line1.Point1.Data.Var, 
TestParameter, AutoAnalysis.Line1.Point1.Data.Condition, 
TestParameter, AutoAnalysis.Line1.Point1.Data.Start, false
TestParameter, AutoAnalysis.Line1.Point1.Data.StartVar, 
TestParameter, AutoAnalysis.Line1.Point1.Data.StartCondition, 
TestParameter, AutoAnalysis.Line1.Point2.Type, 0
TestParameter, AutoAnalysis.Line1.Point2.XY.X, 
TestParameter, AutoAnalysis.Line1.Point2.XY.Y, 
TestParameter, AutoAnalysis.Line1.Point2.Data.Var, 
TestParameter, AutoAnalysis.Line1.Point2.Data.Condition, 
TestParameter, AutoAnalysis.Line1.Point2.Data.Start, false
TestParameter, AutoAnalysis.Line1.Point2.Data.StartVar, 
TestParameter, AutoAnalysis.Line1.Point2.Data.StartCondition, 
TestParameter, AutoAnalysis.Line1.GradientExpr, 0
TestParameter, AutoAnalysis.Line2.Enabled, false
TestParameter, AutoAnalysis.Line2.Type, 1
TestParameter, AutoAnalysis.Line2.Fix, True
TestParameter, AutoAnalysis.Line2.YAxis, 0
TestParameter, AutoAnalysis.Line2.Point1.Type, 0
TestParameter, AutoAnalysis.Line2.Point1.XY.X, 
TestParameter, AutoAnalysis.Line2.Point1.XY.Y, 
TestParameter, AutoAnalysis.Line2.Point1.Data.Var, 
TestParameter, AutoAnalysis.Line2.Point1.Data.Condition, 
TestParameter, AutoAnalysis.Line2.Point1.Data.Start, false
TestParameter, AutoAnalysis.Line2.Point1.Data.StartVar, 
TestParameter, AutoAnalysis.Line2.Point1.Data.StartCondition, 
TestParameter, AutoAnalysis.Line2.Point2.Type, 0
TestParameter, AutoAnalysis.Line2.Point2.XY.X, 
TestParameter, AutoAnalysis.Line2.Point2.XY.Y, 
TestParameter, AutoAnalysis.Line2.Point2.Data.Var, 
TestParameter, AutoAnalysis.Line2.Point2.Data.Condition, 
TestParameter, AutoAnalysis.Line2.Point2.Data.Start, false
TestParameter, AutoAnalysis.Line2.Point2.Data.StartVar, 
TestParameter, AutoAnalysis.Line2.Point2.Data.StartCondition, 
TestParameter, AutoAnalysis.Line2.GradientExpr, 0
TestParameter, AutoAnalysis.Marker.Enabled, false
TestParameter, AutoAnalysis.Marker.Data.Var, 
TestParameter, AutoAnalysis.Marker.Data.Condition, 
TestParameter, AutoAnalysis.Marker.Data.Start, false
TestParameter, AutoAnalysis.Marker.Data.StartVar, 
TestParameter, AutoAnalysis.Marker.Data.StartCondition, 
MetaData, TestRecord.EntryPoint, true
MetaData, TestRecord.RecordTime, 03/06/2023 10:56:16
MetaData, TestRecord.TestTarget, 
MetaData, TestRecord.IterationIndex, 55
MetaData, TestRecord.Preservation, true
MetaData, TestRecord.Flag, 
MetaData, TestRecord.Remarks, 
MetaData, TestRecord.LinkKey, 98fbafac-b89e-41e3-8ef6-9ebaa69b3f61
Dimension1, 101, 101, 101, 101, 101, 101
Dimension2, 1, 1, 1, 1, 1, 1
DataName, V3, I3, V1, I1, V2, I2
DataValue, -3, -2.3516E-07, , , , 
DataValue, -2.92, -2.1824E-07, , , , 
DataValue, -2.84, -2.0031999999999998E-07, , , , 
DataValue, -2.7600000000000002, -1.8332E-07, , , , 
DataValue, -2.68, -1.6986E-07, , , , 
DataValue, -2.6, -1.5496E-07, , , , 
DataValue, -2.52, -1.4224E-07, , , , 
DataValue, -2.44, -1.2982E-07, , , , 
DataValue, -2.36, -1.1781999999999999E-07, , , , 
DataValue, -2.2800000000000002, -1.0755999999999999E-07, , , , 
DataValue, -2.2, -9.7572599999999988E-08, , , , 
DataValue, -2.12, -8.8019199999999987E-08, , , , 
DataValue, -2.04, -8.031E-08, , , , 
DataValue, -1.96, -7.18076E-08, , , , 
DataValue, -1.8800000000000001, -6.4591E-08, , , , 
DataValue, -1.8, -5.9013199999999991E-08, , , , 
DataValue, -1.72, -5.1597999999999997E-08, , , , 
DataValue, -1.6400000000000001, -4.64804E-08, , , , 
DataValue, -1.56, -4.19076E-08, , , , 
DataValue, -1.48, -3.61428E-08, , , , 
DataValue, -1.4000000000000001, -3.2978399999999994E-08, , , , 
DataValue, -1.32, -2.8605599999999996E-08, , , , 
DataValue, -1.24, -2.4564799999999998E-08, , , , 
DataValue, -1.16, -2.25044E-08, , , , 
DataValue, -1.08, -1.8987199999999997E-08, , , , 
DataValue, -1, -1.6132399999999997E-08, , , , 
DataValue, -0.92, -1.4874399999999998E-08, , , , 
DataValue, -0.84, -1.1860799999999999E-08, , , , 
DataValue, -0.76, -1.02434E-08, , , , 
DataValue, -0.68, -9.3362E-09, , , , 
DataValue, -0.6, -7.5086E-09, , , , 
DataValue, -0.52, -5.3499E-09, , , , 
DataValue, -0.44, -4.3829E-09, , , , 
DataValue, -0.36, -3.9514E-09, , , , 
DataValue, -0.28, -3.1969E-09, , , , 
DataValue, -0.2, -1.7688E-09, , , , 
DataValue, -0.12, -1.2301E-09, , , , 
DataValue, -0.04, -4.1353E-10, , , , 
DataValue, 0.04, 3.1313000000000003E-10, , , , 
DataValue, 0.12, 6.1332E-10, , , , 
DataValue, 0.2, 7.4889000000000009E-10, , , , 
DataValue, 0.28, 7.8506000000000008E-10, , , , 
DataValue, 0.36, 1.0221E-09, , , , 
DataValue, 0.44, 1.166E-09, , , , 
DataValue, 0.52, 1.2767E-09, , , , 
DataValue, 0.6, 1.4166E-09, , , , 
DataValue, 0.68, 1.7019E-09, , , , 
DataValue, 0.76, 1.9876E-09, , , , 
DataValue, 0.84, 2.179E-09, , , , 
DataValue, 0.92, 2.39E-09, , , , 
DataValue, 1, 2.6799E-09, , , , 
DataValue, 1.08, 3.113E-09, , , , 
DataValue, 1.16, 3.5995E-09, , , , 
DataValue, 1.24, 4.0758E-09, , , , 
DataValue, 1.32, 4.5424E-09, , , , 
DataValue, 1.4000000000000001, 5.094E-09, , , , 
DataValue, 1.48, 5.8653E-09, , , , 
DataValue, 1.56, 6.83E-09, , , , 
DataValue, 1.6400000000000001, 7.8155E-09, , , , 
DataValue, 1.72, 8.8447E-09, , , , 
DataValue, 1.8, 9.9878E-09, , , , 
DataValue, 1.8800000000000001, 1.1578799999999998E-08, , , , 
DataValue, 1.96, 1.3551799999999999E-08, , , , 
DataValue, 2.04, 1.58686E-08, , , , 
DataValue, 2.12, 1.8380399999999998E-08, , , , 
DataValue, 2.2, 2.1756199999999997E-08, , , , 
DataValue, 2.2800000000000002, 2.54066E-08, , , , 
DataValue, 2.36, 3.0025799999999996E-08, , , , 
DataValue, 2.44, 3.57562E-08, , , , 
DataValue, 2.52, 4.2343199999999995E-08, , , , 
DataValue, 2.6, 5.1086E-08, , , , 
DataValue, 2.68, 6.25918E-08, , , , 
DataValue, 2.7600000000000002, 7.7192199999999992E-08, , , , 
DataValue, 2.84, 9.9260999999999991E-08, , , , 
DataValue, 2.92, 1.3004E-07, , , , 
DataValue, 3, 1.7372E-07, , , , 
DataValue, 3.08, 2.2823999999999998E-07, , , , 
DataValue, 3.16, 3.0154E-07, , , , 
DataValue, 3.24, 3.8196E-07, , , , 
DataValue, 3.3200000000000003, 5.2756E-07, , , , 
DataValue, 3.4, 7.0676E-07, , , , 
DataValue, 3.48, 1.0017E-06, , , , 
DataValue, 3.56, 1.5901000000000002E-06, , , , 
DataValue, 3.64, 2.0955E-06, , , , 
DataValue, 3.72, 2.893E-06, , , , 
DataValue, 3.8000000000000003, 3.9965000000000006E-06, , , , 
DataValue, 3.88, 5.3330000000000004E-06, , , , 
DataValue, 3.96, 7.297200000000001E-06, , , , 
DataValue, 4.04, 9.8830000000000018E-06, , , , 
DataValue, 4.12, 1.6996E-05, , , , 
DataValue, 4.2, 2.1438E-05, , , , 
DataValue, 4.28, 2.7964000000000002E-05, , , , 
DataValue, 4.36, 4.032E-05, , , , 
DataValue, 4.44, 5.7386E-05, , , , 
DataValue, 4.5200000000000005, 7.8344000000000007E-05, , , , 
DataValue, 4.6000000000000005, 0.00011042, , , , 
DataValue, 4.68, 0.00017298000000000001, , , , 
DataValue, 4.76, 0.00021228000000000002, , , , 
DataValue, 4.84, 0.00026604, , , , 
DataValue, 4.92, 0.0003288, , , , 
DataValue, 5, 0.00040956, , , , 