
SetupTitle, Two Terminal IV Sweep
PrimitiveTest, I/V Sweep
TestParameter, Context.MainFrame, B1500A
TestParameter, Channel.UnitType, SMU, SMU
TestParameter, Channel.Unit, SMU3:MP, SMU4:MP
TestParameter, Channel.IName, I3, I4
TestParameter, Channel.VName, V3, V4
TestParameter, Channel.Mode, V, V
TestParameter, Channel.Func, VAR1, CONST
TestParameter, Channel.Index, 
TestParameter, Channel.Time, 
TestParameter, Measurement.Port.Unit, SMU3:MP, SMU4:MP
TestParameter, Measurement.Port.SeriesResistor, NONE, NONE
TestParameter, Measurement.Port.Filter, ON, ON
TestParameter, Measurement.Port.OutputVoltageComparison, 0, 0
TestParameter, Measurement.Primary.Locus, Single
TestParameter, Measurement.Primary.Scale, LINEAR
TestParameter, Measurement.Primary.Start, -10
TestParameter, Measurement.Primary.Stop, 0
TestParameter, Measurement.Primary.Step, 0.1
TestParameter, Measurement.Primary.Compliance, 0.01
TestParameter, Measurement.Primary.PowerCompliance, 0
TestParameter, Measurement.Aborting.Condition, CONTINUE AT ANY
TestParameter, Measurement.PostOutput.Value, START
TestParameter, Measurement.PostOutput.Retention, OFF
TestParameter, Measurement.Bias.Source, -10, 0
TestParameter, Measurement.Bias.Compliance, 0.01, 0.1
TestParameter, Measurement.Monitor.Unit, SMU3:MP, SMU4:MP
TestParameter, Measurement.Monitor.Adc, HR ADC, HR ADC
TestParameter, Measurement.Monitor.Measurement, Compliance Side, Compliance Side
TestParameter, Measurement.Monitor.RangingMode, LIMITED, LIMITED
TestParameter, Measurement.Monitor.RangeBoundary, 1nA, 1nA
TestParameter, Measurement.Monitor.RangeRating, BY FULL RANGE, BY FULL RANGE
TestParameter, Measurement.Monitor.RangeRatingCoeff, 50, 50
TestParameter, Measurement.Timing.Hold, 0
TestParameter, Measurement.Timing.Delay, 0
TestParameter, Measurement.Adc.HighSpeed.Mode, AUTO
TestParameter, Measurement.Adc.HighSpeed.Coeff, 1
TestParameter, Measurement.Adc.HighResolution.AutoZero, OFF
TestParameter, Measurement.Adc.HighResolution.Mode, AUTO
TestParameter, Measurement.Adc.HighResolution.Coeff, 6
TestParameter, Measurement.WaitTime.Source.Coeff, 1
TestParameter, Measurement.WaitTime.Source.Offset, 0
TestParameter, Measurement.WaitTime.Monitor.Coeff, 1
TestParameter, Measurement.WaitTime.Monitor.Offset, 0
TestParameter, Output.Graph.Enabled, true
TestParameter, Output.Graph.AutoScaling, false
TestParameter, Output.Graph.XAxis.Data, V3
TestParameter, Output.Graph.XAxis.Scale, Linear
TestParameter, Output.Graph.XAxis.Left, -5
TestParameter, Output.Graph.XAxis.Right, 5
TestParameter, Output.Graph.XAxis.RunTimeAutoScale, true
TestParameter, Output.Graph.YAxis.Data, I3
TestParameter, Output.Graph.YAxis.Scale, Linear
TestParameter, Output.Graph.YAxis.Bottom, -0.1
TestParameter, Output.Graph.YAxis.Top, 0.1
TestParameter, Output.Graph.YAxis.Group, 
TestParameter, Output.Graph.YAxis.RunTimeAutoScale, true
TestParameter, Output.List.Data, V1, I1, V2, I2
TestParameter, AutoAnalysis.Interpolation, false
TestParameter, AutoAnalysis.Line1.Enabled, false
TestParameter, AutoAnalysis.Line1.Type, 1
TestParameter, AutoAnalysis.Line1.Fix, True
TestParameter, AutoAnalysis.Line1.YAxis, 0
TestParameter, AutoAnalysis.Line1.Point1.Type, 0
TestParameter, AutoAnalysis.Line1.Point1.XY.X, 
TestParameter, AutoAnalysis.Line1.Point1.XY.Y, 
TestParameter, AutoAnalysis.Line1.Point1.Data.Var, 
TestParameter, AutoAnalysis.Line1.Point1.Data.Condition, 
TestParameter, AutoAnalysis.Line1.Point1.Data.Start, false
TestParameter, AutoAnalysis.Line1.Point1.Data.StartVar, 
TestParameter, AutoAnalysis.Line1.Point1.Data.StartCondition, 
TestParameter, AutoAnalysis.Line1.Point2.Type, 0
TestParameter, AutoAnalysis.Line1.Point2.XY.X, 
TestParameter, AutoAnalysis.Line1.Point2.XY.Y, 
TestParameter, AutoAnalysis.Line1.Point2.Data.Var, 
TestParameter, AutoAnalysis.Line1.Point2.Data.Condition, 
TestParameter, AutoAnalysis.Line1.Point2.Data.Start, false
TestParameter, AutoAnalysis.Line1.Point2.Data.StartVar, 
TestParameter, AutoAnalysis.Line1.Point2.Data.StartCondition, 
TestParameter, AutoAnalysis.Line1.GradientExpr, 0
TestParameter, AutoAnalysis.Line2.Enabled, false
TestParameter, AutoAnalysis.Line2.Type, 1
TestParameter, AutoAnalysis.Line2.Fix, True
TestParameter, AutoAnalysis.Line2.YAxis, 0
TestParameter, AutoAnalysis.Line2.Point1.Type, 0
TestParameter, AutoAnalysis.Line2.Point1.XY.X, 
TestParameter, AutoAnalysis.Line2.Point1.XY.Y, 
TestParameter, AutoAnalysis.Line2.Point1.Data.Var, 
TestParameter, AutoAnalysis.Line2.Point1.Data.Condition, 
TestParameter, AutoAnalysis.Line2.Point1.Data.Start, false
TestParameter, AutoAnalysis.Line2.Point1.Data.StartVar, 
TestParameter, AutoAnalysis.Line2.Point1.Data.StartCondition, 
TestParameter, AutoAnalysis.Line2.Point2.Type, 0
TestParameter, AutoAnalysis.Line2.Point2.XY.X, 
TestParameter, AutoAnalysis.Line2.Point2.XY.Y, 
TestParameter, AutoAnalysis.Line2.Point2.Data.Var, 
TestParameter, AutoAnalysis.Line2.Point2.Data.Condition, 
TestParameter, AutoAnalysis.Line2.Point2.Data.Start, false
TestParameter, AutoAnalysis.Line2.Point2.Data.StartVar, 
TestParameter, AutoAnalysis.Line2.Point2.Data.StartCondition, 
TestParameter, AutoAnalysis.Line2.GradientExpr, 0
TestParameter, AutoAnalysis.Marker.Enabled, false
TestParameter, AutoAnalysis.Marker.Data.Var, 
TestParameter, AutoAnalysis.Marker.Data.Condition, 
TestParameter, AutoAnalysis.Marker.Data.Start, false
TestParameter, AutoAnalysis.Marker.Data.StartVar, 
TestParameter, AutoAnalysis.Marker.Data.StartCondition, 
MetaData, TestRecord.EntryPoint, true
MetaData, TestRecord.RecordTime, 03/06/2023 10:57:36
MetaData, TestRecord.TestTarget, 
MetaData, TestRecord.IterationIndex, 57
MetaData, TestRecord.Preservation, true
MetaData, TestRecord.Flag, 
MetaData, TestRecord.Remarks, 
MetaData, TestRecord.LinkKey, d7d60b52-a1e1-4ba1-a1c4-922d591d5cf9
Dimension1, 101, 101, 101, 101, 101, 101
Dimension2, 1, 1, 1, 1, 1, 1
DataName, V3, I3, V1, I1, V2, I2
DataValue, -10, -0.00067882, , , , 
DataValue, -9.9, -0.00057236000000000006, , , , 
DataValue, -9.8, -0.00047994000000000004, , , , 
DataValue, -9.7000000000000011, -0.00040006000000000004, , , , 
DataValue, -9.6, -0.00032862, , , , 
DataValue, -9.5, -0.00026508, , , , 
DataValue, -9.4, -0.00021078, , , , 
DataValue, -9.3, -0.00016464000000000002, , , , 
DataValue, -9.2000000000000011, -0.00012812, , , , 
DataValue, -9.1, -0.00010466, , , , 
DataValue, -9, -8.7594E-05, , , , 
DataValue, -8.9, -7.4132E-05, , , , 
DataValue, -8.8, -6.3758000000000009E-05, , , , 
DataValue, -8.7000000000000011, -5.5278E-05, , , , 
DataValue, -8.6, -4.8896E-05, , , , 
DataValue, -8.5, -4.3172E-05, , , , 
DataValue, -8.4, -3.8592E-05, , , , 
DataValue, -8.3, -3.4832E-05, , , , 
DataValue, -8.2, -3.1542000000000004E-05, , , , 
DataValue, -8.1, -2.8788E-05, , , , 
DataValue, -8, -2.6194E-05, , , , 
DataValue, -7.9, -2.4016000000000002E-05, , , , 
DataValue, -7.8, -2.2046000000000002E-05, , , , 
DataValue, -7.7, -2.0248E-05, , , , 
DataValue, -7.6000000000000005, -1.8612E-05, , , , 
DataValue, -7.5, -1.7324000000000002E-05, , , , 
DataValue, -7.4, -1.6002E-05, , , , 
DataValue, -7.3, -1.4766E-05, , , , 
DataValue, -7.2, -1.3706E-05, , , , 
DataValue, -7.1000000000000005, -1.2714E-05, , , , 
DataValue, -7, -1.1736E-05, , , , 
DataValue, -6.9, -1.0976E-05, , , , 
DataValue, -6.8, -1.025E-05, , , , 
DataValue, -6.7, -9.5198000000000016E-06, , , , 
DataValue, -6.6000000000000005, -8.8027000000000013E-06, , , , 
DataValue, -6.5, -8.154E-06, , , , 
DataValue, -6.4, -7.5713000000000007E-06, , , , 
DataValue, -6.3, -7.0670000000000011E-06, , , , 
DataValue, -6.2, -6.5375000000000005E-06, , , , 
DataValue, -6.1000000000000005, -6.1094E-06, , , , 
DataValue, -6, -5.6684000000000007E-06, , , , 
DataValue, -5.9, -5.2592E-06, , , , 
DataValue, -5.8, -4.8693E-06, , , , 
DataValue, -5.7, -4.5187000000000005E-06, , , , 
DataValue, -5.6000000000000005, -4.1684000000000006E-06, , , , 
DataValue, -5.5, -3.887E-06, , , , 
DataValue, -5.4, -3.5827000000000004E-06, , , , 
DataValue, -5.3, -3.3179000000000005E-06, , , , 
DataValue, -5.2, -3.0617000000000003E-06, , , , 
DataValue, -5.1000000000000005, -2.8274000000000002E-06, , , , 
DataValue, -5, -2.6191000000000005E-06, , , , 
DataValue, -4.9, -2.4166000000000003E-06, , , , 
DataValue, -4.8, -2.2251E-06, , , , 
DataValue, -4.7, -2.0483000000000004E-06, , , , 
DataValue, -4.6000000000000005, -1.8797000000000002E-06, , , , 
DataValue, -4.5, -1.7234E-06, , , , 
DataValue, -4.4, -1.5879E-06, , , , 
DataValue, -4.3, -1.4590000000000001E-06, , , , 
DataValue, -4.2, -1.3254E-06, , , , 
DataValue, -4.1, -1.2123E-06, , , , 
DataValue, -4, -1.1094000000000001E-06, , , , 
DataValue, -3.9, -1.0041E-06, , , , 
DataValue, -3.8000000000000003, -9.133E-07, , , , 
DataValue, -3.7, -8.2761999999999994E-07, , , , 
DataValue, -3.6, -7.4874E-07, , , , 
DataValue, -3.5, -6.7924E-07, , , , 
DataValue, -3.4, -6.0846E-07, , , , 
DataValue, -3.3000000000000003, -5.4682E-07, , , , 
DataValue, -3.2, -4.9394E-07, , , , 
DataValue, -3.1, -4.3932E-07, , , , 
DataValue, -3, -3.9228E-07, , , , 
DataValue, -2.9, -3.494E-07, , , , 
DataValue, -2.8000000000000003, -3.1276E-07, , , , 
DataValue, -2.7, -2.7462E-07, , , , 
DataValue, -2.6, -2.4274E-07, , , , 
DataValue, -2.5, -2.13E-07, , , , 
DataValue, -2.4, -1.8668E-07, , , , 
DataValue, -2.3000000000000003, -1.6378E-07, , , , 
DataValue, -2.2, -1.4235999999999999E-07, , , , 
DataValue, -2.1, -1.2348E-07, , , , 
DataValue, -2, -1.0656E-07, , , , 
DataValue, -1.9000000000000001, -9.20613E-08, , , , 
DataValue, -1.8, -7.90209E-08, , , , 
DataValue, -1.7, -6.74066E-08, , , , 
DataValue, -1.6, -5.7184799999999995E-08, , , , 
DataValue, -1.5, -4.8361899999999994E-08, , , , 
DataValue, -1.4000000000000001, -4.0597099999999995E-08, , , , 
DataValue, -1.3, -3.38328E-08, , , , 
DataValue, -1.2, -2.7891299999999998E-08, , , , 
DataValue, -1.1, -2.2723399999999996E-08, , , , 
DataValue, -1, -1.8479699999999998E-08, , , , 
DataValue, -0.9, -1.4753499999999999E-08, , , , 
DataValue, -0.8, -1.1645999999999999E-08, , , , 
DataValue, -0.70000000000000007, -9.0555E-09, , , , 
DataValue, -0.6, -6.8711E-09, , , , 
DataValue, -0.5, -5.0743E-09, , , , 
DataValue, -0.4, -3.5973E-09, , , , 
DataValue, -0.3, -2.4488E-09, , , , 
DataValue, -0.2, -1.5401E-09, , , , 
DataValue, -0.1, -7.1830000000000009E-10, , , , 
DataValue, 0, -7.73E-12, , , , 