
SetupTitle, Two Terminal IV Sweep
PrimitiveTest, I/V Sweep
TestParameter, Context.MainFrame, B1500A
TestParameter, Channel.UnitType, SMU, SMU
TestParameter, Channel.Unit, SMU3:MP, SMU4:MP
TestParameter, Channel.IName, I3, I4
TestParameter, Channel.VName, V3, V4
TestParameter, Channel.Mode, V, V
TestParameter, Channel.Func, VAR1, CONST
TestParameter, Channel.Index, 
TestParameter, Channel.Time, 
TestParameter, Measurement.Port.Unit, SMU3:MP, SMU4:MP
TestParameter, Measurement.Port.SeriesResistor, NONE, NONE
TestParameter, Measurement.Port.Filter, ON, ON
TestParameter, Measurement.Port.OutputVoltageComparison, 0, 0
TestParameter, Measurement.Primary.Locus, Single
TestParameter, Measurement.Primary.Scale, LINEAR
TestParameter, Measurement.Primary.Start, -3
TestParameter, Measurement.Primary.Stop, 5
TestParameter, Measurement.Primary.Step, 0.08
TestParameter, Measurement.Primary.Compliance, 0.01
TestParameter, Measurement.Primary.PowerCompliance, 0
TestParameter, Measurement.Aborting.Condition, CONTINUE AT ANY
TestParameter, Measurement.PostOutput.Value, START
TestParameter, Measurement.PostOutput.Retention, OFF
TestParameter, Measurement.Bias.Source, -3, 0
TestParameter, Measurement.Bias.Compliance, 0.01, 0.1
TestParameter, Measurement.Monitor.Unit, SMU3:MP, SMU4:MP
TestParameter, Measurement.Monitor.Adc, HR ADC, HR ADC
TestParameter, Measurement.Monitor.Measurement, Compliance Side, Compliance Side
TestParameter, Measurement.Monitor.RangingMode, LIMITED, LIMITED
TestParameter, Measurement.Monitor.RangeBoundary, 1nA, 1nA
TestParameter, Measurement.Monitor.RangeRating, BY FULL RANGE, BY FULL RANGE
TestParameter, Measurement.Monitor.RangeRatingCoeff, 50, 50
TestParameter, Measurement.Timing.Hold, 0
TestParameter, Measurement.Timing.Delay, 0
TestParameter, Measurement.Adc.HighSpeed.Mode, AUTO
TestParameter, Measurement.Adc.HighSpeed.Coeff, 1
TestParameter, Measurement.Adc.HighResolution.AutoZero, OFF
TestParameter, Measurement.Adc.HighResolution.Mode, AUTO
TestParameter, Measurement.Adc.HighResolution.Coeff, 6
TestParameter, Measurement.WaitTime.Source.Coeff, 1
TestParameter, Measurement.WaitTime.Source.Offset, 0
TestParameter, Measurement.WaitTime.Monitor.Coeff, 1
TestParameter, Measurement.WaitTime.Monitor.Offset, 0
TestParameter, Output.Graph.Enabled, true
TestParameter, Output.Graph.AutoScaling, false
TestParameter, Output.Graph.XAxis.Data, V3
TestParameter, Output.Graph.XAxis.Scale, Linear
TestParameter, Output.Graph.XAxis.Left, -5
TestParameter, Output.Graph.XAxis.Right, 5
TestParameter, Output.Graph.XAxis.RunTimeAutoScale, true
TestParameter, Output.Graph.YAxis.Data, I3
TestParameter, Output.Graph.YAxis.Scale, Linear
TestParameter, Output.Graph.YAxis.Bottom, -0.1
TestParameter, Output.Graph.YAxis.Top, 0.1
TestParameter, Output.Graph.YAxis.Group, 
TestParameter, Output.Graph.YAxis.RunTimeAutoScale, true
TestParameter, Output.List.Data, V1, I1, V2, I2
TestParameter, AutoAnalysis.Interpolation, false
TestParameter, AutoAnalysis.Line1.Enabled, false
TestParameter, AutoAnalysis.Line1.Type, 1
TestParameter, AutoAnalysis.Line1.Fix, True
TestParameter, AutoAnalysis.Line1.YAxis, 0
TestParameter, AutoAnalysis.Line1.Point1.Type, 0
TestParameter, AutoAnalysis.Line1.Point1.XY.X, 
TestParameter, AutoAnalysis.Line1.Point1.XY.Y, 
TestParameter, AutoAnalysis.Line1.Point1.Data.Var, 
TestParameter, AutoAnalysis.Line1.Point1.Data.Condition, 
TestParameter, AutoAnalysis.Line1.Point1.Data.Start, false
TestParameter, AutoAnalysis.Line1.Point1.Data.StartVar, 
TestParameter, AutoAnalysis.Line1.Point1.Data.StartCondition, 
TestParameter, AutoAnalysis.Line1.Point2.Type, 0
TestParameter, AutoAnalysis.Line1.Point2.XY.X, 
TestParameter, AutoAnalysis.Line1.Point2.XY.Y, 
TestParameter, AutoAnalysis.Line1.Point2.Data.Var, 
TestParameter, AutoAnalysis.Line1.Point2.Data.Condition, 
TestParameter, AutoAnalysis.Line1.Point2.Data.Start, false
TestParameter, AutoAnalysis.Line1.Point2.Data.StartVar, 
TestParameter, AutoAnalysis.Line1.Point2.Data.StartCondition, 
TestParameter, AutoAnalysis.Line1.GradientExpr, 0
TestParameter, AutoAnalysis.Line2.Enabled, false
TestParameter, AutoAnalysis.Line2.Type, 1
TestParameter, AutoAnalysis.Line2.Fix, True
TestParameter, AutoAnalysis.Line2.YAxis, 0
TestParameter, AutoAnalysis.Line2.Point1.Type, 0
TestParameter, AutoAnalysis.Line2.Point1.XY.X, 
TestParameter, AutoAnalysis.Line2.Point1.XY.Y, 
TestParameter, AutoAnalysis.Line2.Point1.Data.Var, 
TestParameter, AutoAnalysis.Line2.Point1.Data.Condition, 
TestParameter, AutoAnalysis.Line2.Point1.Data.Start, false
TestParameter, AutoAnalysis.Line2.Point1.Data.StartVar, 
TestParameter, AutoAnalysis.Line2.Point1.Data.StartCondition, 
TestParameter, AutoAnalysis.Line2.Point2.Type, 0
TestParameter, AutoAnalysis.Line2.Point2.XY.X, 
TestParameter, AutoAnalysis.Line2.Point2.XY.Y, 
TestParameter, AutoAnalysis.Line2.Point2.Data.Var, 
TestParameter, AutoAnalysis.Line2.Point2.Data.Condition, 
TestParameter, AutoAnalysis.Line2.Point2.Data.Start, false
TestParameter, AutoAnalysis.Line2.Point2.Data.StartVar, 
TestParameter, AutoAnalysis.Line2.Point2.Data.StartCondition, 
TestParameter, AutoAnalysis.Line2.GradientExpr, 0
TestParameter, AutoAnalysis.Marker.Enabled, false
TestParameter, AutoAnalysis.Marker.Data.Var, 
TestParameter, AutoAnalysis.Marker.Data.Condition, 
TestParameter, AutoAnalysis.Marker.Data.Start, false
TestParameter, AutoAnalysis.Marker.Data.StartVar, 
TestParameter, AutoAnalysis.Marker.Data.StartCondition, 
MetaData, TestRecord.EntryPoint, true
MetaData, TestRecord.RecordTime, 03/06/2023 10:59:07
MetaData, TestRecord.TestTarget, 
MetaData, TestRecord.IterationIndex, 58
MetaData, TestRecord.Preservation, true
MetaData, TestRecord.Flag, 
MetaData, TestRecord.Remarks, 
MetaData, TestRecord.LinkKey, 737d9930-adb0-4779-8588-5b4dc0a8c1ee
Dimension1, 101, 101, 101, 101, 101, 101
Dimension2, 1, 1, 1, 1, 1, 1
DataName, V3, I3, V1, I1, V2, I2
DataValue, -3, -1.7587999999999998E-07, , , , 
DataValue, -2.92, -1.604E-07, , , , 
DataValue, -2.84, -1.4506E-07, , , , 
DataValue, -2.7600000000000002, -1.3096E-07, , , , 
DataValue, -2.68, -1.2032E-07, , , , 
DataValue, -2.6, -1.0758E-07, , , , 
DataValue, -2.52, -9.6394E-08, , , , 
DataValue, -2.44, -8.78294E-08, , , , 
DataValue, -2.36, -7.76018E-08, , , , 
DataValue, -2.2800000000000002, -7.0754999999999987E-08, , , , 
DataValue, -2.2, -6.30554E-08, , , , 
DataValue, -2.12, -5.5193599999999996E-08, , , , 
DataValue, -2.04, -5.0384599999999996E-08, , , , 
DataValue, -1.96, -4.41388E-08, , , , 
DataValue, -1.8800000000000001, -3.85696E-08, , , , 
DataValue, -1.8, -3.51938E-08, , , , 
DataValue, -1.72, -2.9579799999999997E-08, , , , 
DataValue, -1.6400000000000001, -2.6586199999999998E-08, , , , 
DataValue, -1.56, -2.3227599999999996E-08, , , , 
DataValue, -1.48, -1.9139799999999997E-08, , , , 
DataValue, -1.4000000000000001, -1.7802999999999997E-08, , , , 
DataValue, -1.32, -1.4584599999999998E-08, , , , 
DataValue, -1.24, -1.2467399999999999E-08, , , , 
DataValue, -1.16, -1.13568E-08, , , , 
DataValue, -1.08, -9.4472E-09, , , , 
DataValue, -1, -8.133E-09, , , , 
DataValue, -0.92, -7.4179E-09, , , , 
DataValue, -0.84, -5.5806E-09, , , , 
DataValue, -0.76, -3.5884E-09, , , , 
DataValue, -0.68, -3.3633E-09, , , , 
DataValue, -0.6, -3.5521999999999998E-09, , , , 
DataValue, -0.52, -2.741E-09, , , , 
DataValue, -0.44, -1.5317E-09, , , , 
DataValue, -0.36, -7.312E-10, , , , 
DataValue, -0.28, -8.822E-10, , , , 
DataValue, -0.2, -1.2789E-09, , , , 
DataValue, -0.12, -3.878E-10, , , , 
DataValue, -0.04, -5.5759E-10, , , , 
DataValue, 0.04, 4.421E-11, , , , 
DataValue, 0.12, 3.2001E-10, , , , 
DataValue, 0.2, 5.0436E-10, , , , 
DataValue, 0.28, 4.9832E-10, , , , 
DataValue, 0.36, 5.1857E-10, , , , 
DataValue, 0.44, 6.5915E-10, , , , 
DataValue, 0.52, 1.1427E-09, , , , 
DataValue, 0.6, 1.3167E-09, , , , 
DataValue, 0.68, 1.5321E-09, , , , 
DataValue, 0.76, 2.1573E-09, , , , 
DataValue, 0.84, 3.1147E-09, , , , 
DataValue, 0.92, 4.5949E-09, , , , 
DataValue, 1, 5.9044E-09, , , , 
DataValue, 1.08, 7.715E-09, , , , 
DataValue, 1.16, 1.04985E-08, , , , 
DataValue, 1.24, 1.4096199999999999E-08, , , , 
DataValue, 1.32, 1.9463999999999998E-08, , , , 
DataValue, 1.4000000000000001, 2.56234E-08, , , , 
DataValue, 1.48, 3.3590199999999996E-08, , , , 
DataValue, 1.56, 4.3856E-08, , , , 
DataValue, 1.6400000000000001, 5.6287399999999995E-08, , , , 
DataValue, 1.72, 7.258019999999999E-08, , , , 
DataValue, 1.8, 9.1573199999999993E-08, , , , 
DataValue, 1.8800000000000001, 1.1352E-07, , , , 
DataValue, 1.96, 1.3934E-07, , , , 
DataValue, 2.04, 1.7265999999999999E-07, , , , 
DataValue, 2.12, 2.0895999999999999E-07, , , , 
DataValue, 2.2, 2.517E-07, , , , 
DataValue, 2.2800000000000002, 2.9993999999999997E-07, , , , 
DataValue, 2.36, 3.6008E-07, , , , 
DataValue, 2.44, 4.3146E-07, , , , 
DataValue, 2.52, 5.2314E-07, , , , 
DataValue, 2.6, 6.2728E-07, , , , 
DataValue, 2.68, 7.5673999999999993E-07, , , , 
DataValue, 2.7600000000000002, 9.0781999999999993E-07, , , , 
DataValue, 2.84, 1.10624E-06, , , , 
DataValue, 2.92, 1.3302000000000002E-06, , , , 
DataValue, 3, 1.6231000000000002E-06, , , , 
DataValue, 3.08, 1.9612000000000004E-06, , , , 
DataValue, 3.16, 2.4070000000000004E-06, , , , 
DataValue, 3.24, 3.0402E-06, , , , 
DataValue, 3.3200000000000003, 3.8385000000000006E-06, , , , 
DataValue, 3.4, 5.0407000000000007E-06, , , , 
DataValue, 3.48, 6.5015E-06, , , , 
DataValue, 3.56, 8.5024E-06, , , , 
DataValue, 3.64, 1.1063500000000002E-05, , , , 
DataValue, 3.72, 1.5482000000000002E-05, , , , 
DataValue, 3.8000000000000003, 1.9082E-05, , , , 
DataValue, 3.88, 2.3578E-05, , , , 
DataValue, 3.96, 2.9172E-05, , , , 
DataValue, 4.04, 3.6230000000000004E-05, , , , 
DataValue, 4.12, 4.4744000000000004E-05, , , , 
DataValue, 4.2, 5.5552E-05, , , , 
DataValue, 4.28, 6.7724E-05, , , , 
DataValue, 4.36, 8.2934E-05, , , , 
DataValue, 4.44, 0.000102106, , , , 
DataValue, 4.5200000000000005, 0.00013012, , , , 
DataValue, 4.6000000000000005, 0.00015126, , , , 
DataValue, 4.68, 0.00017776, , , , 
DataValue, 4.76, 0.00021312000000000002, , , , 
DataValue, 4.84, 0.00024894, , , , 
DataValue, 4.92, 0.00028974000000000003, , , , 
DataValue, 5, 0.00033428, , , , 