
SetupTitle, Two Terminal IV Sweep
PrimitiveTest, I/V Sweep
TestParameter, Context.MainFrame, B1500A
TestParameter, Channel.UnitType, SMU, SMU
TestParameter, Channel.Unit, SMU3:MP, SMU4:MP
TestParameter, Channel.IName, I3, I4
TestParameter, Channel.VName, V3, V4
TestParameter, Channel.Mode, V, V
TestParameter, Channel.Func, VAR1, CONST
TestParameter, Channel.Index, 
TestParameter, Channel.Time, 
TestParameter, Measurement.Port.Unit, SMU3:MP, SMU4:MP
TestParameter, Measurement.Port.SeriesResistor, NONE, NONE
TestParameter, Measurement.Port.Filter, ON, ON
TestParameter, Measurement.Port.OutputVoltageComparison, 0, 0
TestParameter, Measurement.Primary.Locus, Single
TestParameter, Measurement.Primary.Scale, LINEAR
TestParameter, Measurement.Primary.Start, -3
TestParameter, Measurement.Primary.Stop, 5
TestParameter, Measurement.Primary.Step, 0.08
TestParameter, Measurement.Primary.Compliance, 0.01
TestParameter, Measurement.Primary.PowerCompliance, 0
TestParameter, Measurement.Aborting.Condition, CONTINUE AT ANY
TestParameter, Measurement.PostOutput.Value, START
TestParameter, Measurement.PostOutput.Retention, OFF
TestParameter, Measurement.Bias.Source, -3, 0
TestParameter, Measurement.Bias.Compliance, 0.01, 0.1
TestParameter, Measurement.Monitor.Unit, SMU3:MP, SMU4:MP
TestParameter, Measurement.Monitor.Adc, HR ADC, HR ADC
TestParameter, Measurement.Monitor.Measurement, Compliance Side, Compliance Side
TestParameter, Measurement.Monitor.RangingMode, LIMITED, LIMITED
TestParameter, Measurement.Monitor.RangeBoundary, 1nA, 1nA
TestParameter, Measurement.Monitor.RangeRating, BY FULL RANGE, BY FULL RANGE
TestParameter, Measurement.Monitor.RangeRatingCoeff, 50, 50
TestParameter, Measurement.Timing.Hold, 0
TestParameter, Measurement.Timing.Delay, 0
TestParameter, Measurement.Adc.HighSpeed.Mode, AUTO
TestParameter, Measurement.Adc.HighSpeed.Coeff, 1
TestParameter, Measurement.Adc.HighResolution.AutoZero, OFF
TestParameter, Measurement.Adc.HighResolution.Mode, AUTO
TestParameter, Measurement.Adc.HighResolution.Coeff, 6
TestParameter, Measurement.WaitTime.Source.Coeff, 1
TestParameter, Measurement.WaitTime.Source.Offset, 0
TestParameter, Measurement.WaitTime.Monitor.Coeff, 1
TestParameter, Measurement.WaitTime.Monitor.Offset, 0
TestParameter, Output.Graph.Enabled, true
TestParameter, Output.Graph.AutoScaling, false
TestParameter, Output.Graph.XAxis.Data, V3
TestParameter, Output.Graph.XAxis.Scale, Linear
TestParameter, Output.Graph.XAxis.Left, -5
TestParameter, Output.Graph.XAxis.Right, 5
TestParameter, Output.Graph.XAxis.RunTimeAutoScale, true
TestParameter, Output.Graph.YAxis.Data, I3
TestParameter, Output.Graph.YAxis.Scale, Linear
TestParameter, Output.Graph.YAxis.Bottom, -0.1
TestParameter, Output.Graph.YAxis.Top, 0.1
TestParameter, Output.Graph.YAxis.Group, 
TestParameter, Output.Graph.YAxis.RunTimeAutoScale, true
TestParameter, Output.List.Data, V1, I1, V2, I2
TestParameter, AutoAnalysis.Interpolation, false
TestParameter, AutoAnalysis.Line1.Enabled, false
TestParameter, AutoAnalysis.Line1.Type, 1
TestParameter, AutoAnalysis.Line1.Fix, True
TestParameter, AutoAnalysis.Line1.YAxis, 0
TestParameter, AutoAnalysis.Line1.Point1.Type, 0
TestParameter, AutoAnalysis.Line1.Point1.XY.X, 
TestParameter, AutoAnalysis.Line1.Point1.XY.Y, 
TestParameter, AutoAnalysis.Line1.Point1.Data.Var, 
TestParameter, AutoAnalysis.Line1.Point1.Data.Condition, 
TestParameter, AutoAnalysis.Line1.Point1.Data.Start, false
TestParameter, AutoAnalysis.Line1.Point1.Data.StartVar, 
TestParameter, AutoAnalysis.Line1.Point1.Data.StartCondition, 
TestParameter, AutoAnalysis.Line1.Point2.Type, 0
TestParameter, AutoAnalysis.Line1.Point2.XY.X, 
TestParameter, AutoAnalysis.Line1.Point2.XY.Y, 
TestParameter, AutoAnalysis.Line1.Point2.Data.Var, 
TestParameter, AutoAnalysis.Line1.Point2.Data.Condition, 
TestParameter, AutoAnalysis.Line1.Point2.Data.Start, false
TestParameter, AutoAnalysis.Line1.Point2.Data.StartVar, 
TestParameter, AutoAnalysis.Line1.Point2.Data.StartCondition, 
TestParameter, AutoAnalysis.Line1.GradientExpr, 0
TestParameter, AutoAnalysis.Line2.Enabled, false
TestParameter, AutoAnalysis.Line2.Type, 1
TestParameter, AutoAnalysis.Line2.Fix, True
TestParameter, AutoAnalysis.Line2.YAxis, 0
TestParameter, AutoAnalysis.Line2.Point1.Type, 0
TestParameter, AutoAnalysis.Line2.Point1.XY.X, 
TestParameter, AutoAnalysis.Line2.Point1.XY.Y, 
TestParameter, AutoAnalysis.Line2.Point1.Data.Var, 
TestParameter, AutoAnalysis.Line2.Point1.Data.Condition, 
TestParameter, AutoAnalysis.Line2.Point1.Data.Start, false
TestParameter, AutoAnalysis.Line2.Point1.Data.StartVar, 
TestParameter, AutoAnalysis.Line2.Point1.Data.StartCondition, 
TestParameter, AutoAnalysis.Line2.Point2.Type, 0
TestParameter, AutoAnalysis.Line2.Point2.XY.X, 
TestParameter, AutoAnalysis.Line2.Point2.XY.Y, 
TestParameter, AutoAnalysis.Line2.Point2.Data.Var, 
TestParameter, AutoAnalysis.Line2.Point2.Data.Condition, 
TestParameter, AutoAnalysis.Line2.Point2.Data.Start, false
TestParameter, AutoAnalysis.Line2.Point2.Data.StartVar, 
TestParameter, AutoAnalysis.Line2.Point2.Data.StartCondition, 
TestParameter, AutoAnalysis.Line2.GradientExpr, 0
TestParameter, AutoAnalysis.Marker.Enabled, false
TestParameter, AutoAnalysis.Marker.Data.Var, 
TestParameter, AutoAnalysis.Marker.Data.Condition, 
TestParameter, AutoAnalysis.Marker.Data.Start, false
TestParameter, AutoAnalysis.Marker.Data.StartVar, 
TestParameter, AutoAnalysis.Marker.Data.StartCondition, 
MetaData, TestRecord.EntryPoint, true
MetaData, TestRecord.RecordTime, 03/06/2023 10:55:08
MetaData, TestRecord.TestTarget, 
MetaData, TestRecord.IterationIndex, 54
MetaData, TestRecord.Preservation, true
MetaData, TestRecord.Flag, 
MetaData, TestRecord.Remarks, 
MetaData, TestRecord.LinkKey, ece3e875-af71-4c6d-8be2-bc56db522829
Dimension1, 101, 101, 101, 101, 101, 101
Dimension2, 1, 1, 1, 1, 1, 1
DataName, V3, I3, V1, I1, V2, I2
DataValue, -3, -1.1398E-06, , , , 
DataValue, -2.92, -1.0414E-06, , , , 
DataValue, -2.84, -9.5301999999999994E-07, , , , 
DataValue, -2.7600000000000002, -8.6828E-07, , , , 
DataValue, -2.68, -7.9138E-07, , , , 
DataValue, -2.6, -7.206E-07, , , , 
DataValue, -2.52, -6.5462E-07, , , , 
DataValue, -2.44, -5.9218E-07, , , , 
DataValue, -2.36, -5.352E-07, , , , 
DataValue, -2.2800000000000002, -4.8142E-07, , , , 
DataValue, -2.2, -4.3438E-07, , , , 
DataValue, -2.12, -3.9013999999999997E-07, , , , 
DataValue, -2.04, -3.4908E-07, , , , 
DataValue, -1.96, -3.1052E-07, , , , 
DataValue, -1.8800000000000001, -2.7572E-07, , , , 
DataValue, -1.8, -2.4376E-07, , , , 
DataValue, -1.72, -2.1616E-07, , , , 
DataValue, -1.6400000000000001, -1.8913999999999999E-07, , , , 
DataValue, -1.56, -1.6581999999999999E-07, , , , 
DataValue, -1.48, -1.4378E-07, , , , 
DataValue, -1.4000000000000001, -1.2472E-07, , , , 
DataValue, -1.32, -1.0744E-07, , , , 
DataValue, -1.24, -9.2227E-08, , , , 
DataValue, -1.16, -7.86178E-08, , , , 
DataValue, -1.08, -6.68746E-08, , , , 
DataValue, -1, -5.6243199999999994E-08, , , , 
DataValue, -0.92, -4.70114E-08, , , , 
DataValue, -0.84, -3.90662E-08, , , , 
DataValue, -0.76, -3.20478E-08, , , , 
DataValue, -0.68, -2.6036399999999997E-08, , , , 
DataValue, -0.6, -2.0860999999999997E-08, , , , 
DataValue, -0.52, -1.6361999999999998E-08, , , , 
DataValue, -0.44, -1.26046E-08, , , , 
DataValue, -0.36, -9.4031E-09, , , , 
DataValue, -0.28, -6.6404E-09, , , , 
DataValue, -0.2, -4.2731E-09, , , , 
DataValue, -0.12, -2.2464E-09, , , , 
DataValue, -0.04, -6.2155000000000009E-10, , , , 
DataValue, 0.04, 4.8217E-10, , , , 
DataValue, 0.12, 1.0567E-09, , , , 
DataValue, 0.2, 1.3369E-09, , , , 
DataValue, 0.28, 1.5791E-09, , , , 
DataValue, 0.36, 1.8326E-09, , , , 
DataValue, 0.44, 2.1108E-09, , , , 
DataValue, 0.52, 2.4168999999999998E-09, , , , 
DataValue, 0.6, 2.7581E-09, , , , 
DataValue, 0.68, 3.1348E-09, , , , 
DataValue, 0.76, 3.5714E-09, , , , 
DataValue, 0.84, 4.0708E-09, , , , 
DataValue, 0.92, 4.6584E-09, , , , 
DataValue, 1, 5.3623E-09, , , , 
DataValue, 1.08, 6.1201E-09, , , , 
DataValue, 1.16, 7.1895E-09, , , , 
DataValue, 1.24, 8.4335E-09, , , , 
DataValue, 1.32, 9.8604E-09, , , , 
DataValue, 1.4000000000000001, 1.16584E-08, , , , 
DataValue, 1.48, 1.4114799999999998E-08, , , , 
DataValue, 1.56, 1.6967E-08, , , , 
DataValue, 1.6400000000000001, 1.9994799999999997E-08, , , , 
DataValue, 1.72, 2.4019599999999998E-08, , , , 
DataValue, 1.8, 2.89718E-08, , , , 
DataValue, 1.8800000000000001, 3.48702E-08, , , , 
DataValue, 1.96, 4.1297799999999993E-08, , , , 
DataValue, 2.04, 4.9517599999999992E-08, , , , 
DataValue, 2.12, 5.8418399999999996E-08, , , , 
DataValue, 2.2, 7.1396999999999987E-08, , , , 
DataValue, 2.2800000000000002, 8.6279199999999986E-08, , , , 
DataValue, 2.36, 1.03816E-07, , , , 
DataValue, 2.44, 1.2225999999999998E-07, , , , 
DataValue, 2.52, 1.4684E-07, , , , 
DataValue, 2.6, 1.7612E-07, , , , 
DataValue, 2.68, 2.1651999999999998E-07, , , , 
DataValue, 2.7600000000000002, 2.6823999999999997E-07, , , , 
DataValue, 2.84, 3.2806E-07, , , , 
DataValue, 2.92, 4.0708E-07, , , , 
DataValue, 3, 5.1718E-07, , , , 
DataValue, 3.08, 6.6953999999999995E-07, , , , 
DataValue, 3.16, 8.5866E-07, , , , 
DataValue, 3.24, 1.1719000000000002E-06, , , , 
DataValue, 3.3200000000000003, 1.5944000000000001E-06, , , , 
DataValue, 3.4, 2.2985E-06, , , , 
DataValue, 3.48, 3.2736000000000003E-06, , , , 
DataValue, 3.56, 4.6854E-06, , , , 
DataValue, 3.64, 6.955E-06, , , , 
DataValue, 3.72, 9.8989000000000011E-06, , , , 
DataValue, 3.8000000000000003, 1.7624E-05, , , , 
DataValue, 3.88, 2.2588E-05, , , , 
DataValue, 3.96, 2.9834000000000003E-05, , , , 
DataValue, 4.04, 3.8882E-05, , , , 
DataValue, 4.12, 5.284E-05, , , , 
DataValue, 4.2, 6.8598E-05, , , , 
DataValue, 4.28, 9.415E-05, , , , 
DataValue, 4.36, 0.00014736, , , , 
DataValue, 4.44, 0.00018958, , , , 
DataValue, 4.5200000000000005, 0.0002518, , , , 
DataValue, 4.6000000000000005, 0.00033058, , , , 
DataValue, 4.68, 0.00041874, , , , 
DataValue, 4.76, 0.00052328, , , , 
DataValue, 4.84, 0.00064956000000000009, , , , 
DataValue, 4.92, 0.00079838, , , , 
DataValue, 5, 0.0009579, , , , 