
SetupTitle, R-V
ApplicationTest, R-V, Public
TestParameter, Name, Port1, Port2, V1Start, V1Stop, V1Step, V2, I1Limit, IntegTime, HoldTime, DelayTime, Port1MinRng
TestParameter, Value, SMU1:MP	MPSMU, SMU2:MP	MPSMU, 0, 1, 0.05, 0, 0.01, MEDIUM, 0, 0, 1nA
DutParameter, Name, L, W, Temp
DutParameter, Value, 1E-05, 1E-06, 25
MetaData, TestRecord.EntryPoint, true
MetaData, TestRecord.RecordTime, 03/04/2023 17:11:25
MetaData, TestRecord.TestTarget, 
MetaData, TestRecord.IterationIndex, 108
MetaData, TestRecord.Preservation, true
MetaData, TestRecord.Flag, 
MetaData, TestRecord.Remarks, 
MetaData, TestRecord.LinkKey, 4c469831-2e44-4509-95c4-1d24793602e9
Dimension1, 21, 21, 21, 21
Dimension2, 1, 1, 1, 1
DataName, V1, I1, R, Rsheet
DataValue, 0, -1.9646099999999998E-08, -0, -0
DataValue, 0.05, 9.1663800000000008E-05, 545.47160383924734, 54.547160383924727
DataValue, 0.1, 0.00018323000000000002, 545.76215685204386, 54.576215685204374
DataValue, 0.15, 0.00027494600000000003, 545.56167392869861, 54.55616739286986
DataValue, 0.2, 0.000366475, 545.73981854151032, 54.573981854151029
DataValue, 0.25, 0.000458171, 545.6478039858481, 54.5647803985848
DataValue, 0.3, 0.000549739, 545.71351132082668, 54.571351132082661
DataValue, 0.35000000000000003, 0.000641446, 545.64218967769693, 54.564218967769683
DataValue, 0.4, 0.00073301700000000009, 545.68993624977315, 54.56899362497731
DataValue, 0.45, 0.0008245660000000001, 545.74163863171646, 54.574163863171634
DataValue, 0.5, 0.000916193, 545.73654240973246, 54.573654240973241
DataValue, 0.55, 0.0010077110000000001, 545.79140249535828, 54.579140249535818
DataValue, 0.6, 0.0010992110000000001, 545.84606595094112, 54.584606595094108
DataValue, 0.65, 0.0011907600000000001, 545.86986462427353, 54.58698646242734
DataValue, 0.70000000000000007, 0.00128232, 545.88558238193275, 54.588558238193265
DataValue, 0.75, 0.00137373, 545.95881286715723, 54.595881286715716
DataValue, 0.8, 0.00146518, 546.00799901718563, 54.60079990171856
DataValue, 0.85000000000000009, 0.00155655, 546.07947062413677, 54.607947062413672
DataValue, 0.9, 0.00164802, 546.10987730731426, 54.610987730731424
DataValue, 0.95000000000000007, 0.00173942, 546.15906451575813, 54.61590645157581
DataValue, 1, 0.0018307, 546.239143497023, 54.6239143497023
SetupTitle, R-V
PrimitiveTest, I/V Sweep
TestParameter, Context.MainFrame, B1500A
TestParameter, Channel.UnitType, SMU, SMU
TestParameter, Channel.Unit, Port1, Port2
TestParameter, Channel.IName, I1, I2
TestParameter, Channel.VName, V1, V2
TestParameter, Channel.Mode, V, V
TestParameter, Channel.Func, VAR1, CONST
TestParameter, Channel.Index, 
TestParameter, Channel.Time, 
TestParameter, Measurement.Port.Unit, Port1, Port2
TestParameter, Measurement.Port.SeriesResistor, NONE, NONE
TestParameter, Measurement.Port.Filter, OFF, OFF
TestParameter, Measurement.Port.OutputVoltageComparison, 0, 0
TestParameter, Measurement.Primary.Locus, Single
TestParameter, Measurement.Primary.Scale, LINEAR
TestParameter, Measurement.Primary.Start, V1Start
TestParameter, Measurement.Primary.Stop, V1Stop
TestParameter, Measurement.Primary.Step, V1Step
TestParameter, Measurement.Primary.Compliance, I1Limit
TestParameter, Measurement.Primary.PowerCompliance, 0
TestParameter, Measurement.Aborting.Condition, CONTINUE AT ANY
TestParameter, Measurement.PostOutput.Value, START
TestParameter, Measurement.PostOutput.Retention, OFF
TestParameter, Measurement.Bias.Source, 0, V2
TestParameter, Measurement.Bias.Compliance, 0.01, I1Limit
TestParameter, Measurement.Monitor.Unit, SMU:=Port1, SMU:=Port2
TestParameter, Measurement.Monitor.Adc, HR ADC, HR ADC
TestParameter, Measurement.Monitor.Measurement, Compliance Side, Compliance Side
TestParameter, Measurement.Monitor.RangingMode, LIMITED, LIMITED
TestParameter, Measurement.Monitor.RangeBoundary, Port1MinRng, 1nA
TestParameter, Measurement.Monitor.RangeRating, BY FULL RANGE, BY FULL RANGE
TestParameter, Measurement.Monitor.RangeRatingCoeff, 50, 50
TestParameter, Measurement.Timing.Hold, HoldTime
TestParameter, Measurement.Timing.Delay, DelayTime
TestParameter, Measurement.Adc.HighSpeed.Mode, AUTO
TestParameter, Measurement.Adc.HighSpeed.Coeff, 1
TestParameter, Measurement.Adc.HighResolution.AutoZero, ON
TestParameter, Measurement.Adc.HighResolution.Mode, IntegMode
TestParameter, Measurement.Adc.HighResolution.Coeff, AdcFactor
TestParameter, Measurement.WaitTime.Source.Coeff, 1
TestParameter, Measurement.WaitTime.Source.Offset, 0
TestParameter, Measurement.WaitTime.Monitor.Coeff, 1
TestParameter, Measurement.WaitTime.Monitor.Offset, 0
TestParameter, Function.User.Name, R, Rsheet
TestParameter, Function.User.Unit, ohm, ohm/sheet
TestParameter, Function.User.Definition, V1/I1, R*W/L
TestParameter, Output.Graph.Enabled, true
TestParameter, Output.Graph.AutoScaling, false
TestParameter, Output.Graph.XAxis.Data, V1
TestParameter, Output.Graph.XAxis.Scale, Linear
TestParameter, Output.Graph.XAxis.Left, V1Start
TestParameter, Output.Graph.XAxis.Right, V1Stop
TestParameter, Output.Graph.XAxis.RunTimeAutoScale, false
TestParameter, Output.Graph.YAxis.Data, R, I1
TestParameter, Output.Graph.YAxis.Scale, Linear, Linear
TestParameter, Output.Graph.YAxis.Bottom, 0, 0
TestParameter, Output.Graph.YAxis.Top, V1Stop/I1Limit, I1Limit
TestParameter, Output.Graph.YAxis.Group, , 
TestParameter, Output.Graph.YAxis.RunTimeAutoScale, false, false
TestParameter, Output.List.Data, V1, I1, R, Rsheet
TestParameter, AutoAnalysis.Interpolation, false
TestParameter, AutoAnalysis.Line1.Enabled, false
TestParameter, AutoAnalysis.Line1.Type, 1
TestParameter, AutoAnalysis.Line1.Fix, False
TestParameter, AutoAnalysis.Line1.YAxis, 0
TestParameter, AutoAnalysis.Line1.Point1.Type, 0
TestParameter, AutoAnalysis.Line1.Point1.XY.X, 
TestParameter, AutoAnalysis.Line1.Point1.XY.Y, 
TestParameter, AutoAnalysis.Line1.Point1.Data.Var, 
TestParameter, AutoAnalysis.Line1.Point1.Data.Condition, 
TestParameter, AutoAnalysis.Line1.Point1.Data.Start, false
TestParameter, AutoAnalysis.Line1.Point1.Data.StartVar, 
TestParameter, AutoAnalysis.Line1.Point1.Data.StartCondition, 
TestParameter, AutoAnalysis.Line1.Point2.Type, 0
TestParameter, AutoAnalysis.Line1.Point2.XY.X, 
TestParameter, AutoAnalysis.Line1.Point2.XY.Y, 
TestParameter, AutoAnalysis.Line1.Point2.Data.Var, 
TestParameter, AutoAnalysis.Line1.Point2.Data.Condition, 
TestParameter, AutoAnalysis.Line1.Point2.Data.Start, false
TestParameter, AutoAnalysis.Line1.Point2.Data.StartVar, 
TestParameter, AutoAnalysis.Line1.Point2.Data.StartCondition, 
TestParameter, AutoAnalysis.Line1.GradientExpr, 0
TestParameter, AutoAnalysis.Line2.Enabled, false
TestParameter, AutoAnalysis.Line2.Type, 1
TestParameter, AutoAnalysis.Line2.Fix, False
TestParameter, AutoAnalysis.Line2.YAxis, 0
TestParameter, AutoAnalysis.Line2.Point1.Type, 0
TestParameter, AutoAnalysis.Line2.Point1.XY.X, 
TestParameter, AutoAnalysis.Line2.Point1.XY.Y, 
TestParameter, AutoAnalysis.Line2.Point1.Data.Var, 
TestParameter, AutoAnalysis.Line2.Point1.Data.Condition, 
TestParameter, AutoAnalysis.Line2.Point1.Data.Start, false
TestParameter, AutoAnalysis.Line2.Point1.Data.StartVar, 
TestParameter, AutoAnalysis.Line2.Point1.Data.StartCondition, 
TestParameter, AutoAnalysis.Line2.Point2.Type, 0
TestParameter, AutoAnalysis.Line2.Point2.XY.X, 
TestParameter, AutoAnalysis.Line2.Point2.XY.Y, 
TestParameter, AutoAnalysis.Line2.Point2.Data.Var, 
TestParameter, AutoAnalysis.Line2.Point2.Data.Condition, 
TestParameter, AutoAnalysis.Line2.Point2.Data.Start, false
TestParameter, AutoAnalysis.Line2.Point2.Data.StartVar, 
TestParameter, AutoAnalysis.Line2.Point2.Data.StartCondition, 
TestParameter, AutoAnalysis.Line2.GradientExpr, 0
TestParameter, AutoAnalysis.Marker.Enabled, false
TestParameter, AutoAnalysis.Marker.Data.Var, 
TestParameter, AutoAnalysis.Marker.Data.Condition, 
TestParameter, AutoAnalysis.Marker.Data.Start, false
TestParameter, AutoAnalysis.Marker.Data.StartVar, 
TestParameter, AutoAnalysis.Marker.Data.StartCondition, 
MetaData, TestRecord.EntryPoint, false
MetaData, TestRecord.RecordTime, 03/04/2023 17:11:25
MetaData, TestRecord.TestTarget, 
MetaData, TestRecord.IterationIndex, 108
MetaData, TestRecord.Preservation, true
MetaData, TestRecord.Flag, 
MetaData, TestRecord.Remarks, 
MetaData, TestRecord.LinkKey, 4c469831-2e44-4509-95c4-1d24793602e9
Dimension1, 21, 21, 21, 21
Dimension2, 1, 1, 1, 1
DataName, V1, I1, R, Rsheet
DataValue, 0, -1.9646099999999998E-08, -0, -0
DataValue, 0.05, 9.1663800000000008E-05, 545.47160383924734, 54.547160383924727
DataValue, 0.1, 0.00018323000000000002, 545.76215685204386, 54.576215685204374
DataValue, 0.15, 0.00027494600000000003, 545.56167392869861, 54.55616739286986
DataValue, 0.2, 0.000366475, 545.73981854151032, 54.573981854151029
DataValue, 0.25, 0.000458171, 545.6478039858481, 54.5647803985848
DataValue, 0.3, 0.000549739, 545.71351132082668, 54.571351132082661
DataValue, 0.35000000000000003, 0.000641446, 545.64218967769693, 54.564218967769683
DataValue, 0.4, 0.00073301700000000009, 545.68993624977315, 54.56899362497731
DataValue, 0.45, 0.0008245660000000001, 545.74163863171646, 54.574163863171634
DataValue, 0.5, 0.000916193, 545.73654240973246, 54.573654240973241
DataValue, 0.55, 0.0010077110000000001, 545.79140249535828, 54.579140249535818
DataValue, 0.6, 0.0010992110000000001, 545.84606595094112, 54.584606595094108
DataValue, 0.65, 0.0011907600000000001, 545.86986462427353, 54.58698646242734
DataValue, 0.70000000000000007, 0.00128232, 545.88558238193275, 54.588558238193265
DataValue, 0.75, 0.00137373, 545.95881286715723, 54.595881286715716
DataValue, 0.8, 0.00146518, 546.00799901718563, 54.60079990171856
DataValue, 0.85000000000000009, 0.00155655, 546.07947062413677, 54.607947062413672
DataValue, 0.9, 0.00164802, 546.10987730731426, 54.610987730731424
DataValue, 0.95000000000000007, 0.00173942, 546.15906451575813, 54.61590645157581
DataValue, 1, 0.0018307, 546.239143497023, 54.6239143497023