
SetupTitle, R-V
ApplicationTest, R-V, Public
TestParameter, Name, Port1, Port2, V1Start, V1Stop, V1Step, V2, I1Limit, IntegTime, HoldTime, DelayTime, Port1MinRng
TestParameter, Value, SMU1:MP	MPSMU, SMU2:MP	MPSMU, 0, 1, 0.05, 0, 0.01, MEDIUM, 0, 0, 1nA
DutParameter, Name, L, W, Temp
DutParameter, Value, 1E-05, 1E-06, 25
MetaData, TestRecord.EntryPoint, true
MetaData, TestRecord.RecordTime, 03/04/2023 17:12:28
MetaData, TestRecord.TestTarget, 
MetaData, TestRecord.IterationIndex, 110
MetaData, TestRecord.Preservation, true
MetaData, TestRecord.Flag, 
MetaData, TestRecord.Remarks, 
MetaData, TestRecord.LinkKey, 997e06f9-6fa5-4585-a84f-bfdd6f60ca65
Dimension1, 21, 21, 21, 21
Dimension2, 1, 1, 1, 1
DataName, V1, I1, R, Rsheet
DataValue, 0, 9.96978E-09, 0, 0
DataValue, 0.05, 2.7341200000000002E-05, 1828.7419718227436, 182.87419718227432
DataValue, 0.1, 5.46504E-05, 1829.8127735570097, 182.98127735570094
DataValue, 0.15, 8.20054E-05, 1829.1478366058821, 182.91478366058817
DataValue, 0.2, 0.0001093025, 1829.7843141739668, 182.97843141739665
DataValue, 0.25, 0.00013664700000000002, 1829.5315667376522, 182.95315667376519
DataValue, 0.3, 0.000163957, 1829.7480436943831, 182.97480436943829
DataValue, 0.35000000000000003, 0.00019130200000000002, 1829.5679083334205, 182.95679083334204
DataValue, 0.4, 0.000218618, 1829.6755070488248, 182.96755070488246
DataValue, 0.45, 0.00024592, 1829.8633702016916, 182.98633702016915
DataValue, 0.5, 0.00027324900000000004, 1829.8328630662873, 182.98328630662871
DataValue, 0.55, 0.000300546, 1830.0027283677043, 183.00027283677042
DataValue, 0.6, 0.000327839, 1830.1666366722689, 183.01666366722685
DataValue, 0.65, 0.00035514300000000004, 1830.2486603987688, 183.02486603987686
DataValue, 0.70000000000000007, 0.000382457, 1830.2711154456581, 183.0271115445658
DataValue, 0.75, 0.00040971800000000005, 1830.5273383156218, 183.05273383156217
DataValue, 0.8, 0.00043700700000000005, 1830.6342918992143, 183.06342918992141
DataValue, 0.85000000000000009, 0.00046425400000000004, 1830.8942949333771, 183.08942949333769
DataValue, 0.9, 0.000491544, 1830.9652848981984, 183.0965284898198
DataValue, 0.95000000000000007, 0.000518797, 1831.1593937513133, 183.11593937513129
DataValue, 1, 0.000546028, 1831.4079131473109, 183.14079131473108
SetupTitle, R-V
PrimitiveTest, I/V Sweep
TestParameter, Context.MainFrame, B1500A
TestParameter, Channel.UnitType, SMU, SMU
TestParameter, Channel.Unit, Port1, Port2
TestParameter, Channel.IName, I1, I2
TestParameter, Channel.VName, V1, V2
TestParameter, Channel.Mode, V, V
TestParameter, Channel.Func, VAR1, CONST
TestParameter, Channel.Index, 
TestParameter, Channel.Time, 
TestParameter, Measurement.Port.Unit, Port1, Port2
TestParameter, Measurement.Port.SeriesResistor, NONE, NONE
TestParameter, Measurement.Port.Filter, OFF, OFF
TestParameter, Measurement.Port.OutputVoltageComparison, 0, 0
TestParameter, Measurement.Primary.Locus, Single
TestParameter, Measurement.Primary.Scale, LINEAR
TestParameter, Measurement.Primary.Start, V1Start
TestParameter, Measurement.Primary.Stop, V1Stop
TestParameter, Measurement.Primary.Step, V1Step
TestParameter, Measurement.Primary.Compliance, I1Limit
TestParameter, Measurement.Primary.PowerCompliance, 0
TestParameter, Measurement.Aborting.Condition, CONTINUE AT ANY
TestParameter, Measurement.PostOutput.Value, START
TestParameter, Measurement.PostOutput.Retention, OFF
TestParameter, Measurement.Bias.Source, 0, V2
TestParameter, Measurement.Bias.Compliance, 0.01, I1Limit
TestParameter, Measurement.Monitor.Unit, SMU:=Port1, SMU:=Port2
TestParameter, Measurement.Monitor.Adc, HR ADC, HR ADC
TestParameter, Measurement.Monitor.Measurement, Compliance Side, Compliance Side
TestParameter, Measurement.Monitor.RangingMode, LIMITED, LIMITED
TestParameter, Measurement.Monitor.RangeBoundary, Port1MinRng, 1nA
TestParameter, Measurement.Monitor.RangeRating, BY FULL RANGE, BY FULL RANGE
TestParameter, Measurement.Monitor.RangeRatingCoeff, 50, 50
TestParameter, Measurement.Timing.Hold, HoldTime
TestParameter, Measurement.Timing.Delay, DelayTime
TestParameter, Measurement.Adc.HighSpeed.Mode, AUTO
TestParameter, Measurement.Adc.HighSpeed.Coeff, 1
TestParameter, Measurement.Adc.HighResolution.AutoZero, ON
TestParameter, Measurement.Adc.HighResolution.Mode, IntegMode
TestParameter, Measurement.Adc.HighResolution.Coeff, AdcFactor
TestParameter, Measurement.WaitTime.Source.Coeff, 1
TestParameter, Measurement.WaitTime.Source.Offset, 0
TestParameter, Measurement.WaitTime.Monitor.Coeff, 1
TestParameter, Measurement.WaitTime.Monitor.Offset, 0
TestParameter, Function.User.Name, R, Rsheet
TestParameter, Function.User.Unit, ohm, ohm/sheet
TestParameter, Function.User.Definition, V1/I1, R*W/L
TestParameter, Output.Graph.Enabled, true
TestParameter, Output.Graph.AutoScaling, false
TestParameter, Output.Graph.XAxis.Data, V1
TestParameter, Output.Graph.XAxis.Scale, Linear
TestParameter, Output.Graph.XAxis.Left, V1Start
TestParameter, Output.Graph.XAxis.Right, V1Stop
TestParameter, Output.Graph.XAxis.RunTimeAutoScale, false
TestParameter, Output.Graph.YAxis.Data, R, I1
TestParameter, Output.Graph.YAxis.Scale, Linear, Linear
TestParameter, Output.Graph.YAxis.Bottom, 0, 0
TestParameter, Output.Graph.YAxis.Top, V1Stop/I1Limit, I1Limit
TestParameter, Output.Graph.YAxis.Group, , 
TestParameter, Output.Graph.YAxis.RunTimeAutoScale, false, false
TestParameter, Output.List.Data, V1, I1, R, Rsheet
TestParameter, AutoAnalysis.Interpolation, false
TestParameter, AutoAnalysis.Line1.Enabled, false
TestParameter, AutoAnalysis.Line1.Type, 1
TestParameter, AutoAnalysis.Line1.Fix, False
TestParameter, AutoAnalysis.Line1.YAxis, 0
TestParameter, AutoAnalysis.Line1.Point1.Type, 0
TestParameter, AutoAnalysis.Line1.Point1.XY.X, 
TestParameter, AutoAnalysis.Line1.Point1.XY.Y, 
TestParameter, AutoAnalysis.Line1.Point1.Data.Var, 
TestParameter, AutoAnalysis.Line1.Point1.Data.Condition, 
TestParameter, AutoAnalysis.Line1.Point1.Data.Start, false
TestParameter, AutoAnalysis.Line1.Point1.Data.StartVar, 
TestParameter, AutoAnalysis.Line1.Point1.Data.StartCondition, 
TestParameter, AutoAnalysis.Line1.Point2.Type, 0
TestParameter, AutoAnalysis.Line1.Point2.XY.X, 
TestParameter, AutoAnalysis.Line1.Point2.XY.Y, 
TestParameter, AutoAnalysis.Line1.Point2.Data.Var, 
TestParameter, AutoAnalysis.Line1.Point2.Data.Condition, 
TestParameter, AutoAnalysis.Line1.Point2.Data.Start, false
TestParameter, AutoAnalysis.Line1.Point2.Data.StartVar, 
TestParameter, AutoAnalysis.Line1.Point2.Data.StartCondition, 
TestParameter, AutoAnalysis.Line1.GradientExpr, 0
TestParameter, AutoAnalysis.Line2.Enabled, false
TestParameter, AutoAnalysis.Line2.Type, 1
TestParameter, AutoAnalysis.Line2.Fix, False
TestParameter, AutoAnalysis.Line2.YAxis, 0
TestParameter, AutoAnalysis.Line2.Point1.Type, 0
TestParameter, AutoAnalysis.Line2.Point1.XY.X, 
TestParameter, AutoAnalysis.Line2.Point1.XY.Y, 
TestParameter, AutoAnalysis.Line2.Point1.Data.Var, 
TestParameter, AutoAnalysis.Line2.Point1.Data.Condition, 
TestParameter, AutoAnalysis.Line2.Point1.Data.Start, false
TestParameter, AutoAnalysis.Line2.Point1.Data.StartVar, 
TestParameter, AutoAnalysis.Line2.Point1.Data.StartCondition, 
TestParameter, AutoAnalysis.Line2.Point2.Type, 0
TestParameter, AutoAnalysis.Line2.Point2.XY.X, 
TestParameter, AutoAnalysis.Line2.Point2.XY.Y, 
TestParameter, AutoAnalysis.Line2.Point2.Data.Var, 
TestParameter, AutoAnalysis.Line2.Point2.Data.Condition, 
TestParameter, AutoAnalysis.Line2.Point2.Data.Start, false
TestParameter, AutoAnalysis.Line2.Point2.Data.StartVar, 
TestParameter, AutoAnalysis.Line2.Point2.Data.StartCondition, 
TestParameter, AutoAnalysis.Line2.GradientExpr, 0
TestParameter, AutoAnalysis.Marker.Enabled, false
TestParameter, AutoAnalysis.Marker.Data.Var, 
TestParameter, AutoAnalysis.Marker.Data.Condition, 
TestParameter, AutoAnalysis.Marker.Data.Start, false
TestParameter, AutoAnalysis.Marker.Data.StartVar, 
TestParameter, AutoAnalysis.Marker.Data.StartCondition, 
MetaData, TestRecord.EntryPoint, false
MetaData, TestRecord.RecordTime, 03/04/2023 17:12:28
MetaData, TestRecord.TestTarget, 
MetaData, TestRecord.IterationIndex, 110
MetaData, TestRecord.Preservation, true
MetaData, TestRecord.Flag, 
MetaData, TestRecord.Remarks, 
MetaData, TestRecord.LinkKey, 997e06f9-6fa5-4585-a84f-bfdd6f60ca65
Dimension1, 21, 21, 21, 21
Dimension2, 1, 1, 1, 1
DataName, V1, I1, R, Rsheet
DataValue, 0, 9.96978E-09, 0, 0
DataValue, 0.05, 2.7341200000000002E-05, 1828.7419718227436, 182.87419718227432
DataValue, 0.1, 5.46504E-05, 1829.8127735570097, 182.98127735570094
DataValue, 0.15, 8.20054E-05, 1829.1478366058821, 182.91478366058817
DataValue, 0.2, 0.0001093025, 1829.7843141739668, 182.97843141739665
DataValue, 0.25, 0.00013664700000000002, 1829.5315667376522, 182.95315667376519
DataValue, 0.3, 0.000163957, 1829.7480436943831, 182.97480436943829
DataValue, 0.35000000000000003, 0.00019130200000000002, 1829.5679083334205, 182.95679083334204
DataValue, 0.4, 0.000218618, 1829.6755070488248, 182.96755070488246
DataValue, 0.45, 0.00024592, 1829.8633702016916, 182.98633702016915
DataValue, 0.5, 0.00027324900000000004, 1829.8328630662873, 182.98328630662871
DataValue, 0.55, 0.000300546, 1830.0027283677043, 183.00027283677042
DataValue, 0.6, 0.000327839, 1830.1666366722689, 183.01666366722685
DataValue, 0.65, 0.00035514300000000004, 1830.2486603987688, 183.02486603987686
DataValue, 0.70000000000000007, 0.000382457, 1830.2711154456581, 183.0271115445658
DataValue, 0.75, 0.00040971800000000005, 1830.5273383156218, 183.05273383156217
DataValue, 0.8, 0.00043700700000000005, 1830.6342918992143, 183.06342918992141
DataValue, 0.85000000000000009, 0.00046425400000000004, 1830.8942949333771, 183.08942949333769
DataValue, 0.9, 0.000491544, 1830.9652848981984, 183.0965284898198
DataValue, 0.95000000000000007, 0.000518797, 1831.1593937513133, 183.11593937513129
DataValue, 1, 0.000546028, 1831.4079131473109, 183.14079131473108