
SetupTitle, R-V
ApplicationTest, R-V, Public
TestParameter, Name, Port1, Port2, V1Start, V1Stop, V1Step, V2, I1Limit, IntegTime, HoldTime, DelayTime, Port1MinRng
TestParameter, Value, SMU1:MP	MPSMU, SMU2:MP	MPSMU, 0, 1, 0.05, 0, 0.01, MEDIUM, 0, 0, 1nA
DutParameter, Name, L, W, Temp
DutParameter, Value, 1E-05, 1E-06, 25
MetaData, TestRecord.EntryPoint, true
MetaData, TestRecord.RecordTime, 03/04/2023 18:10:17
MetaData, TestRecord.TestTarget, 
MetaData, TestRecord.IterationIndex, 197
MetaData, TestRecord.Preservation, true
MetaData, TestRecord.Flag, 
MetaData, TestRecord.Remarks, 
MetaData, TestRecord.LinkKey, 3ae9c3c9-0d0c-4c16-9af9-988250f4eeb3
Dimension1, 21, 21, 21, 21
Dimension2, 1, 1, 1, 1
DataName, V1, I1, R, Rsheet
DataValue, 0, 2.2800000000000004E-13, 0, 0
DataValue, 0.05, 1.9200000000000002E-13, 260416666666.66666, 26041666666.666664
DataValue, 0.1, 5.7700000000000007E-13, 173310225303.29288, 17331022530.329285
DataValue, 0.15, 3.8500000000000003E-13, 389610389610.38959, 38961038961.038956
DataValue, 0.2, 7.9300000000000005E-13, 252206809583.85877, 25220680958.385876
DataValue, 0.25, 7.4300000000000007E-13, 336473755047.10632, 33647375504.710629
DataValue, 0.3, 6.15E-13, 487804878048.78046, 48780487804.878036
DataValue, 0.35000000000000003, 8.24E-13, 424757281553.39807, 42475728155.339806
DataValue, 0.4, 9.29E-13, 430570505920.34448, 43057050592.034439
DataValue, 0.45, 7.33E-13, 613915416098.22644, 61391541609.822639
DataValue, 0.5, 8.5500000000000009E-13, 584795321637.42688, 58479532163.742683
DataValue, 0.55, 1.09E-12, 504587155963.3028, 50458715596.330269
DataValue, 0.6, 8.65E-13, 693641618497.10974, 69364161849.710968
DataValue, 0.65, 8.48E-13, 766509433962.26416, 76650943396.22641
DataValue, 0.70000000000000007, 1.201E-12, 582847626977.5188, 58284762697.751877
DataValue, 0.75, 9.0900000000000006E-13, 825082508250.82507, 82508250825.082489
DataValue, 0.8, 1.303E-12, 613967766692.24866, 61396776669.224861
DataValue, 0.85000000000000009, 1.092E-12, 778388278388.27844, 77838827838.827835
DataValue, 0.9, 1.3530000000000002E-12, 665188470066.5188, 66518847006.651871
DataValue, 0.95000000000000007, 1.1500000000000002E-12, 826086956521.73914, 82608695652.1739
DataValue, 1, 1.322E-12, 756429652042.36011, 75642965204.236
SetupTitle, R-V
PrimitiveTest, I/V Sweep
TestParameter, Context.MainFrame, B1500A
TestParameter, Channel.UnitType, SMU, SMU
TestParameter, Channel.Unit, Port1, Port2
TestParameter, Channel.IName, I1, I2
TestParameter, Channel.VName, V1, V2
TestParameter, Channel.Mode, V, V
TestParameter, Channel.Func, VAR1, CONST
TestParameter, Channel.Index, 
TestParameter, Channel.Time, 
TestParameter, Measurement.Port.Unit, Port1, Port2
TestParameter, Measurement.Port.SeriesResistor, NONE, NONE
TestParameter, Measurement.Port.Filter, OFF, OFF
TestParameter, Measurement.Port.OutputVoltageComparison, 0, 0
TestParameter, Measurement.Primary.Locus, Single
TestParameter, Measurement.Primary.Scale, LINEAR
TestParameter, Measurement.Primary.Start, V1Start
TestParameter, Measurement.Primary.Stop, V1Stop
TestParameter, Measurement.Primary.Step, V1Step
TestParameter, Measurement.Primary.Compliance, I1Limit
TestParameter, Measurement.Primary.PowerCompliance, 0
TestParameter, Measurement.Aborting.Condition, CONTINUE AT ANY
TestParameter, Measurement.PostOutput.Value, START
TestParameter, Measurement.PostOutput.Retention, OFF
TestParameter, Measurement.Bias.Source, 0, V2
TestParameter, Measurement.Bias.Compliance, 0.01, I1Limit
TestParameter, Measurement.Monitor.Unit, SMU:=Port1, SMU:=Port2
TestParameter, Measurement.Monitor.Adc, HR ADC, HR ADC
TestParameter, Measurement.Monitor.Measurement, Compliance Side, Compliance Side
TestParameter, Measurement.Monitor.RangingMode, LIMITED, LIMITED
TestParameter, Measurement.Monitor.RangeBoundary, Port1MinRng, 1nA
TestParameter, Measurement.Monitor.RangeRating, BY FULL RANGE, BY FULL RANGE
TestParameter, Measurement.Monitor.RangeRatingCoeff, 50, 50
TestParameter, Measurement.Timing.Hold, HoldTime
TestParameter, Measurement.Timing.Delay, DelayTime
TestParameter, Measurement.Adc.HighSpeed.Mode, AUTO
TestParameter, Measurement.Adc.HighSpeed.Coeff, 1
TestParameter, Measurement.Adc.HighResolution.AutoZero, ON
TestParameter, Measurement.Adc.HighResolution.Mode, IntegMode
TestParameter, Measurement.Adc.HighResolution.Coeff, AdcFactor
TestParameter, Measurement.WaitTime.Source.Coeff, 1
TestParameter, Measurement.WaitTime.Source.Offset, 0
TestParameter, Measurement.WaitTime.Monitor.Coeff, 1
TestParameter, Measurement.WaitTime.Monitor.Offset, 0
TestParameter, Function.User.Name, R, Rsheet
TestParameter, Function.User.Unit, ohm, ohm/sheet
TestParameter, Function.User.Definition, V1/I1, R*W/L
TestParameter, Output.Graph.Enabled, true
TestParameter, Output.Graph.AutoScaling, false
TestParameter, Output.Graph.XAxis.Data, V1
TestParameter, Output.Graph.XAxis.Scale, Linear
TestParameter, Output.Graph.XAxis.Left, V1Start
TestParameter, Output.Graph.XAxis.Right, V1Stop
TestParameter, Output.Graph.XAxis.RunTimeAutoScale, false
TestParameter, Output.Graph.YAxis.Data, R, I1
TestParameter, Output.Graph.YAxis.Scale, Linear, Linear
TestParameter, Output.Graph.YAxis.Bottom, 0, 0
TestParameter, Output.Graph.YAxis.Top, V1Stop/I1Limit, I1Limit
TestParameter, Output.Graph.YAxis.Group, , 
TestParameter, Output.Graph.YAxis.RunTimeAutoScale, false, false
TestParameter, Output.List.Data, V1, I1, R, Rsheet
TestParameter, AutoAnalysis.Interpolation, false
TestParameter, AutoAnalysis.Line1.Enabled, false
TestParameter, AutoAnalysis.Line1.Type, 1
TestParameter, AutoAnalysis.Line1.Fix, False
TestParameter, AutoAnalysis.Line1.YAxis, 0
TestParameter, AutoAnalysis.Line1.Point1.Type, 0
TestParameter, AutoAnalysis.Line1.Point1.XY.X, 
TestParameter, AutoAnalysis.Line1.Point1.XY.Y, 
TestParameter, AutoAnalysis.Line1.Point1.Data.Var, 
TestParameter, AutoAnalysis.Line1.Point1.Data.Condition, 
TestParameter, AutoAnalysis.Line1.Point1.Data.Start, false
TestParameter, AutoAnalysis.Line1.Point1.Data.StartVar, 
TestParameter, AutoAnalysis.Line1.Point1.Data.StartCondition, 
TestParameter, AutoAnalysis.Line1.Point2.Type, 0
TestParameter, AutoAnalysis.Line1.Point2.XY.X, 
TestParameter, AutoAnalysis.Line1.Point2.XY.Y, 
TestParameter, AutoAnalysis.Line1.Point2.Data.Var, 
TestParameter, AutoAnalysis.Line1.Point2.Data.Condition, 
TestParameter, AutoAnalysis.Line1.Point2.Data.Start, false
TestParameter, AutoAnalysis.Line1.Point2.Data.StartVar, 
TestParameter, AutoAnalysis.Line1.Point2.Data.StartCondition, 
TestParameter, AutoAnalysis.Line1.GradientExpr, 0
TestParameter, AutoAnalysis.Line2.Enabled, false
TestParameter, AutoAnalysis.Line2.Type, 1
TestParameter, AutoAnalysis.Line2.Fix, False
TestParameter, AutoAnalysis.Line2.YAxis, 0
TestParameter, AutoAnalysis.Line2.Point1.Type, 0
TestParameter, AutoAnalysis.Line2.Point1.XY.X, 
TestParameter, AutoAnalysis.Line2.Point1.XY.Y, 
TestParameter, AutoAnalysis.Line2.Point1.Data.Var, 
TestParameter, AutoAnalysis.Line2.Point1.Data.Condition, 
TestParameter, AutoAnalysis.Line2.Point1.Data.Start, false
TestParameter, AutoAnalysis.Line2.Point1.Data.StartVar, 
TestParameter, AutoAnalysis.Line2.Point1.Data.StartCondition, 
TestParameter, AutoAnalysis.Line2.Point2.Type, 0
TestParameter, AutoAnalysis.Line2.Point2.XY.X, 
TestParameter, AutoAnalysis.Line2.Point2.XY.Y, 
TestParameter, AutoAnalysis.Line2.Point2.Data.Var, 
TestParameter, AutoAnalysis.Line2.Point2.Data.Condition, 
TestParameter, AutoAnalysis.Line2.Point2.Data.Start, false
TestParameter, AutoAnalysis.Line2.Point2.Data.StartVar, 
TestParameter, AutoAnalysis.Line2.Point2.Data.StartCondition, 
TestParameter, AutoAnalysis.Line2.GradientExpr, 0
TestParameter, AutoAnalysis.Marker.Enabled, false
TestParameter, AutoAnalysis.Marker.Data.Var, 
TestParameter, AutoAnalysis.Marker.Data.Condition, 
TestParameter, AutoAnalysis.Marker.Data.Start, false
TestParameter, AutoAnalysis.Marker.Data.StartVar, 
TestParameter, AutoAnalysis.Marker.Data.StartCondition, 
MetaData, TestRecord.EntryPoint, false
MetaData, TestRecord.RecordTime, 03/04/2023 18:10:17
MetaData, TestRecord.TestTarget, 
MetaData, TestRecord.IterationIndex, 197
MetaData, TestRecord.Preservation, true
MetaData, TestRecord.Flag, 
MetaData, TestRecord.Remarks, 
MetaData, TestRecord.LinkKey, 3ae9c3c9-0d0c-4c16-9af9-988250f4eeb3
Dimension1, 21, 21, 21, 21
Dimension2, 1, 1, 1, 1
DataName, V1, I1, R, Rsheet
DataValue, 0, 2.2800000000000004E-13, 0, 0
DataValue, 0.05, 1.9200000000000002E-13, 260416666666.66666, 26041666666.666664
DataValue, 0.1, 5.7700000000000007E-13, 173310225303.29288, 17331022530.329285
DataValue, 0.15, 3.8500000000000003E-13, 389610389610.38959, 38961038961.038956
DataValue, 0.2, 7.9300000000000005E-13, 252206809583.85877, 25220680958.385876
DataValue, 0.25, 7.4300000000000007E-13, 336473755047.10632, 33647375504.710629
DataValue, 0.3, 6.15E-13, 487804878048.78046, 48780487804.878036
DataValue, 0.35000000000000003, 8.24E-13, 424757281553.39807, 42475728155.339806
DataValue, 0.4, 9.29E-13, 430570505920.34448, 43057050592.034439
DataValue, 0.45, 7.33E-13, 613915416098.22644, 61391541609.822639
DataValue, 0.5, 8.5500000000000009E-13, 584795321637.42688, 58479532163.742683
DataValue, 0.55, 1.09E-12, 504587155963.3028, 50458715596.330269
DataValue, 0.6, 8.65E-13, 693641618497.10974, 69364161849.710968
DataValue, 0.65, 8.48E-13, 766509433962.26416, 76650943396.22641
DataValue, 0.70000000000000007, 1.201E-12, 582847626977.5188, 58284762697.751877
DataValue, 0.75, 9.0900000000000006E-13, 825082508250.82507, 82508250825.082489
DataValue, 0.8, 1.303E-12, 613967766692.24866, 61396776669.224861
DataValue, 0.85000000000000009, 1.092E-12, 778388278388.27844, 77838827838.827835
DataValue, 0.9, 1.3530000000000002E-12, 665188470066.5188, 66518847006.651871
DataValue, 0.95000000000000007, 1.1500000000000002E-12, 826086956521.73914, 82608695652.1739
DataValue, 1, 1.322E-12, 756429652042.36011, 75642965204.236