
SetupTitle, Two Terminal IV Sweep
PrimitiveTest, I/V Sweep
TestParameter, Context.MainFrame, B1500A
TestParameter, Channel.UnitType, SMU, SMU
TestParameter, Channel.Unit, SMU3:MP, SMU4:MP
TestParameter, Channel.IName, I3, I4
TestParameter, Channel.VName, V3, V4
TestParameter, Channel.Mode, V, V
TestParameter, Channel.Func, VAR1, CONST
TestParameter, Channel.Index, 
TestParameter, Channel.Time, 
TestParameter, Measurement.Port.Unit, SMU3:MP, SMU4:MP
TestParameter, Measurement.Port.SeriesResistor, NONE, NONE
TestParameter, Measurement.Port.Filter, ON, ON
TestParameter, Measurement.Port.OutputVoltageComparison, 0, 0
TestParameter, Measurement.Primary.Locus, Single
TestParameter, Measurement.Primary.Scale, LINEAR
TestParameter, Measurement.Primary.Start, -3
TestParameter, Measurement.Primary.Stop, 5
TestParameter, Measurement.Primary.Step, 0.08
TestParameter, Measurement.Primary.Compliance, 0.01
TestParameter, Measurement.Primary.PowerCompliance, 0
TestParameter, Measurement.Aborting.Condition, CONTINUE AT ANY
TestParameter, Measurement.PostOutput.Value, START
TestParameter, Measurement.PostOutput.Retention, OFF
TestParameter, Measurement.Bias.Source, -3, 0
TestParameter, Measurement.Bias.Compliance, 0.01, 0.1
TestParameter, Measurement.Monitor.Unit, SMU3:MP, SMU4:MP
TestParameter, Measurement.Monitor.Adc, HR ADC, HR ADC
TestParameter, Measurement.Monitor.Measurement, Compliance Side, Compliance Side
TestParameter, Measurement.Monitor.RangingMode, LIMITED, LIMITED
TestParameter, Measurement.Monitor.RangeBoundary, 1nA, 1nA
TestParameter, Measurement.Monitor.RangeRating, BY FULL RANGE, BY FULL RANGE
TestParameter, Measurement.Monitor.RangeRatingCoeff, 50, 50
TestParameter, Measurement.Timing.Hold, 0
TestParameter, Measurement.Timing.Delay, 0
TestParameter, Measurement.Adc.HighSpeed.Mode, AUTO
TestParameter, Measurement.Adc.HighSpeed.Coeff, 1
TestParameter, Measurement.Adc.HighResolution.AutoZero, OFF
TestParameter, Measurement.Adc.HighResolution.Mode, AUTO
TestParameter, Measurement.Adc.HighResolution.Coeff, 6
TestParameter, Measurement.WaitTime.Source.Coeff, 1
TestParameter, Measurement.WaitTime.Source.Offset, 0
TestParameter, Measurement.WaitTime.Monitor.Coeff, 1
TestParameter, Measurement.WaitTime.Monitor.Offset, 0
TestParameter, Output.Graph.Enabled, true
TestParameter, Output.Graph.AutoScaling, false
TestParameter, Output.Graph.XAxis.Data, V3
TestParameter, Output.Graph.XAxis.Scale, Linear
TestParameter, Output.Graph.XAxis.Left, -5
TestParameter, Output.Graph.XAxis.Right, 5
TestParameter, Output.Graph.XAxis.RunTimeAutoScale, true
TestParameter, Output.Graph.YAxis.Data, I3
TestParameter, Output.Graph.YAxis.Scale, Linear
TestParameter, Output.Graph.YAxis.Bottom, -0.1
TestParameter, Output.Graph.YAxis.Top, 0.1
TestParameter, Output.Graph.YAxis.Group, 
TestParameter, Output.Graph.YAxis.RunTimeAutoScale, true
TestParameter, Output.List.Data, V1, I1, V2, I2
TestParameter, AutoAnalysis.Interpolation, false
TestParameter, AutoAnalysis.Line1.Enabled, false
TestParameter, AutoAnalysis.Line1.Type, 1
TestParameter, AutoAnalysis.Line1.Fix, True
TestParameter, AutoAnalysis.Line1.YAxis, 0
TestParameter, AutoAnalysis.Line1.Point1.Type, 0
TestParameter, AutoAnalysis.Line1.Point1.XY.X, 
TestParameter, AutoAnalysis.Line1.Point1.XY.Y, 
TestParameter, AutoAnalysis.Line1.Point1.Data.Var, 
TestParameter, AutoAnalysis.Line1.Point1.Data.Condition, 
TestParameter, AutoAnalysis.Line1.Point1.Data.Start, false
TestParameter, AutoAnalysis.Line1.Point1.Data.StartVar, 
TestParameter, AutoAnalysis.Line1.Point1.Data.StartCondition, 
TestParameter, AutoAnalysis.Line1.Point2.Type, 0
TestParameter, AutoAnalysis.Line1.Point2.XY.X, 
TestParameter, AutoAnalysis.Line1.Point2.XY.Y, 
TestParameter, AutoAnalysis.Line1.Point2.Data.Var, 
TestParameter, AutoAnalysis.Line1.Point2.Data.Condition, 
TestParameter, AutoAnalysis.Line1.Point2.Data.Start, false
TestParameter, AutoAnalysis.Line1.Point2.Data.StartVar, 
TestParameter, AutoAnalysis.Line1.Point2.Data.StartCondition, 
TestParameter, AutoAnalysis.Line1.GradientExpr, 0
TestParameter, AutoAnalysis.Line2.Enabled, false
TestParameter, AutoAnalysis.Line2.Type, 1
TestParameter, AutoAnalysis.Line2.Fix, True
TestParameter, AutoAnalysis.Line2.YAxis, 0
TestParameter, AutoAnalysis.Line2.Point1.Type, 0
TestParameter, AutoAnalysis.Line2.Point1.XY.X, 
TestParameter, AutoAnalysis.Line2.Point1.XY.Y, 
TestParameter, AutoAnalysis.Line2.Point1.Data.Var, 
TestParameter, AutoAnalysis.Line2.Point1.Data.Condition, 
TestParameter, AutoAnalysis.Line2.Point1.Data.Start, false
TestParameter, AutoAnalysis.Line2.Point1.Data.StartVar, 
TestParameter, AutoAnalysis.Line2.Point1.Data.StartCondition, 
TestParameter, AutoAnalysis.Line2.Point2.Type, 0
TestParameter, AutoAnalysis.Line2.Point2.XY.X, 
TestParameter, AutoAnalysis.Line2.Point2.XY.Y, 
TestParameter, AutoAnalysis.Line2.Point2.Data.Var, 
TestParameter, AutoAnalysis.Line2.Point2.Data.Condition, 
TestParameter, AutoAnalysis.Line2.Point2.Data.Start, false
TestParameter, AutoAnalysis.Line2.Point2.Data.StartVar, 
TestParameter, AutoAnalysis.Line2.Point2.Data.StartCondition, 
TestParameter, AutoAnalysis.Line2.GradientExpr, 0
TestParameter, AutoAnalysis.Marker.Enabled, false
TestParameter, AutoAnalysis.Marker.Data.Var, 
TestParameter, AutoAnalysis.Marker.Data.Condition, 
TestParameter, AutoAnalysis.Marker.Data.Start, false
TestParameter, AutoAnalysis.Marker.Data.StartVar, 
TestParameter, AutoAnalysis.Marker.Data.StartCondition, 
MetaData, TestRecord.EntryPoint, true
MetaData, TestRecord.RecordTime, 03/06/2023 10:48:00
MetaData, TestRecord.TestTarget, 
MetaData, TestRecord.IterationIndex, 47
MetaData, TestRecord.Preservation, true
MetaData, TestRecord.Flag, 
MetaData, TestRecord.Remarks, 
MetaData, TestRecord.LinkKey, 269d7b28-46af-4d0c-ba21-873250f548a9
Dimension1, 101, 101, 101, 101, 101, 101
Dimension2, 1, 1, 1, 1, 1, 1
DataName, V3, I3, V1, I1, V2, I2
DataValue, -3, -1.06646E-08, , , , 
DataValue, -2.92, -9.1848E-09, , , , 
DataValue, -2.84, -1.0447599999999999E-08, , , , 
DataValue, -2.7600000000000002, -8.9959E-09, , , , 
DataValue, -2.68, -7.9421E-09, , , , 
DataValue, -2.6, -7.0899E-09, , , , 
DataValue, -2.52, -7.3035E-09, , , , 
DataValue, -2.44, -4.2541E-09, , , , 
DataValue, -2.36, -4.8318E-09, , , , 
DataValue, -2.2800000000000002, -2.92E-09, , , , 
DataValue, -2.2, -2.4878E-09, , , , 
DataValue, -2.12, -2.0664E-09, , , , 
DataValue, -2.04, -1.672E-09, , , , 
DataValue, -1.96, -1.4367E-09, , , , 
DataValue, -1.8800000000000001, -1.2121E-09, , , , 
DataValue, -1.8, -1.1197E-09, , , , 
DataValue, -1.72, -1.0211E-09, , , , 
DataValue, -1.6400000000000001, -8.8357000000000008E-10, , , , 
DataValue, -1.56, -7.7741000000000011E-10, , , , 
DataValue, -1.48, -6.7964E-10, , , , 
DataValue, -1.4000000000000001, -5.9772000000000008E-10, , , , 
DataValue, -1.32, -5.0547E-10, , , , 
DataValue, -1.24, -4.5574E-10, , , , 
DataValue, -1.16, -3.8879E-10, , , , 
DataValue, -1.08, -2.9158000000000004E-10, , , , 
DataValue, -1, -2.3594E-10, , , , 
DataValue, -0.92, -1.8536000000000002E-10, , , , 
DataValue, -0.84, -1.6465000000000002E-10, , , , 
DataValue, -0.76, -1.2554000000000001E-10, , , , 
DataValue, -0.68, -7.091E-11, , , , 
DataValue, -0.6, -4.141E-11, , , , 
DataValue, -0.52, -1.668E-11, , , , 
DataValue, -0.44, -7.8900000000000013E-12, , , , 
DataValue, -0.36, 5.7800000000000008E-12, , , , 
DataValue, -0.28, 3.703E-11, , , , 
DataValue, -0.2, 6.319E-11, , , , 
DataValue, -0.12, 7.999E-11, , , , 
DataValue, -0.04, 7.9010000000000007E-11, , , , 
DataValue, 0.04, 8.2810000000000009E-11, , , , 
DataValue, 0.12, 1.0063E-10, , , , 
DataValue, 0.2, 1.6555E-10, , , , 
DataValue, 0.28, 3.6805000000000004E-10, , , , 
DataValue, 0.36, 6.8064E-10, , , , 
DataValue, 0.44, 8.9574000000000005E-10, , , , 
DataValue, 0.52, 1.0536E-09, , , , 
DataValue, 0.6, 1.2083E-09, , , , 
DataValue, 0.68, 1.3711E-09, , , , 
DataValue, 0.76, 1.5498E-09, , , , 
DataValue, 0.84, 1.7448E-09, , , , 
DataValue, 0.92, 1.9548E-09, , , , 
DataValue, 1, 2.186E-09, , , , 
DataValue, 1.08, 2.4445E-09, , , , 
DataValue, 1.16, 2.7371E-09, , , , 
DataValue, 1.24, 3.067E-09, , , , 
DataValue, 1.32, 3.438E-09, , , , 
DataValue, 1.4000000000000001, 3.8598E-09, , , , 
DataValue, 1.48, 4.3422E-09, , , , 
DataValue, 1.56, 4.8987E-09, , , , 
DataValue, 1.6400000000000001, 5.5246E-09, , , , 
DataValue, 1.72, 6.2631E-09, , , , 
DataValue, 1.8, 7.1336E-09, , , , 
DataValue, 1.8800000000000001, 8.1088E-09, , , , 
DataValue, 1.96, 9.3073E-09, , , , 
DataValue, 2.04, 1.05929E-08, , , , 
DataValue, 2.12, 1.22736E-08, , , , 
DataValue, 2.2, 1.42364E-08, , , , 
DataValue, 2.2800000000000002, 1.66988E-08, , , , 
DataValue, 2.36, 1.9620799999999997E-08, , , , 
DataValue, 2.44, 2.3157799999999997E-08, , , , 
DataValue, 2.52, 2.7492599999999998E-08, , , , 
DataValue, 2.6, 3.2732799999999995E-08, , , , 
DataValue, 2.68, 3.90602E-08, , , , 
DataValue, 2.7600000000000002, 4.67582E-08, , , , 
DataValue, 2.84, 5.5824199999999995E-08, , , , 
DataValue, 2.92, 6.6895999999999992E-08, , , , 
DataValue, 3, 7.9948399999999991E-08, , , , 
DataValue, 3.08, 9.51144E-08, , , , 
DataValue, 3.16, 1.1271999999999999E-07, , , , 
DataValue, 3.24, 1.3794E-07, , , , 
DataValue, 3.3200000000000003, 1.6868E-07, , , , 
DataValue, 3.4, 2.0631999999999998E-07, , , , 
DataValue, 3.48, 2.5511999999999997E-07, , , , 
DataValue, 3.56, 3.1986E-07, , , , 
DataValue, 3.64, 4.0618E-07, , , , 
DataValue, 3.72, 5.0786E-07, , , , 
DataValue, 3.8000000000000003, 6.7092E-07, , , , 
DataValue, 3.88, 8.741E-07, , , , 
DataValue, 3.96, 1.4055000000000001E-06, , , , 
DataValue, 4.04, 1.8126000000000002E-06, , , , 
DataValue, 4.12, 2.3790000000000004E-06, , , , 
DataValue, 4.2, 3.5444000000000003E-06, , , , 
DataValue, 4.28, 7.9103000000000012E-06, , , , 
DataValue, 4.36, 1.0677600000000001E-05, , , , 
DataValue, 4.44, 2.1696E-05, , , , 
DataValue, 4.5200000000000005, 2.5324E-05, , , , 
DataValue, 4.6000000000000005, 3.2158E-05, , , , 
DataValue, 4.68, 3.4816E-05, , , , 
DataValue, 4.76, 4.2964000000000004E-05, , , , 
DataValue, 4.84, 6.1706000000000009E-05, , , , 
DataValue, 4.92, 7.6464E-05, , , , 
DataValue, 5, 9.0168000000000008E-05, , , , 