
SetupTitle, Two Terminal IV Sweep
PrimitiveTest, I/V Sweep
TestParameter, Context.MainFrame, B1500A
TestParameter, Channel.UnitType, SMU, SMU
TestParameter, Channel.Unit, SMU3:MP, SMU4:MP
TestParameter, Channel.IName, I3, I4
TestParameter, Channel.VName, V3, V4
TestParameter, Channel.Mode, V, V
TestParameter, Channel.Func, VAR1, CONST
TestParameter, Channel.Index, 
TestParameter, Channel.Time, 
TestParameter, Measurement.Port.Unit, SMU3:MP, SMU4:MP
TestParameter, Measurement.Port.SeriesResistor, NONE, NONE
TestParameter, Measurement.Port.Filter, ON, ON
TestParameter, Measurement.Port.OutputVoltageComparison, 0, 0
TestParameter, Measurement.Primary.Locus, Single
TestParameter, Measurement.Primary.Scale, LINEAR
TestParameter, Measurement.Primary.Start, -3
TestParameter, Measurement.Primary.Stop, 5
TestParameter, Measurement.Primary.Step, 0.08
TestParameter, Measurement.Primary.Compliance, 0.01
TestParameter, Measurement.Primary.PowerCompliance, 0
TestParameter, Measurement.Aborting.Condition, CONTINUE AT ANY
TestParameter, Measurement.PostOutput.Value, START
TestParameter, Measurement.PostOutput.Retention, OFF
TestParameter, Measurement.Bias.Source, -3, 0
TestParameter, Measurement.Bias.Compliance, 0.01, 0.1
TestParameter, Measurement.Monitor.Unit, SMU3:MP, SMU4:MP
TestParameter, Measurement.Monitor.Adc, HR ADC, HR ADC
TestParameter, Measurement.Monitor.Measurement, Compliance Side, Compliance Side
TestParameter, Measurement.Monitor.RangingMode, LIMITED, LIMITED
TestParameter, Measurement.Monitor.RangeBoundary, 1nA, 1nA
TestParameter, Measurement.Monitor.RangeRating, BY FULL RANGE, BY FULL RANGE
TestParameter, Measurement.Monitor.RangeRatingCoeff, 50, 50
TestParameter, Measurement.Timing.Hold, 0
TestParameter, Measurement.Timing.Delay, 0
TestParameter, Measurement.Adc.HighSpeed.Mode, AUTO
TestParameter, Measurement.Adc.HighSpeed.Coeff, 1
TestParameter, Measurement.Adc.HighResolution.AutoZero, OFF
TestParameter, Measurement.Adc.HighResolution.Mode, AUTO
TestParameter, Measurement.Adc.HighResolution.Coeff, 6
TestParameter, Measurement.WaitTime.Source.Coeff, 1
TestParameter, Measurement.WaitTime.Source.Offset, 0
TestParameter, Measurement.WaitTime.Monitor.Coeff, 1
TestParameter, Measurement.WaitTime.Monitor.Offset, 0
TestParameter, Output.Graph.Enabled, true
TestParameter, Output.Graph.AutoScaling, false
TestParameter, Output.Graph.XAxis.Data, V3
TestParameter, Output.Graph.XAxis.Scale, Linear
TestParameter, Output.Graph.XAxis.Left, -5
TestParameter, Output.Graph.XAxis.Right, 5
TestParameter, Output.Graph.XAxis.RunTimeAutoScale, true
TestParameter, Output.Graph.YAxis.Data, I3
TestParameter, Output.Graph.YAxis.Scale, Linear
TestParameter, Output.Graph.YAxis.Bottom, -0.1
TestParameter, Output.Graph.YAxis.Top, 0.1
TestParameter, Output.Graph.YAxis.Group, 
TestParameter, Output.Graph.YAxis.RunTimeAutoScale, true
TestParameter, Output.List.Data, V1, I1, V2, I2
TestParameter, AutoAnalysis.Interpolation, false
TestParameter, AutoAnalysis.Line1.Enabled, false
TestParameter, AutoAnalysis.Line1.Type, 1
TestParameter, AutoAnalysis.Line1.Fix, True
TestParameter, AutoAnalysis.Line1.YAxis, 0
TestParameter, AutoAnalysis.Line1.Point1.Type, 0
TestParameter, AutoAnalysis.Line1.Point1.XY.X, 
TestParameter, AutoAnalysis.Line1.Point1.XY.Y, 
TestParameter, AutoAnalysis.Line1.Point1.Data.Var, 
TestParameter, AutoAnalysis.Line1.Point1.Data.Condition, 
TestParameter, AutoAnalysis.Line1.Point1.Data.Start, false
TestParameter, AutoAnalysis.Line1.Point1.Data.StartVar, 
TestParameter, AutoAnalysis.Line1.Point1.Data.StartCondition, 
TestParameter, AutoAnalysis.Line1.Point2.Type, 0
TestParameter, AutoAnalysis.Line1.Point2.XY.X, 
TestParameter, AutoAnalysis.Line1.Point2.XY.Y, 
TestParameter, AutoAnalysis.Line1.Point2.Data.Var, 
TestParameter, AutoAnalysis.Line1.Point2.Data.Condition, 
TestParameter, AutoAnalysis.Line1.Point2.Data.Start, false
TestParameter, AutoAnalysis.Line1.Point2.Data.StartVar, 
TestParameter, AutoAnalysis.Line1.Point2.Data.StartCondition, 
TestParameter, AutoAnalysis.Line1.GradientExpr, 0
TestParameter, AutoAnalysis.Line2.Enabled, false
TestParameter, AutoAnalysis.Line2.Type, 1
TestParameter, AutoAnalysis.Line2.Fix, True
TestParameter, AutoAnalysis.Line2.YAxis, 0
TestParameter, AutoAnalysis.Line2.Point1.Type, 0
TestParameter, AutoAnalysis.Line2.Point1.XY.X, 
TestParameter, AutoAnalysis.Line2.Point1.XY.Y, 
TestParameter, AutoAnalysis.Line2.Point1.Data.Var, 
TestParameter, AutoAnalysis.Line2.Point1.Data.Condition, 
TestParameter, AutoAnalysis.Line2.Point1.Data.Start, false
TestParameter, AutoAnalysis.Line2.Point1.Data.StartVar, 
TestParameter, AutoAnalysis.Line2.Point1.Data.StartCondition, 
TestParameter, AutoAnalysis.Line2.Point2.Type, 0
TestParameter, AutoAnalysis.Line2.Point2.XY.X, 
TestParameter, AutoAnalysis.Line2.Point2.XY.Y, 
TestParameter, AutoAnalysis.Line2.Point2.Data.Var, 
TestParameter, AutoAnalysis.Line2.Point2.Data.Condition, 
TestParameter, AutoAnalysis.Line2.Point2.Data.Start, false
TestParameter, AutoAnalysis.Line2.Point2.Data.StartVar, 
TestParameter, AutoAnalysis.Line2.Point2.Data.StartCondition, 
TestParameter, AutoAnalysis.Line2.GradientExpr, 0
TestParameter, AutoAnalysis.Marker.Enabled, false
TestParameter, AutoAnalysis.Marker.Data.Var, 
TestParameter, AutoAnalysis.Marker.Data.Condition, 
TestParameter, AutoAnalysis.Marker.Data.Start, false
TestParameter, AutoAnalysis.Marker.Data.StartVar, 
TestParameter, AutoAnalysis.Marker.Data.StartCondition, 
MetaData, TestRecord.EntryPoint, true
MetaData, TestRecord.RecordTime, 03/06/2023 10:48:59
MetaData, TestRecord.TestTarget, 
MetaData, TestRecord.IterationIndex, 48
MetaData, TestRecord.Preservation, true
MetaData, TestRecord.Flag, 
MetaData, TestRecord.Remarks, 
MetaData, TestRecord.LinkKey, 750515db-35d2-47d5-b3b1-5e74781145f7
Dimension1, 101, 101, 101, 101, 101, 101
Dimension2, 1, 1, 1, 1, 1, 1
DataName, V3, I3, V1, I1, V2, I2
DataValue, -3, -2.4778E-07, , , , 
DataValue, -2.92, -2.3311999999999999E-07, , , , 
DataValue, -2.84, -2.3798E-07, , , , 
DataValue, -2.7600000000000002, -2.4524E-07, , , , 
DataValue, -2.68, -2.3332E-07, , , , 
DataValue, -2.6, -2.2184E-07, , , , 
DataValue, -2.52, -2.2912E-07, , , , 
DataValue, -2.44, -2.3538E-07, , , , 
DataValue, -2.36, -2.1786E-07, , , , 
DataValue, -2.2800000000000002, -2.254E-07, , , , 
DataValue, -2.2, -2.2872E-07, , , , 
DataValue, -2.12, -2.1677999999999999E-07, , , , 
DataValue, -2.04, -2.1844E-07, , , , 
DataValue, -1.96, -2.2858E-07, , , , 
DataValue, -1.8800000000000001, -2.1356E-07, , , , 
DataValue, -1.8, -2.149E-07, , , , 
DataValue, -1.72, -2.2416E-07, , , , 
DataValue, -1.6400000000000001, -2.1469999999999998E-07, , , , 
DataValue, -1.56, -2.1002E-07, , , , 
DataValue, -1.48, -2.2094E-07, , , , 
DataValue, -1.4000000000000001, -2.192E-07, , , , 
DataValue, -1.32, -2.0748E-07, , , , 
DataValue, -1.24, -2.0764E-07, , , , 
DataValue, -1.16, -2.1999999999999999E-07, , , , 
DataValue, -1.08, -2.0936E-07, , , , 
DataValue, -1, -2.0729999999999998E-07, , , , 
DataValue, -0.92, -2.1887999999999999E-07, , , , 
DataValue, -0.84, -2.0309999999999999E-07, , , , 
DataValue, -0.76, -2.1256E-07, , , , 
DataValue, -0.68, -2.131E-07, , , , 
DataValue, -0.6, -2.0118E-07, , , , 
DataValue, -0.52, -2.1628E-07, , , , 
DataValue, -0.44, -2.1338E-07, , , , 
DataValue, -0.36, -1.9958E-07, , , , 
DataValue, -0.28, -2.1312E-07, , , , 
DataValue, -0.2, -2.0853999999999999E-07, , , , 
DataValue, -0.12, -1.9718E-07, , , , 
DataValue, -0.04, -1.9084E-07, , , , 
DataValue, 0.04, -1.1038E-07, , , , 
DataValue, 0.12, -4.3523199999999996E-08, , , , 
DataValue, 0.2, -1.4741199999999999E-08, , , , 
DataValue, 0.28, -4.2892E-09, , , , 
DataValue, 0.36, -2.8943E-10, , , , 
DataValue, 0.44, 1.5694E-09, , , , 
DataValue, 0.52, 2.7057E-09, , , , 
DataValue, 0.6, 3.5688E-09, , , , 
DataValue, 0.68, 4.1358E-09, , , , 
DataValue, 0.76, 4.3559E-09, , , , 
DataValue, 0.84, 4.9746E-09, , , , 
DataValue, 0.92, 5.3501E-09, , , , 
DataValue, 1, 5.9048E-09, , , , 
DataValue, 1.08, 6.5227E-09, , , , 
DataValue, 1.16, 7.2464E-09, , , , 
DataValue, 1.24, 7.9991E-09, , , , 
DataValue, 1.32, 9.0655E-09, , , , 
DataValue, 1.4000000000000001, 1.01313E-08, , , , 
DataValue, 1.48, 1.1157799999999999E-08, , , , 
DataValue, 1.56, 1.2714799999999999E-08, , , , 
DataValue, 1.6400000000000001, 1.4778399999999999E-08, , , , 
DataValue, 1.72, 1.7175799999999997E-08, , , , 
DataValue, 1.8, 1.9602399999999998E-08, , , , 
DataValue, 1.8800000000000001, 2.2843399999999997E-08, , , , 
DataValue, 1.96, 2.67584E-08, , , , 
DataValue, 2.04, 3.1332199999999997E-08, , , , 
DataValue, 2.12, 3.7479999999999995E-08, , , , 
DataValue, 2.2, 4.3894799999999993E-08, , , , 
DataValue, 2.2800000000000002, 5.1473399999999996E-08, , , , 
DataValue, 2.36, 6.23576E-08, , , , 
DataValue, 2.44, 7.41088E-08, , , , 
DataValue, 2.52, 8.7159399999999988E-08, , , , 
DataValue, 2.6, 1.033018E-07, , , , 
DataValue, 2.68, 1.2176E-07, , , , 
DataValue, 2.7600000000000002, 1.4898E-07, , , , 
DataValue, 2.84, 1.789E-07, , , , 
DataValue, 2.92, 2.0944E-07, , , , 
DataValue, 3, 2.58E-07, , , , 
DataValue, 3.08, 3.1188E-07, , , , 
DataValue, 3.16, 3.6886E-07, , , , 
DataValue, 3.24, 4.3702E-07, , , , 
DataValue, 3.3200000000000003, 5.2474E-07, , , , 
DataValue, 3.4, 6.3138E-07, , , , 
DataValue, 3.48, 7.798E-07, , , , 
DataValue, 3.56, 9.5038E-07, , , , 
DataValue, 3.64, 1.1206000000000001E-06, , , , 
DataValue, 3.72, 1.4165000000000001E-06, , , , 
DataValue, 3.8000000000000003, 1.7227000000000003E-06, , , , 
DataValue, 3.88, 2.1604E-06, , , , 
DataValue, 3.96, 2.7343000000000002E-06, , , , 
DataValue, 4.04, 3.4221000000000002E-06, , , , 
DataValue, 4.12, 4.5187000000000005E-06, , , , 
DataValue, 4.2, 5.642E-06, , , , 
DataValue, 4.28, 7.4033000000000008E-06, , , , 
DataValue, 4.36, 9.9085000000000018E-06, , , , 
DataValue, 4.44, 1.4536000000000001E-05, , , , 
DataValue, 4.5200000000000005, 1.8416E-05, , , , 
DataValue, 4.6000000000000005, 2.3826000000000002E-05, , , , 
DataValue, 4.68, 2.9442E-05, , , , 
DataValue, 4.76, 3.9544E-05, , , , 
DataValue, 4.84, 5.2846E-05, , , , 
DataValue, 4.92, 7.3602E-05, , , , 
DataValue, 5, 9.9390000000000009E-05, , , , 