
SetupTitle, Two Terminal IV Sweep
PrimitiveTest, I/V Sweep
TestParameter, Context.MainFrame, B1500A
TestParameter, Channel.UnitType, SMU, SMU
TestParameter, Channel.Unit, SMU3:MP, SMU4:MP
TestParameter, Channel.IName, I3, I4
TestParameter, Channel.VName, V3, V4
TestParameter, Channel.Mode, V, V
TestParameter, Channel.Func, VAR1, CONST
TestParameter, Channel.Index, 
TestParameter, Channel.Time, 
TestParameter, Measurement.Port.Unit, SMU3:MP, SMU4:MP
TestParameter, Measurement.Port.SeriesResistor, NONE, NONE
TestParameter, Measurement.Port.Filter, ON, ON
TestParameter, Measurement.Port.OutputVoltageComparison, 0, 0
TestParameter, Measurement.Primary.Locus, Single
TestParameter, Measurement.Primary.Scale, LINEAR
TestParameter, Measurement.Primary.Start, -3
TestParameter, Measurement.Primary.Stop, 5
TestParameter, Measurement.Primary.Step, 0.08
TestParameter, Measurement.Primary.Compliance, 0.01
TestParameter, Measurement.Primary.PowerCompliance, 0
TestParameter, Measurement.Aborting.Condition, CONTINUE AT ANY
TestParameter, Measurement.PostOutput.Value, START
TestParameter, Measurement.PostOutput.Retention, OFF
TestParameter, Measurement.Bias.Source, -3, 0
TestParameter, Measurement.Bias.Compliance, 0.01, 0.1
TestParameter, Measurement.Monitor.Unit, SMU3:MP, SMU4:MP
TestParameter, Measurement.Monitor.Adc, HR ADC, HR ADC
TestParameter, Measurement.Monitor.Measurement, Compliance Side, Compliance Side
TestParameter, Measurement.Monitor.RangingMode, LIMITED, LIMITED
TestParameter, Measurement.Monitor.RangeBoundary, 1nA, 1nA
TestParameter, Measurement.Monitor.RangeRating, BY FULL RANGE, BY FULL RANGE
TestParameter, Measurement.Monitor.RangeRatingCoeff, 50, 50
TestParameter, Measurement.Timing.Hold, 0
TestParameter, Measurement.Timing.Delay, 0
TestParameter, Measurement.Adc.HighSpeed.Mode, AUTO
TestParameter, Measurement.Adc.HighSpeed.Coeff, 1
TestParameter, Measurement.Adc.HighResolution.AutoZero, OFF
TestParameter, Measurement.Adc.HighResolution.Mode, AUTO
TestParameter, Measurement.Adc.HighResolution.Coeff, 6
TestParameter, Measurement.WaitTime.Source.Coeff, 1
TestParameter, Measurement.WaitTime.Source.Offset, 0
TestParameter, Measurement.WaitTime.Monitor.Coeff, 1
TestParameter, Measurement.WaitTime.Monitor.Offset, 0
TestParameter, Output.Graph.Enabled, true
TestParameter, Output.Graph.AutoScaling, false
TestParameter, Output.Graph.XAxis.Data, V3
TestParameter, Output.Graph.XAxis.Scale, Linear
TestParameter, Output.Graph.XAxis.Left, -5
TestParameter, Output.Graph.XAxis.Right, 5
TestParameter, Output.Graph.XAxis.RunTimeAutoScale, true
TestParameter, Output.Graph.YAxis.Data, I3
TestParameter, Output.Graph.YAxis.Scale, Linear
TestParameter, Output.Graph.YAxis.Bottom, -0.1
TestParameter, Output.Graph.YAxis.Top, 0.1
TestParameter, Output.Graph.YAxis.Group, 
TestParameter, Output.Graph.YAxis.RunTimeAutoScale, true
TestParameter, Output.List.Data, V1, I1, V2, I2
TestParameter, AutoAnalysis.Interpolation, false
TestParameter, AutoAnalysis.Line1.Enabled, false
TestParameter, AutoAnalysis.Line1.Type, 1
TestParameter, AutoAnalysis.Line1.Fix, True
TestParameter, AutoAnalysis.Line1.YAxis, 0
TestParameter, AutoAnalysis.Line1.Point1.Type, 0
TestParameter, AutoAnalysis.Line1.Point1.XY.X, 
TestParameter, AutoAnalysis.Line1.Point1.XY.Y, 
TestParameter, AutoAnalysis.Line1.Point1.Data.Var, 
TestParameter, AutoAnalysis.Line1.Point1.Data.Condition, 
TestParameter, AutoAnalysis.Line1.Point1.Data.Start, false
TestParameter, AutoAnalysis.Line1.Point1.Data.StartVar, 
TestParameter, AutoAnalysis.Line1.Point1.Data.StartCondition, 
TestParameter, AutoAnalysis.Line1.Point2.Type, 0
TestParameter, AutoAnalysis.Line1.Point2.XY.X, 
TestParameter, AutoAnalysis.Line1.Point2.XY.Y, 
TestParameter, AutoAnalysis.Line1.Point2.Data.Var, 
TestParameter, AutoAnalysis.Line1.Point2.Data.Condition, 
TestParameter, AutoAnalysis.Line1.Point2.Data.Start, false
TestParameter, AutoAnalysis.Line1.Point2.Data.StartVar, 
TestParameter, AutoAnalysis.Line1.Point2.Data.StartCondition, 
TestParameter, AutoAnalysis.Line1.GradientExpr, 0
TestParameter, AutoAnalysis.Line2.Enabled, false
TestParameter, AutoAnalysis.Line2.Type, 1
TestParameter, AutoAnalysis.Line2.Fix, True
TestParameter, AutoAnalysis.Line2.YAxis, 0
TestParameter, AutoAnalysis.Line2.Point1.Type, 0
TestParameter, AutoAnalysis.Line2.Point1.XY.X, 
TestParameter, AutoAnalysis.Line2.Point1.XY.Y, 
TestParameter, AutoAnalysis.Line2.Point1.Data.Var, 
TestParameter, AutoAnalysis.Line2.Point1.Data.Condition, 
TestParameter, AutoAnalysis.Line2.Point1.Data.Start, false
TestParameter, AutoAnalysis.Line2.Point1.Data.StartVar, 
TestParameter, AutoAnalysis.Line2.Point1.Data.StartCondition, 
TestParameter, AutoAnalysis.Line2.Point2.Type, 0
TestParameter, AutoAnalysis.Line2.Point2.XY.X, 
TestParameter, AutoAnalysis.Line2.Point2.XY.Y, 
TestParameter, AutoAnalysis.Line2.Point2.Data.Var, 
TestParameter, AutoAnalysis.Line2.Point2.Data.Condition, 
TestParameter, AutoAnalysis.Line2.Point2.Data.Start, false
TestParameter, AutoAnalysis.Line2.Point2.Data.StartVar, 
TestParameter, AutoAnalysis.Line2.Point2.Data.StartCondition, 
TestParameter, AutoAnalysis.Line2.GradientExpr, 0
TestParameter, AutoAnalysis.Marker.Enabled, false
TestParameter, AutoAnalysis.Marker.Data.Var, 
TestParameter, AutoAnalysis.Marker.Data.Condition, 
TestParameter, AutoAnalysis.Marker.Data.Start, false
TestParameter, AutoAnalysis.Marker.Data.StartVar, 
TestParameter, AutoAnalysis.Marker.Data.StartCondition, 
MetaData, TestRecord.EntryPoint, true
MetaData, TestRecord.RecordTime, 03/06/2023 10:51:06
MetaData, TestRecord.TestTarget, 
MetaData, TestRecord.IterationIndex, 50
MetaData, TestRecord.Preservation, true
MetaData, TestRecord.Flag, 
MetaData, TestRecord.Remarks, 
MetaData, TestRecord.LinkKey, a620cb3c-f638-423e-9d66-81d4e2979528
Dimension1, 101, 101, 101, 101, 101, 101
Dimension2, 1, 1, 1, 1, 1, 1
DataName, V3, I3, V1, I1, V2, I2
DataValue, -3, -1.4283E-10, , , , 
DataValue, -2.92, -1.3889E-10, , , , 
DataValue, -2.84, -1.3788000000000002E-10, , , , 
DataValue, -2.7600000000000002, -1.0392000000000001E-10, , , , 
DataValue, -2.68, -8.1270000000000007E-11, , , , 
DataValue, -2.6, -7.78E-11, , , , 
DataValue, -2.52, -8.516E-11, , , , 
DataValue, -2.44, -9.3260000000000009E-11, , , , 
DataValue, -2.36, -6.8390000000000009E-11, , , , 
DataValue, -2.2800000000000002, -5.175E-11, , , , 
DataValue, -2.2, -4.5100000000000005E-11, , , , 
DataValue, -2.12, -5.073E-11, , , , 
DataValue, -2.04, -5.8460000000000011E-11, , , , 
DataValue, -1.96, -4.1320000000000006E-11, , , , 
DataValue, -1.8800000000000001, -2.5E-11, , , , 
DataValue, -1.8, -1.251E-11, , , , 
DataValue, -1.72, -2.4350000000000002E-11, , , , 
DataValue, -1.6400000000000001, -3.168E-11, , , , 
DataValue, -1.56, -2.15E-11, , , , 
DataValue, -1.48, -6.5E-12, , , , 
DataValue, -1.4000000000000001, 6.6900000000000008E-12, , , , 
DataValue, -1.32, -3.3600000000000002E-12, , , , 
DataValue, -1.24, -1.157E-11, , , , 
DataValue, -1.16, -1.036E-11, , , , 
DataValue, -1.08, 4.74E-12, , , , 
DataValue, -1, 1.823E-11, , , , 
DataValue, -0.92, 9.9900000000000009E-12, , , , 
DataValue, -0.84, 2.4000000000000003E-12, , , , 
DataValue, -0.76, -5.3100000000000006E-12, , , , 
DataValue, -0.68, 1.098E-11, , , , 
DataValue, -0.6, 2.165E-11, , , , 
DataValue, -0.52, 2.07E-11, , , , 
DataValue, -0.44, 9.74E-12, , , , 
DataValue, -0.36, 1.3500000000000001E-12, , , , 
DataValue, -0.28, 1.3160000000000001E-11, , , , 
DataValue, -0.2, 2.3230000000000003E-11, , , , 
DataValue, -0.12, 2.726E-11, , , , 
DataValue, -0.04, 1.6650000000000002E-11, , , , 
DataValue, 0.04, 7.54E-12, , , , 
DataValue, 0.12, 1.985E-11, , , , 
DataValue, 0.2, 3.75E-11, , , , 
DataValue, 0.28, 9.7650000000000007E-11, , , , 
DataValue, 0.36, 2.1634000000000003E-10, , , , 
DataValue, 0.44, 3.0261E-10, , , , 
DataValue, 0.52, 3.5919000000000003E-10, , , , 
DataValue, 0.6, 4.143E-10, , , , 
DataValue, 0.68, 4.7863E-10, , , , 
DataValue, 0.76, 5.3897000000000005E-10, , , , 
DataValue, 0.84, 6.0558000000000009E-10, , , , 
DataValue, 0.92, 6.7514E-10, , , , 
DataValue, 1, 7.5366000000000006E-10, , , , 
DataValue, 1.08, 8.3502000000000008E-10, , , , 
DataValue, 1.16, 9.2644000000000006E-10, , , , 
DataValue, 1.24, 1.0417E-09, , , , 
DataValue, 1.32, 1.1695E-09, , , , 
DataValue, 1.4000000000000001, 1.3173E-09, , , , 
DataValue, 1.48, 1.4841E-09, , , , 
DataValue, 1.56, 1.682E-09, , , , 
DataValue, 1.6400000000000001, 1.9023E-09, , , , 
DataValue, 1.72, 2.1622E-09, , , , 
DataValue, 1.8, 2.4644E-09, , , , 
DataValue, 1.8800000000000001, 2.8078E-09, , , , 
DataValue, 1.96, 3.2264E-09, , , , 
DataValue, 2.04, 3.6868E-09, , , , 
DataValue, 2.12, 4.2515E-09, , , , 
DataValue, 2.2, 4.9185E-09, , , , 
DataValue, 2.2800000000000002, 5.6803E-09, , , , 
DataValue, 2.36, 6.592E-09, , , , 
DataValue, 2.44, 7.6532E-09, , , , 
DataValue, 2.52, 8.8645E-09, , , , 
DataValue, 2.6, 1.03057E-08, , , , 
DataValue, 2.68, 1.1992999999999999E-08, , , , 
DataValue, 2.7600000000000002, 1.4103999999999998E-08, , , , 
DataValue, 2.84, 1.6638399999999998E-08, , , , 
DataValue, 2.92, 1.9592599999999997E-08, , , , 
DataValue, 3, 2.3121399999999998E-08, , , , 
DataValue, 3.08, 2.7255599999999998E-08, , , , 
DataValue, 3.16, 3.2037799999999995E-08, , , , 
DataValue, 3.24, 3.7687199999999996E-08, , , , 
DataValue, 3.3200000000000003, 4.4799199999999994E-08, , , , 
DataValue, 3.4, 5.2863199999999993E-08, , , , 
DataValue, 3.48, 6.27658E-08, , , , 
DataValue, 3.56, 7.5032399999999988E-08, , , , 
DataValue, 3.64, 9.1082E-08, , , , 
DataValue, 3.72, 1.1189539999999999E-07, , , , 
DataValue, 3.8000000000000003, 1.3974E-07, , , , 
DataValue, 3.88, 1.7433999999999999E-07, , , , 
DataValue, 3.96, 2.2328E-07, , , , 
DataValue, 4.04, 2.957E-07, , , , 
DataValue, 4.12, 3.827E-07, , , , 
DataValue, 4.2, 5.1394E-07, , , , 
DataValue, 4.28, 6.6663999999999994E-07, , , , 
DataValue, 4.36, 8.9E-07, , , , 
DataValue, 4.44, 1.3117E-06, , , , 
DataValue, 4.5200000000000005, 1.7462000000000001E-06, , , , 
DataValue, 4.6000000000000005, 2.3106000000000004E-06, , , , 
DataValue, 4.68, 3.2096E-06, , , , 
DataValue, 4.76, 3.8235000000000007E-06, , , , 
DataValue, 4.84, 5.644200000000001E-06, , , , 
DataValue, 4.92, 7.9156000000000009E-06, , , , 
DataValue, 5, 1.8160000000000002E-05, , , , 