
SetupTitle, Two Terminal IV Sweep
PrimitiveTest, I/V Sweep
TestParameter, Context.MainFrame, B1500A
TestParameter, Channel.UnitType, SMU, SMU
TestParameter, Channel.Unit, SMU3:MP, SMU4:MP
TestParameter, Channel.IName, I3, I4
TestParameter, Channel.VName, V3, V4
TestParameter, Channel.Mode, V, V
TestParameter, Channel.Func, VAR1, CONST
TestParameter, Channel.Index, 
TestParameter, Channel.Time, 
TestParameter, Measurement.Port.Unit, SMU3:MP, SMU4:MP
TestParameter, Measurement.Port.SeriesResistor, NONE, NONE
TestParameter, Measurement.Port.Filter, ON, ON
TestParameter, Measurement.Port.OutputVoltageComparison, 0, 0
TestParameter, Measurement.Primary.Locus, Single
TestParameter, Measurement.Primary.Scale, LINEAR
TestParameter, Measurement.Primary.Start, -3
TestParameter, Measurement.Primary.Stop, 5
TestParameter, Measurement.Primary.Step, 0.08
TestParameter, Measurement.Primary.Compliance, 0.01
TestParameter, Measurement.Primary.PowerCompliance, 0
TestParameter, Measurement.Aborting.Condition, CONTINUE AT ANY
TestParameter, Measurement.PostOutput.Value, START
TestParameter, Measurement.PostOutput.Retention, OFF
TestParameter, Measurement.Bias.Source, -3, 0
TestParameter, Measurement.Bias.Compliance, 0.01, 0.1
TestParameter, Measurement.Monitor.Unit, SMU3:MP, SMU4:MP
TestParameter, Measurement.Monitor.Adc, HR ADC, HR ADC
TestParameter, Measurement.Monitor.Measurement, Compliance Side, Compliance Side
TestParameter, Measurement.Monitor.RangingMode, LIMITED, LIMITED
TestParameter, Measurement.Monitor.RangeBoundary, 1nA, 1nA
TestParameter, Measurement.Monitor.RangeRating, BY FULL RANGE, BY FULL RANGE
TestParameter, Measurement.Monitor.RangeRatingCoeff, 50, 50
TestParameter, Measurement.Timing.Hold, 0
TestParameter, Measurement.Timing.Delay, 0
TestParameter, Measurement.Adc.HighSpeed.Mode, AUTO
TestParameter, Measurement.Adc.HighSpeed.Coeff, 1
TestParameter, Measurement.Adc.HighResolution.AutoZero, OFF
TestParameter, Measurement.Adc.HighResolution.Mode, AUTO
TestParameter, Measurement.Adc.HighResolution.Coeff, 6
TestParameter, Measurement.WaitTime.Source.Coeff, 1
TestParameter, Measurement.WaitTime.Source.Offset, 0
TestParameter, Measurement.WaitTime.Monitor.Coeff, 1
TestParameter, Measurement.WaitTime.Monitor.Offset, 0
TestParameter, Output.Graph.Enabled, true
TestParameter, Output.Graph.AutoScaling, false
TestParameter, Output.Graph.XAxis.Data, V3
TestParameter, Output.Graph.XAxis.Scale, Linear
TestParameter, Output.Graph.XAxis.Left, -5
TestParameter, Output.Graph.XAxis.Right, 5
TestParameter, Output.Graph.XAxis.RunTimeAutoScale, true
TestParameter, Output.Graph.YAxis.Data, I3
TestParameter, Output.Graph.YAxis.Scale, Linear
TestParameter, Output.Graph.YAxis.Bottom, -0.1
TestParameter, Output.Graph.YAxis.Top, 0.1
TestParameter, Output.Graph.YAxis.Group, 
TestParameter, Output.Graph.YAxis.RunTimeAutoScale, true
TestParameter, Output.List.Data, V1, I1, V2, I2
TestParameter, AutoAnalysis.Interpolation, false
TestParameter, AutoAnalysis.Line1.Enabled, false
TestParameter, AutoAnalysis.Line1.Type, 1
TestParameter, AutoAnalysis.Line1.Fix, True
TestParameter, AutoAnalysis.Line1.YAxis, 0
TestParameter, AutoAnalysis.Line1.Point1.Type, 0
TestParameter, AutoAnalysis.Line1.Point1.XY.X, 
TestParameter, AutoAnalysis.Line1.Point1.XY.Y, 
TestParameter, AutoAnalysis.Line1.Point1.Data.Var, 
TestParameter, AutoAnalysis.Line1.Point1.Data.Condition, 
TestParameter, AutoAnalysis.Line1.Point1.Data.Start, false
TestParameter, AutoAnalysis.Line1.Point1.Data.StartVar, 
TestParameter, AutoAnalysis.Line1.Point1.Data.StartCondition, 
TestParameter, AutoAnalysis.Line1.Point2.Type, 0
TestParameter, AutoAnalysis.Line1.Point2.XY.X, 
TestParameter, AutoAnalysis.Line1.Point2.XY.Y, 
TestParameter, AutoAnalysis.Line1.Point2.Data.Var, 
TestParameter, AutoAnalysis.Line1.Point2.Data.Condition, 
TestParameter, AutoAnalysis.Line1.Point2.Data.Start, false
TestParameter, AutoAnalysis.Line1.Point2.Data.StartVar, 
TestParameter, AutoAnalysis.Line1.Point2.Data.StartCondition, 
TestParameter, AutoAnalysis.Line1.GradientExpr, 0
TestParameter, AutoAnalysis.Line2.Enabled, false
TestParameter, AutoAnalysis.Line2.Type, 1
TestParameter, AutoAnalysis.Line2.Fix, True
TestParameter, AutoAnalysis.Line2.YAxis, 0
TestParameter, AutoAnalysis.Line2.Point1.Type, 0
TestParameter, AutoAnalysis.Line2.Point1.XY.X, 
TestParameter, AutoAnalysis.Line2.Point1.XY.Y, 
TestParameter, AutoAnalysis.Line2.Point1.Data.Var, 
TestParameter, AutoAnalysis.Line2.Point1.Data.Condition, 
TestParameter, AutoAnalysis.Line2.Point1.Data.Start, false
TestParameter, AutoAnalysis.Line2.Point1.Data.StartVar, 
TestParameter, AutoAnalysis.Line2.Point1.Data.StartCondition, 
TestParameter, AutoAnalysis.Line2.Point2.Type, 0
TestParameter, AutoAnalysis.Line2.Point2.XY.X, 
TestParameter, AutoAnalysis.Line2.Point2.XY.Y, 
TestParameter, AutoAnalysis.Line2.Point2.Data.Var, 
TestParameter, AutoAnalysis.Line2.Point2.Data.Condition, 
TestParameter, AutoAnalysis.Line2.Point2.Data.Start, false
TestParameter, AutoAnalysis.Line2.Point2.Data.StartVar, 
TestParameter, AutoAnalysis.Line2.Point2.Data.StartCondition, 
TestParameter, AutoAnalysis.Line2.GradientExpr, 0
TestParameter, AutoAnalysis.Marker.Enabled, false
TestParameter, AutoAnalysis.Marker.Data.Var, 
TestParameter, AutoAnalysis.Marker.Data.Condition, 
TestParameter, AutoAnalysis.Marker.Data.Start, false
TestParameter, AutoAnalysis.Marker.Data.StartVar, 
TestParameter, AutoAnalysis.Marker.Data.StartCondition, 
MetaData, TestRecord.EntryPoint, true
MetaData, TestRecord.RecordTime, 03/06/2023 10:53:51
MetaData, TestRecord.TestTarget, 
MetaData, TestRecord.IterationIndex, 53
MetaData, TestRecord.Preservation, true
MetaData, TestRecord.Flag, 
MetaData, TestRecord.Remarks, 
MetaData, TestRecord.LinkKey, 07c81749-6081-45b2-b78b-0264afc8282f
Dimension1, 101, 101, 101, 101, 101, 101
Dimension2, 1, 1, 1, 1, 1, 1
DataName, V3, I3, V1, I1, V2, I2
DataValue, -3, -4.5011E-09, , , , 
DataValue, -2.92, -2.2351E-09, , , , 
DataValue, -2.84, -2.0392E-09, , , , 
DataValue, -2.7600000000000002, -2.6342E-09, , , , 
DataValue, -2.68, -3.0972E-09, , , , 
DataValue, -2.6, -1.5976E-09, , , , 
DataValue, -2.52, -1.7878E-09, , , , 
DataValue, -2.44, -1.5254E-09, , , , 
DataValue, -2.36, -6.7566E-10, , , , 
DataValue, -2.2800000000000002, -1.3664E-09, , , , 
DataValue, -2.2, -1.8307E-09, , , , 
DataValue, -2.12, -1.6783E-09, , , , 
DataValue, -2.04, -1.4842E-09, , , , 
DataValue, -1.96, -1.3397E-09, , , , 
DataValue, -1.8800000000000001, -1.2574E-09, , , , 
DataValue, -1.8, -1.1179E-09, , , , 
DataValue, -1.72, -6.819E-10, , , , 
DataValue, -1.6400000000000001, -1.798E-10, , , , 
DataValue, -1.56, -7.8422000000000011E-10, , , , 
DataValue, -1.48, -2.5032E-10, , , , 
DataValue, -1.4000000000000001, 9.609E-11, , , , 
DataValue, -1.32, 3.0939E-10, , , , 
DataValue, -1.24, 6.782E-11, , , , 
DataValue, -1.16, -4.0578E-10, , , , 
DataValue, -1.08, -2.0613000000000002E-10, , , , 
DataValue, -1, 7.6690000000000009E-11, , , , 
DataValue, -0.92, 3.2726E-10, , , , 
DataValue, -0.84, 2.0295E-10, , , , 
DataValue, -0.76, -2.7349E-10, , , , 
DataValue, -0.68, -2.1726E-10, , , , 
DataValue, -0.6, 5.9320000000000008E-11, , , , 
DataValue, -0.52, 2.9968000000000004E-10, , , , 
DataValue, -0.44, 1.363E-10, , , , 
DataValue, -0.36, -2.9992000000000004E-10, , , , 
DataValue, -0.28, -1.9108000000000003E-10, , , , 
DataValue, -0.2, 7.238E-11, , , , 
DataValue, -0.12, 3.0720000000000004E-10, , , , 
DataValue, -0.04, 2.3509E-10, , , , 
DataValue, 0.04, -1.7642000000000002E-10, , , , 
DataValue, 0.12, -2.2458000000000001E-10, , , , 
DataValue, 0.2, 5.156E-11, , , , 
DataValue, 0.28, 2.8778E-10, , , , 
DataValue, 0.36, 3.4787E-10, , , , 
DataValue, 0.44, 2.3783E-10, , , , 
DataValue, 0.52, 1.32E-10, , , , 
DataValue, 0.6, 1.0794E-10, , , , 
DataValue, 0.68, 3.6084E-10, , , , 
DataValue, 0.76, 5.2091E-10, , , , 
DataValue, 0.84, 4.5519000000000006E-10, , , , 
DataValue, 0.92, 4.4264000000000003E-10, , , , 
DataValue, 1, 4.1157E-10, , , , 
DataValue, 1.08, 5.4118000000000009E-10, , , , 
DataValue, 1.16, 8.4647000000000008E-10, , , , 
DataValue, 1.24, 8.4927000000000011E-10, , , , 
DataValue, 1.32, 7.901E-10, , , , 
DataValue, 1.4000000000000001, 9.715E-10, , , , 
DataValue, 1.48, 1.296E-09, , , , 
DataValue, 1.56, 1.3785E-09, , , , 
DataValue, 1.6400000000000001, 1.4973E-09, , , , 
DataValue, 1.72, 1.7396E-09, , , , 
DataValue, 1.8, 2.1123E-09, , , , 
DataValue, 1.8800000000000001, 2.6183E-09, , , , 
DataValue, 1.96, 2.9744E-09, , , , 
DataValue, 2.04, 3.6185E-09, , , , 
DataValue, 2.12, 4.0741E-09, , , , 
DataValue, 2.2, 4.8972E-09, , , , 
DataValue, 2.2800000000000002, 5.8626E-09, , , , 
DataValue, 2.36, 6.9753E-09, , , , 
DataValue, 2.44, 8.1676E-09, , , , 
DataValue, 2.52, 9.78E-09, , , , 
DataValue, 2.6, 1.1804599999999999E-08, , , , 
DataValue, 2.68, 1.4303599999999999E-08, , , , 
DataValue, 2.7600000000000002, 1.7143199999999998E-08, , , , 
DataValue, 2.84, 2.0633199999999998E-08, , , , 
DataValue, 2.92, 2.4721799999999997E-08, , , , 
DataValue, 3, 2.9168199999999998E-08, , , , 
DataValue, 3.08, 3.35124E-08, , , , 
DataValue, 3.16, 3.72888E-08, , , , 
DataValue, 3.24, 4.4103999999999996E-08, , , , 
DataValue, 3.3200000000000003, 5.21448E-08, , , , 
DataValue, 3.4, 6.0911E-08, , , , 
DataValue, 3.48, 7.1830799999999992E-08, , , , 
DataValue, 3.56, 8.5423399999999992E-08, , , , 
DataValue, 3.64, 1.020354E-07, , , , 
DataValue, 3.72, 1.2172E-07, , , , 
DataValue, 3.8000000000000003, 1.4792E-07, , , , 
DataValue, 3.88, 1.8257999999999999E-07, , , , 
DataValue, 3.96, 2.3213999999999999E-07, , , , 
DataValue, 4.04, 2.9512E-07, , , , 
DataValue, 4.12, 3.8912E-07, , , , 
DataValue, 4.2, 5.095E-07, , , , 
DataValue, 4.28, 6.725E-07, , , , 
DataValue, 4.36, 8.539E-07, , , , 
DataValue, 4.44, 1.3164000000000002E-06, , , , 
DataValue, 4.5200000000000005, 1.7214000000000002E-06, , , , 
DataValue, 4.6000000000000005, 2.2962E-06, , , , 
DataValue, 4.68, 2.9616E-06, , , , 
DataValue, 4.76, 3.9381000000000005E-06, , , , 
DataValue, 4.84, 5.1435000000000008E-06, , , , 
DataValue, 4.92, 7.2113000000000007E-06, , , , 
DataValue, 5, 9.393600000000001E-06, , , , 