
SetupTitle, Two Terminal IV Sweep
PrimitiveTest, I/V Sweep
TestParameter, Context.MainFrame, B1500A
TestParameter, Channel.UnitType, SMU, SMU
TestParameter, Channel.Unit, SMU3:MP, SMU4:MP
TestParameter, Channel.IName, I3, I4
TestParameter, Channel.VName, V3, V4
TestParameter, Channel.Mode, V, V
TestParameter, Channel.Func, VAR1, CONST
TestParameter, Channel.Index, 
TestParameter, Channel.Time, 
TestParameter, Measurement.Port.Unit, SMU3:MP, SMU4:MP
TestParameter, Measurement.Port.SeriesResistor, NONE, NONE
TestParameter, Measurement.Port.Filter, ON, ON
TestParameter, Measurement.Port.OutputVoltageComparison, 0, 0
TestParameter, Measurement.Primary.Locus, Single
TestParameter, Measurement.Primary.Scale, LINEAR
TestParameter, Measurement.Primary.Start, -3
TestParameter, Measurement.Primary.Stop, 5
TestParameter, Measurement.Primary.Step, 0.08
TestParameter, Measurement.Primary.Compliance, 0.01
TestParameter, Measurement.Primary.PowerCompliance, 0
TestParameter, Measurement.Aborting.Condition, CONTINUE AT ANY
TestParameter, Measurement.PostOutput.Value, START
TestParameter, Measurement.PostOutput.Retention, OFF
TestParameter, Measurement.Bias.Source, -3, 0
TestParameter, Measurement.Bias.Compliance, 0.01, 0.1
TestParameter, Measurement.Monitor.Unit, SMU3:MP, SMU4:MP
TestParameter, Measurement.Monitor.Adc, HR ADC, HR ADC
TestParameter, Measurement.Monitor.Measurement, Compliance Side, Compliance Side
TestParameter, Measurement.Monitor.RangingMode, LIMITED, LIMITED
TestParameter, Measurement.Monitor.RangeBoundary, 1nA, 1nA
TestParameter, Measurement.Monitor.RangeRating, BY FULL RANGE, BY FULL RANGE
TestParameter, Measurement.Monitor.RangeRatingCoeff, 50, 50
TestParameter, Measurement.Timing.Hold, 0
TestParameter, Measurement.Timing.Delay, 0
TestParameter, Measurement.Adc.HighSpeed.Mode, AUTO
TestParameter, Measurement.Adc.HighSpeed.Coeff, 1
TestParameter, Measurement.Adc.HighResolution.AutoZero, OFF
TestParameter, Measurement.Adc.HighResolution.Mode, AUTO
TestParameter, Measurement.Adc.HighResolution.Coeff, 6
TestParameter, Measurement.WaitTime.Source.Coeff, 1
TestParameter, Measurement.WaitTime.Source.Offset, 0
TestParameter, Measurement.WaitTime.Monitor.Coeff, 1
TestParameter, Measurement.WaitTime.Monitor.Offset, 0
TestParameter, Output.Graph.Enabled, true
TestParameter, Output.Graph.AutoScaling, false
TestParameter, Output.Graph.XAxis.Data, V3
TestParameter, Output.Graph.XAxis.Scale, Linear
TestParameter, Output.Graph.XAxis.Left, -5
TestParameter, Output.Graph.XAxis.Right, 5
TestParameter, Output.Graph.XAxis.RunTimeAutoScale, true
TestParameter, Output.Graph.YAxis.Data, I3
TestParameter, Output.Graph.YAxis.Scale, Linear
TestParameter, Output.Graph.YAxis.Bottom, -0.1
TestParameter, Output.Graph.YAxis.Top, 0.1
TestParameter, Output.Graph.YAxis.Group, 
TestParameter, Output.Graph.YAxis.RunTimeAutoScale, true
TestParameter, Output.List.Data, V1, I1, V2, I2
TestParameter, AutoAnalysis.Interpolation, false
TestParameter, AutoAnalysis.Line1.Enabled, false
TestParameter, AutoAnalysis.Line1.Type, 1
TestParameter, AutoAnalysis.Line1.Fix, True
TestParameter, AutoAnalysis.Line1.YAxis, 0
TestParameter, AutoAnalysis.Line1.Point1.Type, 0
TestParameter, AutoAnalysis.Line1.Point1.XY.X, 
TestParameter, AutoAnalysis.Line1.Point1.XY.Y, 
TestParameter, AutoAnalysis.Line1.Point1.Data.Var, 
TestParameter, AutoAnalysis.Line1.Point1.Data.Condition, 
TestParameter, AutoAnalysis.Line1.Point1.Data.Start, false
TestParameter, AutoAnalysis.Line1.Point1.Data.StartVar, 
TestParameter, AutoAnalysis.Line1.Point1.Data.StartCondition, 
TestParameter, AutoAnalysis.Line1.Point2.Type, 0
TestParameter, AutoAnalysis.Line1.Point2.XY.X, 
TestParameter, AutoAnalysis.Line1.Point2.XY.Y, 
TestParameter, AutoAnalysis.Line1.Point2.Data.Var, 
TestParameter, AutoAnalysis.Line1.Point2.Data.Condition, 
TestParameter, AutoAnalysis.Line1.Point2.Data.Start, false
TestParameter, AutoAnalysis.Line1.Point2.Data.StartVar, 
TestParameter, AutoAnalysis.Line1.Point2.Data.StartCondition, 
TestParameter, AutoAnalysis.Line1.GradientExpr, 0
TestParameter, AutoAnalysis.Line2.Enabled, false
TestParameter, AutoAnalysis.Line2.Type, 1
TestParameter, AutoAnalysis.Line2.Fix, True
TestParameter, AutoAnalysis.Line2.YAxis, 0
TestParameter, AutoAnalysis.Line2.Point1.Type, 0
TestParameter, AutoAnalysis.Line2.Point1.XY.X, 
TestParameter, AutoAnalysis.Line2.Point1.XY.Y, 
TestParameter, AutoAnalysis.Line2.Point1.Data.Var, 
TestParameter, AutoAnalysis.Line2.Point1.Data.Condition, 
TestParameter, AutoAnalysis.Line2.Point1.Data.Start, false
TestParameter, AutoAnalysis.Line2.Point1.Data.StartVar, 
TestParameter, AutoAnalysis.Line2.Point1.Data.StartCondition, 
TestParameter, AutoAnalysis.Line2.Point2.Type, 0
TestParameter, AutoAnalysis.Line2.Point2.XY.X, 
TestParameter, AutoAnalysis.Line2.Point2.XY.Y, 
TestParameter, AutoAnalysis.Line2.Point2.Data.Var, 
TestParameter, AutoAnalysis.Line2.Point2.Data.Condition, 
TestParameter, AutoAnalysis.Line2.Point2.Data.Start, false
TestParameter, AutoAnalysis.Line2.Point2.Data.StartVar, 
TestParameter, AutoAnalysis.Line2.Point2.Data.StartCondition, 
TestParameter, AutoAnalysis.Line2.GradientExpr, 0
TestParameter, AutoAnalysis.Marker.Enabled, false
TestParameter, AutoAnalysis.Marker.Data.Var, 
TestParameter, AutoAnalysis.Marker.Data.Condition, 
TestParameter, AutoAnalysis.Marker.Data.Start, false
TestParameter, AutoAnalysis.Marker.Data.StartVar, 
TestParameter, AutoAnalysis.Marker.Data.StartCondition, 
MetaData, TestRecord.EntryPoint, true
MetaData, TestRecord.RecordTime, 03/06/2023 10:49:48
MetaData, TestRecord.TestTarget, 
MetaData, TestRecord.IterationIndex, 49
MetaData, TestRecord.Preservation, true
MetaData, TestRecord.Flag, 
MetaData, TestRecord.Remarks, 
MetaData, TestRecord.LinkKey, 72063b71-8dfc-4154-8e7d-8ff4bbc6506b
Dimension1, 101, 101, 101, 101, 101, 101
Dimension2, 1, 1, 1, 1, 1, 1
DataName, V3, I3, V1, I1, V2, I2
DataValue, -3, -8.5543000000000012E-10, , , , 
DataValue, -2.92, -7.4418E-10, , , , 
DataValue, -2.84, -6.5384000000000009E-10, , , , 
DataValue, -2.7600000000000002, -5.7727E-10, , , , 
DataValue, -2.68, -4.6698000000000008E-10, , , , 
DataValue, -2.6, -3.5772000000000003E-10, , , , 
DataValue, -2.52, -2.6294E-10, , , , 
DataValue, -2.44, -2.1176000000000003E-10, , , , 
DataValue, -2.36, -1.7922E-10, , , , 
DataValue, -2.2800000000000002, -1.4074000000000002E-10, , , , 
DataValue, -2.2, -9.994E-11, , , , 
DataValue, -2.12, -6.783E-11, , , , 
DataValue, -2.04, -6.347E-11, , , , 
DataValue, -1.96, -5.6240000000000004E-11, , , , 
DataValue, -1.8800000000000001, -4.869E-11, , , , 
DataValue, -1.8, -1.8440000000000003E-11, , , , 
DataValue, -1.72, 1.0500000000000002E-12, , , , 
DataValue, -1.6400000000000001, -1.0010000000000001E-11, , , , 
DataValue, -1.56, -1.9600000000000002E-11, , , , 
DataValue, -1.48, -3.8900000000000006E-12, , , , 
DataValue, -1.4000000000000001, 8.8100000000000014E-12, , , , 
DataValue, -1.32, 1.4150000000000001E-11, , , , 
DataValue, -1.24, 4.9500000000000005E-12, , , , 
DataValue, -1.16, -4.6100000000000008E-12, , , , 
DataValue, -1.08, 6.45E-12, , , , 
DataValue, -1, 1.7600000000000003E-11, , , , 
DataValue, -0.92, 2.4570000000000002E-11, , , , 
DataValue, -0.84, 1.2220000000000001E-11, , , , 
DataValue, -0.76, 4.3500000000000006E-12, , , , 
DataValue, -0.68, 1.0840000000000002E-11, , , , 
DataValue, -0.6, 2.2970000000000002E-11, , , , 
DataValue, -0.52, 3.055E-11, , , , 
DataValue, -0.44, 2.092E-11, , , , 
DataValue, -0.36, 1.3650000000000001E-11, , , , 
DataValue, -0.28, 1.3150000000000001E-11, , , , 
DataValue, -0.2, 2.6270000000000003E-11, , , , 
DataValue, -0.12, 3.653E-11, , , , 
DataValue, -0.04, 2.95E-11, , , , 
DataValue, 0.04, 2.4630000000000003E-11, , , , 
DataValue, 0.12, 2.839E-11, , , , 
DataValue, 0.2, 6.231E-11, , , , 
DataValue, 0.28, 1.7226E-10, , , , 
DataValue, 0.36, 3.5893E-10, , , , 
DataValue, 0.44, 5.0263000000000005E-10, , , , 
DataValue, 0.52, 6.0647000000000008E-10, , , , 
DataValue, 0.6, 7.172400000000001E-10, , , , 
DataValue, 0.68, 8.4157E-10, , , , 
DataValue, 0.76, 9.7668E-10, , , , 
DataValue, 0.84, 1.166E-09, , , , 
DataValue, 0.92, 1.4306E-09, , , , 
DataValue, 1, 1.7583E-09, , , , 
DataValue, 1.08, 2.1843E-09, , , , 
DataValue, 1.16, 2.7806E-09, , , , 
DataValue, 1.24, 3.6438E-09, , , , 
DataValue, 1.32, 4.734E-09, , , , 
DataValue, 1.4000000000000001, 6.2393E-09, , , , 
DataValue, 1.48, 8.4935E-09, , , , 
DataValue, 1.56, 1.11322E-08, , , , 
DataValue, 1.6400000000000001, 1.56736E-08, , , , 
DataValue, 1.72, 2.1576599999999997E-08, , , , 
DataValue, 1.8, 2.8661399999999996E-08, , , , 
DataValue, 1.8800000000000001, 3.8236199999999997E-08, , , , 
DataValue, 1.96, 5.1520599999999993E-08, , , , 
DataValue, 2.04, 7.55238E-08, , , , 
DataValue, 2.12, 9.950059999999999E-08, , , , 
DataValue, 2.2, 1.4464E-07, , , , 
DataValue, 2.2800000000000002, 1.8605999999999999E-07, , , , 
DataValue, 2.36, 2.3492E-07, , , , 
DataValue, 2.44, 3.0802E-07, , , , 
DataValue, 2.52, 4.0437999999999997E-07, , , , 
DataValue, 2.6, 5.345E-07, , , , 
DataValue, 2.68, 7.074E-07, , , , 
DataValue, 2.7600000000000002, 9.043E-07, , , , 
DataValue, 2.84, 1.1423E-06, , , , 
DataValue, 2.92, 1.5258E-06, , , , 
DataValue, 3, 2.0182E-06, , , , 
DataValue, 3.08, 2.5915E-06, , , , 
DataValue, 3.16, 3.3582000000000003E-06, , , , 
DataValue, 3.24, 4.2776E-06, , , , 
DataValue, 3.3200000000000003, 5.2593000000000006E-06, , , , 
DataValue, 3.4, 6.5608000000000008E-06, , , , 
DataValue, 3.48, 7.8466E-06, , , , 
DataValue, 3.56, 1.0194100000000001E-05, , , , 
DataValue, 3.64, 1.2640000000000001E-05, , , , 
DataValue, 3.72, 1.4644E-05, , , , 
DataValue, 3.8000000000000003, 1.7204E-05, , , , 
DataValue, 3.88, 2.0810000000000002E-05, , , , 
DataValue, 3.96, 2.3458E-05, , , , 
DataValue, 4.04, 2.881E-05, , , , 
DataValue, 4.12, 3.3616E-05, , , , 
DataValue, 4.2, 3.8442E-05, , , , 
DataValue, 4.28, 4.3922000000000004E-05, , , , 
DataValue, 4.36, 5.1626000000000003E-05, , , , 
DataValue, 4.44, 5.8294E-05, , , , 
DataValue, 4.5200000000000005, 6.5654E-05, , , , 
DataValue, 4.6000000000000005, 7.1214E-05, , , , 
DataValue, 4.68, 8.0364E-05, , , , 
DataValue, 4.76, 8.8856E-05, , , , 
DataValue, 4.84, 9.6134E-05, , , , 
DataValue, 4.92, 0.000101508, , , , 
DataValue, 5, 0.00012218, , , , 