
SetupTitle, Two Terminal IV Sweep
PrimitiveTest, I/V Sweep
TestParameter, Context.MainFrame, B1500A
TestParameter, Channel.UnitType, SMU, SMU
TestParameter, Channel.Unit, SMU3:MP, SMU4:MP
TestParameter, Channel.IName, I3, I4
TestParameter, Channel.VName, V3, V4
TestParameter, Channel.Mode, V, V
TestParameter, Channel.Func, VAR1, CONST
TestParameter, Channel.Index, 
TestParameter, Channel.Time, 
TestParameter, Measurement.Port.Unit, SMU3:MP, SMU4:MP
TestParameter, Measurement.Port.SeriesResistor, NONE, NONE
TestParameter, Measurement.Port.Filter, ON, ON
TestParameter, Measurement.Port.OutputVoltageComparison, 0, 0
TestParameter, Measurement.Primary.Locus, Single
TestParameter, Measurement.Primary.Scale, LINEAR
TestParameter, Measurement.Primary.Start, -10
TestParameter, Measurement.Primary.Stop, 0
TestParameter, Measurement.Primary.Step, 0.1
TestParameter, Measurement.Primary.Compliance, 0.01
TestParameter, Measurement.Primary.PowerCompliance, 0
TestParameter, Measurement.Aborting.Condition, CONTINUE AT ANY
TestParameter, Measurement.PostOutput.Value, START
TestParameter, Measurement.PostOutput.Retention, OFF
TestParameter, Measurement.Bias.Source, -10, 0
TestParameter, Measurement.Bias.Compliance, 0.01, 0.1
TestParameter, Measurement.Monitor.Unit, SMU3:MP, SMU4:MP
TestParameter, Measurement.Monitor.Adc, HR ADC, HR ADC
TestParameter, Measurement.Monitor.Measurement, Compliance Side, Compliance Side
TestParameter, Measurement.Monitor.RangingMode, LIMITED, LIMITED
TestParameter, Measurement.Monitor.RangeBoundary, 1nA, 1nA
TestParameter, Measurement.Monitor.RangeRating, BY FULL RANGE, BY FULL RANGE
TestParameter, Measurement.Monitor.RangeRatingCoeff, 50, 50
TestParameter, Measurement.Timing.Hold, 0
TestParameter, Measurement.Timing.Delay, 0
TestParameter, Measurement.Adc.HighSpeed.Mode, AUTO
TestParameter, Measurement.Adc.HighSpeed.Coeff, 1
TestParameter, Measurement.Adc.HighResolution.AutoZero, OFF
TestParameter, Measurement.Adc.HighResolution.Mode, AUTO
TestParameter, Measurement.Adc.HighResolution.Coeff, 6
TestParameter, Measurement.WaitTime.Source.Coeff, 1
TestParameter, Measurement.WaitTime.Source.Offset, 0
TestParameter, Measurement.WaitTime.Monitor.Coeff, 1
TestParameter, Measurement.WaitTime.Monitor.Offset, 0
TestParameter, Output.Graph.Enabled, true
TestParameter, Output.Graph.AutoScaling, false
TestParameter, Output.Graph.XAxis.Data, V3
TestParameter, Output.Graph.XAxis.Scale, Linear
TestParameter, Output.Graph.XAxis.Left, -5
TestParameter, Output.Graph.XAxis.Right, 5
TestParameter, Output.Graph.XAxis.RunTimeAutoScale, true
TestParameter, Output.Graph.YAxis.Data, I3
TestParameter, Output.Graph.YAxis.Scale, Linear
TestParameter, Output.Graph.YAxis.Bottom, -0.1
TestParameter, Output.Graph.YAxis.Top, 0.1
TestParameter, Output.Graph.YAxis.Group, 
TestParameter, Output.Graph.YAxis.RunTimeAutoScale, true
TestParameter, Output.List.Data, V1, I1, V2, I2
TestParameter, AutoAnalysis.Interpolation, false
TestParameter, AutoAnalysis.Line1.Enabled, false
TestParameter, AutoAnalysis.Line1.Type, 1
TestParameter, AutoAnalysis.Line1.Fix, True
TestParameter, AutoAnalysis.Line1.YAxis, 0
TestParameter, AutoAnalysis.Line1.Point1.Type, 0
TestParameter, AutoAnalysis.Line1.Point1.XY.X, 
TestParameter, AutoAnalysis.Line1.Point1.XY.Y, 
TestParameter, AutoAnalysis.Line1.Point1.Data.Var, 
TestParameter, AutoAnalysis.Line1.Point1.Data.Condition, 
TestParameter, AutoAnalysis.Line1.Point1.Data.Start, false
TestParameter, AutoAnalysis.Line1.Point1.Data.StartVar, 
TestParameter, AutoAnalysis.Line1.Point1.Data.StartCondition, 
TestParameter, AutoAnalysis.Line1.Point2.Type, 0
TestParameter, AutoAnalysis.Line1.Point2.XY.X, 
TestParameter, AutoAnalysis.Line1.Point2.XY.Y, 
TestParameter, AutoAnalysis.Line1.Point2.Data.Var, 
TestParameter, AutoAnalysis.Line1.Point2.Data.Condition, 
TestParameter, AutoAnalysis.Line1.Point2.Data.Start, false
TestParameter, AutoAnalysis.Line1.Point2.Data.StartVar, 
TestParameter, AutoAnalysis.Line1.Point2.Data.StartCondition, 
TestParameter, AutoAnalysis.Line1.GradientExpr, 0
TestParameter, AutoAnalysis.Line2.Enabled, false
TestParameter, AutoAnalysis.Line2.Type, 1
TestParameter, AutoAnalysis.Line2.Fix, True
TestParameter, AutoAnalysis.Line2.YAxis, 0
TestParameter, AutoAnalysis.Line2.Point1.Type, 0
TestParameter, AutoAnalysis.Line2.Point1.XY.X, 
TestParameter, AutoAnalysis.Line2.Point1.XY.Y, 
TestParameter, AutoAnalysis.Line2.Point1.Data.Var, 
TestParameter, AutoAnalysis.Line2.Point1.Data.Condition, 
TestParameter, AutoAnalysis.Line2.Point1.Data.Start, false
TestParameter, AutoAnalysis.Line2.Point1.Data.StartVar, 
TestParameter, AutoAnalysis.Line2.Point1.Data.StartCondition, 
TestParameter, AutoAnalysis.Line2.Point2.Type, 0
TestParameter, AutoAnalysis.Line2.Point2.XY.X, 
TestParameter, AutoAnalysis.Line2.Point2.XY.Y, 
TestParameter, AutoAnalysis.Line2.Point2.Data.Var, 
TestParameter, AutoAnalysis.Line2.Point2.Data.Condition, 
TestParameter, AutoAnalysis.Line2.Point2.Data.Start, false
TestParameter, AutoAnalysis.Line2.Point2.Data.StartVar, 
TestParameter, AutoAnalysis.Line2.Point2.Data.StartCondition, 
TestParameter, AutoAnalysis.Line2.GradientExpr, 0
TestParameter, AutoAnalysis.Marker.Enabled, false
TestParameter, AutoAnalysis.Marker.Data.Var, 
TestParameter, AutoAnalysis.Marker.Data.Condition, 
TestParameter, AutoAnalysis.Marker.Data.Start, false
TestParameter, AutoAnalysis.Marker.Data.StartVar, 
TestParameter, AutoAnalysis.Marker.Data.StartCondition, 
MetaData, TestRecord.EntryPoint, true
MetaData, TestRecord.RecordTime, 03/06/2023 10:52:06
MetaData, TestRecord.TestTarget, 
MetaData, TestRecord.IterationIndex, 51
MetaData, TestRecord.Preservation, true
MetaData, TestRecord.Flag, 
MetaData, TestRecord.Remarks, 
MetaData, TestRecord.LinkKey, 563ae52b-f424-4da5-ba17-1719c93d5949
Dimension1, 101, 101, 101, 101, 101, 101
Dimension2, 1, 1, 1, 1, 1, 1
DataName, V3, I3, V1, I1, V2, I2
DataValue, -10, -0.00019204, , , , 
DataValue, -9.9, -0.00014898, , , , 
DataValue, -9.8, -0.00011278, , , , 
DataValue, -9.7000000000000011, -8.2958E-05, , , , 
DataValue, -9.6, -5.9044E-05, , , , 
DataValue, -9.5, -3.9954000000000004E-05, , , , 
DataValue, -9.4, -2.5336E-05, , , , 
DataValue, -9.3, -1.4962E-05, , , , 
DataValue, -9.2000000000000011, -8.0192000000000011E-06, , , , 
DataValue, -9.1, -3.9337E-06, , , , 
DataValue, -9, -1.7634000000000001E-06, , , , 
DataValue, -8.9, -7.0954E-07, , , , 
DataValue, -8.8, -2.6414E-07, , , , 
DataValue, -8.7000000000000011, -9.73833E-08, , , , 
DataValue, -8.6, -4.78754E-08, , , , 
DataValue, -8.5, -3.34423E-08, , , , 
DataValue, -8.4, -2.5905799999999996E-08, , , , 
DataValue, -8.3, -2.0868899999999998E-08, , , , 
DataValue, -8.2, -1.72782E-08, , , , 
DataValue, -8.1, -1.46296E-08, , , , 
DataValue, -8, -1.24691E-08, , , , 
DataValue, -7.9, -1.07681E-08, , , , 
DataValue, -7.8, -9.4331E-09, , , , 
DataValue, -7.7, -8.2311E-09, , , , 
DataValue, -7.6000000000000005, -7.3761E-09, , , , 
DataValue, -7.5, -6.5541E-09, , , , 
DataValue, -7.4, -5.8584E-09, , , , 
DataValue, -7.3, -5.2426E-09, , , , 
DataValue, -7.2, -5.0852E-09, , , , 
DataValue, -7.1000000000000005, -4.5978E-09, , , , 
DataValue, -7, -4.1657E-09, , , , 
DataValue, -6.9, -3.8008E-09, , , , 
DataValue, -6.8, -3.4631E-09, , , , 
DataValue, -6.7, -3.2319E-09, , , , 
DataValue, -6.6000000000000005, -3.014E-09, , , , 
DataValue, -6.5, -2.7851E-09, , , , 
DataValue, -6.4, -2.5584E-09, , , , 
DataValue, -6.3, -2.3695E-09, , , , 
DataValue, -6.2, -2.2293E-09, , , , 
DataValue, -6.1000000000000005, -2.0945E-09, , , , 
DataValue, -6, -1.9494E-09, , , , 
DataValue, -5.9, -1.7845E-09, , , , 
DataValue, -5.8, -1.6644E-09, , , , 
DataValue, -5.7, -1.592E-09, , , , 
DataValue, -5.6000000000000005, -1.5235E-09, , , , 
DataValue, -5.5, -1.4088E-09, , , , 
DataValue, -5.4, -1.2866E-09, , , , 
DataValue, -5.3, -1.2131E-09, , , , 
DataValue, -5.2, -1.1618E-09, , , , 
DataValue, -5.1000000000000005, -1.1152E-09, , , , 
DataValue, -5, -1.0147E-09, , , , 
DataValue, -4.9, -9.7692000000000018E-10, , , , 
DataValue, -4.8, -9.0376000000000009E-10, , , , 
DataValue, -4.7, -8.3191000000000008E-10, , , , 
DataValue, -4.6000000000000005, -7.4927E-10, , , , 
DataValue, -4.5, -7.198E-10, , , , 
DataValue, -4.4, -6.6705000000000009E-10, , , , 
DataValue, -4.3, -6.0901E-10, , , , 
DataValue, -4.2, -5.6861000000000007E-10, , , , 
DataValue, -4.1, -5.2695E-10, , , , 
DataValue, -4, -4.97E-10, , , , 
DataValue, -3.9, -4.7023E-10, , , , 
DataValue, -3.8000000000000003, -4.3455E-10, , , , 
DataValue, -3.7, -4.1755E-10, , , , 
DataValue, -3.6, -3.9028E-10, , , , 
DataValue, -3.5, -3.5910000000000003E-10, , , , 
DataValue, -3.4, -3.3009000000000005E-10, , , , 
DataValue, -3.3000000000000003, -3.2213E-10, , , , 
DataValue, -3.2, -3.0116E-10, , , , 
DataValue, -3.1, -2.6918000000000005E-10, , , , 
DataValue, -3, -2.4267E-10, , , , 
DataValue, -2.9, -2.2224000000000003E-10, , , , 
DataValue, -2.8000000000000003, -1.973E-10, , , , 
DataValue, -2.7, -1.8005000000000001E-10, , , , 
DataValue, -2.6, -1.5844000000000002E-10, , , , 
DataValue, -2.5, -1.3760000000000002E-10, , , , 
DataValue, -2.4, -1.2140000000000002E-10, , , , 
DataValue, -2.3000000000000003, -9.906E-11, , , , 
DataValue, -2.2, -8.167E-11, , , , 
DataValue, -2.1, -6.634E-11, , , , 
DataValue, -2, -5.4280000000000005E-11, , , , 
DataValue, -1.9000000000000001, -4.8340000000000004E-11, , , , 
DataValue, -1.8, -4.2560000000000006E-11, , , , 
DataValue, -1.7, -3.3880000000000003E-11, , , , 
DataValue, -1.6, -2.897E-11, , , , 
DataValue, -1.5, -2.489E-11, , , , 
DataValue, -1.4000000000000001, -1.91E-11, , , , 
DataValue, -1.3, -1.1730000000000001E-11, , , , 
DataValue, -1.2, -1.069E-11, , , , 
DataValue, -1.1, -1.219E-11, , , , 
DataValue, -1, -1.252E-11, , , , 
DataValue, -0.9, -1.1230000000000001E-11, , , , 
DataValue, -0.8, -8.85E-12, , , , 
DataValue, -0.70000000000000007, -3.3900000000000003E-12, , , , 
DataValue, -0.6, 1.8200000000000003E-12, , , , 
DataValue, -0.5, 4.52E-12, , , , 
DataValue, -0.4, 8.77E-12, , , , 
DataValue, -0.3, 1.2030000000000001E-11, , , , 
DataValue, -0.2, 1.5540000000000002E-11, , , , 
DataValue, -0.1, 2.098E-11, , , , 
DataValue, 0, 2.5850000000000003E-11, , , , 