
SetupTitle, R-V
ApplicationTest, R-V, Public
TestParameter, Name, Port1, Port2, V1Start, V1Stop, V1Step, V2, I1Limit, IntegTime, HoldTime, DelayTime, Port1MinRng
TestParameter, Value, SMU1:MP	MPSMU, SMU2:MP	MPSMU, 0, 1, 0.05, 0, 0.01, MEDIUM, 0, 0, 1nA
DutParameter, Name, L, W, Temp
DutParameter, Value, 1E-05, 1E-06, 25
MetaData, TestRecord.EntryPoint, true
MetaData, TestRecord.RecordTime, 03/04/2023 17:50:14
MetaData, TestRecord.TestTarget, 
MetaData, TestRecord.IterationIndex, 165
MetaData, TestRecord.Preservation, true
MetaData, TestRecord.Flag, 
MetaData, TestRecord.Remarks, 
MetaData, TestRecord.LinkKey, 9d720a32-045a-4264-8ac2-5ebbd877c312
Dimension1, 21, 21, 21, 21
Dimension2, 1, 1, 1, 1
DataName, V1, I1, R, Rsheet
DataValue, 0, 1.7E-14, 0, 0
DataValue, 0.05, 7.3E-14, 684931506849.31506, 68493150684.931496
DataValue, 0.1, 2.1400000000000002E-13, 467289719626.16821, 46728971962.616814
DataValue, 0.15, 3.2400000000000003E-13, 462962962962.96289, 46296296296.29628
DataValue, 0.2, 2.43E-13, 823045267489.71191, 82304526748.971176
DataValue, 0.25, 3.1300000000000003E-13, 798722044728.43445, 79872204472.84343
DataValue, 0.3, 3.2000000000000005E-13, 937499999999.99988, 93749999999.999985
DataValue, 0.35000000000000003, 4.8200000000000007E-13, 726141078838.17419, 72614107883.8174
DataValue, 0.4, 3.03E-13, 1320132013201.32, 132013201320.132
DataValue, 0.45, 3.6900000000000004E-13, 1219512195121.9512, 121951219512.19511
DataValue, 0.5, 4.23E-13, 1182033096926.7139, 118203309692.67137
DataValue, 0.55, 4.8000000000000008E-13, 1145833333333.3333, 114583333333.33331
DataValue, 0.6, 3.7300000000000003E-13, 1608579088471.8496, 160857908847.18494
DataValue, 0.65, 4.98E-13, 1305220883534.1365, 130522088353.41364
DataValue, 0.70000000000000007, 3.9300000000000004E-13, 1781170483460.5598, 178117048346.05597
DataValue, 0.75, 4.3900000000000005E-13, 1708428246013.6672, 170842824601.3667
DataValue, 0.8, 4.0800000000000003E-13, 1960784313725.4902, 196078431372.549
DataValue, 0.85000000000000009, 5.2E-13, 1634615384615.3848, 163461538461.53845
DataValue, 0.9, 4.93E-13, 1825557809330.6287, 182555780933.06284
DataValue, 0.95000000000000007, 5E-13, 1900000000000.0002, 190000000000
DataValue, 1, 5.2500000000000009E-13, 1904761904761.9045, 190476190476.19043
SetupTitle, R-V
PrimitiveTest, I/V Sweep
TestParameter, Context.MainFrame, B1500A
TestParameter, Channel.UnitType, SMU, SMU
TestParameter, Channel.Unit, Port1, Port2
TestParameter, Channel.IName, I1, I2
TestParameter, Channel.VName, V1, V2
TestParameter, Channel.Mode, V, V
TestParameter, Channel.Func, VAR1, CONST
TestParameter, Channel.Index, 
TestParameter, Channel.Time, 
TestParameter, Measurement.Port.Unit, Port1, Port2
TestParameter, Measurement.Port.SeriesResistor, NONE, NONE
TestParameter, Measurement.Port.Filter, OFF, OFF
TestParameter, Measurement.Port.OutputVoltageComparison, 0, 0
TestParameter, Measurement.Primary.Locus, Single
TestParameter, Measurement.Primary.Scale, LINEAR
TestParameter, Measurement.Primary.Start, V1Start
TestParameter, Measurement.Primary.Stop, V1Stop
TestParameter, Measurement.Primary.Step, V1Step
TestParameter, Measurement.Primary.Compliance, I1Limit
TestParameter, Measurement.Primary.PowerCompliance, 0
TestParameter, Measurement.Aborting.Condition, CONTINUE AT ANY
TestParameter, Measurement.PostOutput.Value, START
TestParameter, Measurement.PostOutput.Retention, OFF
TestParameter, Measurement.Bias.Source, 0, V2
TestParameter, Measurement.Bias.Compliance, 0.01, I1Limit
TestParameter, Measurement.Monitor.Unit, SMU:=Port1, SMU:=Port2
TestParameter, Measurement.Monitor.Adc, HR ADC, HR ADC
TestParameter, Measurement.Monitor.Measurement, Compliance Side, Compliance Side
TestParameter, Measurement.Monitor.RangingMode, LIMITED, LIMITED
TestParameter, Measurement.Monitor.RangeBoundary, Port1MinRng, 1nA
TestParameter, Measurement.Monitor.RangeRating, BY FULL RANGE, BY FULL RANGE
TestParameter, Measurement.Monitor.RangeRatingCoeff, 50, 50
TestParameter, Measurement.Timing.Hold, HoldTime
TestParameter, Measurement.Timing.Delay, DelayTime
TestParameter, Measurement.Adc.HighSpeed.Mode, AUTO
TestParameter, Measurement.Adc.HighSpeed.Coeff, 1
TestParameter, Measurement.Adc.HighResolution.AutoZero, ON
TestParameter, Measurement.Adc.HighResolution.Mode, IntegMode
TestParameter, Measurement.Adc.HighResolution.Coeff, AdcFactor
TestParameter, Measurement.WaitTime.Source.Coeff, 1
TestParameter, Measurement.WaitTime.Source.Offset, 0
TestParameter, Measurement.WaitTime.Monitor.Coeff, 1
TestParameter, Measurement.WaitTime.Monitor.Offset, 0
TestParameter, Function.User.Name, R, Rsheet
TestParameter, Function.User.Unit, ohm, ohm/sheet
TestParameter, Function.User.Definition, V1/I1, R*W/L
TestParameter, Output.Graph.Enabled, true
TestParameter, Output.Graph.AutoScaling, false
TestParameter, Output.Graph.XAxis.Data, V1
TestParameter, Output.Graph.XAxis.Scale, Linear
TestParameter, Output.Graph.XAxis.Left, V1Start
TestParameter, Output.Graph.XAxis.Right, V1Stop
TestParameter, Output.Graph.XAxis.RunTimeAutoScale, false
TestParameter, Output.Graph.YAxis.Data, R, I1
TestParameter, Output.Graph.YAxis.Scale, Linear, Linear
TestParameter, Output.Graph.YAxis.Bottom, 0, 0
TestParameter, Output.Graph.YAxis.Top, V1Stop/I1Limit, I1Limit
TestParameter, Output.Graph.YAxis.Group, , 
TestParameter, Output.Graph.YAxis.RunTimeAutoScale, false, false
TestParameter, Output.List.Data, V1, I1, R, Rsheet
TestParameter, AutoAnalysis.Interpolation, false
TestParameter, AutoAnalysis.Line1.Enabled, false
TestParameter, AutoAnalysis.Line1.Type, 1
TestParameter, AutoAnalysis.Line1.Fix, False
TestParameter, AutoAnalysis.Line1.YAxis, 0
TestParameter, AutoAnalysis.Line1.Point1.Type, 0
TestParameter, AutoAnalysis.Line1.Point1.XY.X, 
TestParameter, AutoAnalysis.Line1.Point1.XY.Y, 
TestParameter, AutoAnalysis.Line1.Point1.Data.Var, 
TestParameter, AutoAnalysis.Line1.Point1.Data.Condition, 
TestParameter, AutoAnalysis.Line1.Point1.Data.Start, false
TestParameter, AutoAnalysis.Line1.Point1.Data.StartVar, 
TestParameter, AutoAnalysis.Line1.Point1.Data.StartCondition, 
TestParameter, AutoAnalysis.Line1.Point2.Type, 0
TestParameter, AutoAnalysis.Line1.Point2.XY.X, 
TestParameter, AutoAnalysis.Line1.Point2.XY.Y, 
TestParameter, AutoAnalysis.Line1.Point2.Data.Var, 
TestParameter, AutoAnalysis.Line1.Point2.Data.Condition, 
TestParameter, AutoAnalysis.Line1.Point2.Data.Start, false
TestParameter, AutoAnalysis.Line1.Point2.Data.StartVar, 
TestParameter, AutoAnalysis.Line1.Point2.Data.StartCondition, 
TestParameter, AutoAnalysis.Line1.GradientExpr, 0
TestParameter, AutoAnalysis.Line2.Enabled, false
TestParameter, AutoAnalysis.Line2.Type, 1
TestParameter, AutoAnalysis.Line2.Fix, False
TestParameter, AutoAnalysis.Line2.YAxis, 0
TestParameter, AutoAnalysis.Line2.Point1.Type, 0
TestParameter, AutoAnalysis.Line2.Point1.XY.X, 
TestParameter, AutoAnalysis.Line2.Point1.XY.Y, 
TestParameter, AutoAnalysis.Line2.Point1.Data.Var, 
TestParameter, AutoAnalysis.Line2.Point1.Data.Condition, 
TestParameter, AutoAnalysis.Line2.Point1.Data.Start, false
TestParameter, AutoAnalysis.Line2.Point1.Data.StartVar, 
TestParameter, AutoAnalysis.Line2.Point1.Data.StartCondition, 
TestParameter, AutoAnalysis.Line2.Point2.Type, 0
TestParameter, AutoAnalysis.Line2.Point2.XY.X, 
TestParameter, AutoAnalysis.Line2.Point2.XY.Y, 
TestParameter, AutoAnalysis.Line2.Point2.Data.Var, 
TestParameter, AutoAnalysis.Line2.Point2.Data.Condition, 
TestParameter, AutoAnalysis.Line2.Point2.Data.Start, false
TestParameter, AutoAnalysis.Line2.Point2.Data.StartVar, 
TestParameter, AutoAnalysis.Line2.Point2.Data.StartCondition, 
TestParameter, AutoAnalysis.Line2.GradientExpr, 0
TestParameter, AutoAnalysis.Marker.Enabled, false
TestParameter, AutoAnalysis.Marker.Data.Var, 
TestParameter, AutoAnalysis.Marker.Data.Condition, 
TestParameter, AutoAnalysis.Marker.Data.Start, false
TestParameter, AutoAnalysis.Marker.Data.StartVar, 
TestParameter, AutoAnalysis.Marker.Data.StartCondition, 
MetaData, TestRecord.EntryPoint, false
MetaData, TestRecord.RecordTime, 03/04/2023 17:50:14
MetaData, TestRecord.TestTarget, 
MetaData, TestRecord.IterationIndex, 165
MetaData, TestRecord.Preservation, true
MetaData, TestRecord.Flag, 
MetaData, TestRecord.Remarks, 
MetaData, TestRecord.LinkKey, 9d720a32-045a-4264-8ac2-5ebbd877c312
Dimension1, 21, 21, 21, 21
Dimension2, 1, 1, 1, 1
DataName, V1, I1, R, Rsheet
DataValue, 0, 1.7E-14, 0, 0
DataValue, 0.05, 7.3E-14, 684931506849.31506, 68493150684.931496
DataValue, 0.1, 2.1400000000000002E-13, 467289719626.16821, 46728971962.616814
DataValue, 0.15, 3.2400000000000003E-13, 462962962962.96289, 46296296296.29628
DataValue, 0.2, 2.43E-13, 823045267489.71191, 82304526748.971176
DataValue, 0.25, 3.1300000000000003E-13, 798722044728.43445, 79872204472.84343
DataValue, 0.3, 3.2000000000000005E-13, 937499999999.99988, 93749999999.999985
DataValue, 0.35000000000000003, 4.8200000000000007E-13, 726141078838.17419, 72614107883.8174
DataValue, 0.4, 3.03E-13, 1320132013201.32, 132013201320.132
DataValue, 0.45, 3.6900000000000004E-13, 1219512195121.9512, 121951219512.19511
DataValue, 0.5, 4.23E-13, 1182033096926.7139, 118203309692.67137
DataValue, 0.55, 4.8000000000000008E-13, 1145833333333.3333, 114583333333.33331
DataValue, 0.6, 3.7300000000000003E-13, 1608579088471.8496, 160857908847.18494
DataValue, 0.65, 4.98E-13, 1305220883534.1365, 130522088353.41364
DataValue, 0.70000000000000007, 3.9300000000000004E-13, 1781170483460.5598, 178117048346.05597
DataValue, 0.75, 4.3900000000000005E-13, 1708428246013.6672, 170842824601.3667
DataValue, 0.8, 4.0800000000000003E-13, 1960784313725.4902, 196078431372.549
DataValue, 0.85000000000000009, 5.2E-13, 1634615384615.3848, 163461538461.53845
DataValue, 0.9, 4.93E-13, 1825557809330.6287, 182555780933.06284
DataValue, 0.95000000000000007, 5E-13, 1900000000000.0002, 190000000000
DataValue, 1, 5.2500000000000009E-13, 1904761904761.9045, 190476190476.19043