
SetupTitle, R-V
ApplicationTest, R-V, Public
TestParameter, Name, Port1, Port2, V1Start, V1Stop, V1Step, V2, I1Limit, IntegTime, HoldTime, DelayTime, Port1MinRng
TestParameter, Value, SMU1:MP	MPSMU, SMU2:MP	MPSMU, 0, 1, 0.05, 0, 0.01, MEDIUM, 0, 0, 1nA
DutParameter, Name, L, W, Temp
DutParameter, Value, 1E-05, 1E-06, 25
MetaData, TestRecord.EntryPoint, true
MetaData, TestRecord.RecordTime, 03/04/2023 17:47:36
MetaData, TestRecord.TestTarget, 
MetaData, TestRecord.IterationIndex, 161
MetaData, TestRecord.Preservation, true
MetaData, TestRecord.Flag, 
MetaData, TestRecord.Remarks, 
MetaData, TestRecord.LinkKey, 018d0f55-7b0e-4754-bad0-b61a49febf3e
Dimension1, 21, 21, 21, 21
Dimension2, 1, 1, 1, 1
DataName, V1, I1, R, Rsheet
DataValue, 0, -4.92854E-10, -0, -0
DataValue, 0.05, 1.4478400000000002E-06, 34534.202674328655, 3453.4202674328653
DataValue, 0.1, 2.8941900000000003E-06, 34551.981728912062, 3455.1981728912056
DataValue, 0.15, 4.3428100000000009E-06, 34539.84862335676, 3453.9848623356756
DataValue, 0.2, 5.78863E-06, 34550.489494059904, 3455.04894940599
DataValue, 0.25, 7.237240000000001E-06, 34543.555277978892, 3454.355527797889
DataValue, 0.3, 8.6837500000000014E-06, 34547.286598531733, 3454.7286598531732
DataValue, 0.35000000000000003, 1.0132690000000001E-05, 34541.666625545637, 3454.1666625545631
DataValue, 0.4, 1.15791E-05, 34544.999179556267, 3454.4999179556262
DataValue, 0.45, 1.30267E-05, 34544.435659069452, 3454.4435659069445
DataValue, 0.5, 1.44748E-05, 34542.791610246772, 3454.2791610246768
DataValue, 0.55, 1.59217E-05, 34544.049944415485, 3454.4049944415483
DataValue, 0.6, 1.7368600000000002E-05, 34545.098626256571, 3454.5098626256568
DataValue, 0.65, 1.8816500000000002E-05, 34544.150081045889, 3454.4150081045887
DataValue, 0.70000000000000007, 2.02651E-05, 34542.14388283305, 3454.2143882833043
DataValue, 0.75, 2.17114E-05, 34544.064408559556, 3454.4064408559552
DataValue, 0.8, 2.31595E-05, 34543.060083335135, 3454.3060083335126
DataValue, 0.85000000000000009, 2.46053E-05, 34545.40281971771, 3454.54028197177
DataValue, 0.9, 2.6054300000000002E-05, 34543.242382255521, 3454.3242382255517
DataValue, 0.95000000000000007, 2.75015E-05, 34543.570350708142, 3454.3570350708137
DataValue, 1, 2.8948300000000002E-05, 34544.342845693871, 3454.4342845693864
SetupTitle, R-V
PrimitiveTest, I/V Sweep
TestParameter, Context.MainFrame, B1500A
TestParameter, Channel.UnitType, SMU, SMU
TestParameter, Channel.Unit, Port1, Port2
TestParameter, Channel.IName, I1, I2
TestParameter, Channel.VName, V1, V2
TestParameter, Channel.Mode, V, V
TestParameter, Channel.Func, VAR1, CONST
TestParameter, Channel.Index, 
TestParameter, Channel.Time, 
TestParameter, Measurement.Port.Unit, Port1, Port2
TestParameter, Measurement.Port.SeriesResistor, NONE, NONE
TestParameter, Measurement.Port.Filter, OFF, OFF
TestParameter, Measurement.Port.OutputVoltageComparison, 0, 0
TestParameter, Measurement.Primary.Locus, Single
TestParameter, Measurement.Primary.Scale, LINEAR
TestParameter, Measurement.Primary.Start, V1Start
TestParameter, Measurement.Primary.Stop, V1Stop
TestParameter, Measurement.Primary.Step, V1Step
TestParameter, Measurement.Primary.Compliance, I1Limit
TestParameter, Measurement.Primary.PowerCompliance, 0
TestParameter, Measurement.Aborting.Condition, CONTINUE AT ANY
TestParameter, Measurement.PostOutput.Value, START
TestParameter, Measurement.PostOutput.Retention, OFF
TestParameter, Measurement.Bias.Source, 0, V2
TestParameter, Measurement.Bias.Compliance, 0.01, I1Limit
TestParameter, Measurement.Monitor.Unit, SMU:=Port1, SMU:=Port2
TestParameter, Measurement.Monitor.Adc, HR ADC, HR ADC
TestParameter, Measurement.Monitor.Measurement, Compliance Side, Compliance Side
TestParameter, Measurement.Monitor.RangingMode, LIMITED, LIMITED
TestParameter, Measurement.Monitor.RangeBoundary, Port1MinRng, 1nA
TestParameter, Measurement.Monitor.RangeRating, BY FULL RANGE, BY FULL RANGE
TestParameter, Measurement.Monitor.RangeRatingCoeff, 50, 50
TestParameter, Measurement.Timing.Hold, HoldTime
TestParameter, Measurement.Timing.Delay, DelayTime
TestParameter, Measurement.Adc.HighSpeed.Mode, AUTO
TestParameter, Measurement.Adc.HighSpeed.Coeff, 1
TestParameter, Measurement.Adc.HighResolution.AutoZero, ON
TestParameter, Measurement.Adc.HighResolution.Mode, IntegMode
TestParameter, Measurement.Adc.HighResolution.Coeff, AdcFactor
TestParameter, Measurement.WaitTime.Source.Coeff, 1
TestParameter, Measurement.WaitTime.Source.Offset, 0
TestParameter, Measurement.WaitTime.Monitor.Coeff, 1
TestParameter, Measurement.WaitTime.Monitor.Offset, 0
TestParameter, Function.User.Name, R, Rsheet
TestParameter, Function.User.Unit, ohm, ohm/sheet
TestParameter, Function.User.Definition, V1/I1, R*W/L
TestParameter, Output.Graph.Enabled, true
TestParameter, Output.Graph.AutoScaling, false
TestParameter, Output.Graph.XAxis.Data, V1
TestParameter, Output.Graph.XAxis.Scale, Linear
TestParameter, Output.Graph.XAxis.Left, V1Start
TestParameter, Output.Graph.XAxis.Right, V1Stop
TestParameter, Output.Graph.XAxis.RunTimeAutoScale, false
TestParameter, Output.Graph.YAxis.Data, R, I1
TestParameter, Output.Graph.YAxis.Scale, Linear, Linear
TestParameter, Output.Graph.YAxis.Bottom, 0, 0
TestParameter, Output.Graph.YAxis.Top, V1Stop/I1Limit, I1Limit
TestParameter, Output.Graph.YAxis.Group, , 
TestParameter, Output.Graph.YAxis.RunTimeAutoScale, false, false
TestParameter, Output.List.Data, V1, I1, R, Rsheet
TestParameter, AutoAnalysis.Interpolation, false
TestParameter, AutoAnalysis.Line1.Enabled, false
TestParameter, AutoAnalysis.Line1.Type, 1
TestParameter, AutoAnalysis.Line1.Fix, False
TestParameter, AutoAnalysis.Line1.YAxis, 0
TestParameter, AutoAnalysis.Line1.Point1.Type, 0
TestParameter, AutoAnalysis.Line1.Point1.XY.X, 
TestParameter, AutoAnalysis.Line1.Point1.XY.Y, 
TestParameter, AutoAnalysis.Line1.Point1.Data.Var, 
TestParameter, AutoAnalysis.Line1.Point1.Data.Condition, 
TestParameter, AutoAnalysis.Line1.Point1.Data.Start, false
TestParameter, AutoAnalysis.Line1.Point1.Data.StartVar, 
TestParameter, AutoAnalysis.Line1.Point1.Data.StartCondition, 
TestParameter, AutoAnalysis.Line1.Point2.Type, 0
TestParameter, AutoAnalysis.Line1.Point2.XY.X, 
TestParameter, AutoAnalysis.Line1.Point2.XY.Y, 
TestParameter, AutoAnalysis.Line1.Point2.Data.Var, 
TestParameter, AutoAnalysis.Line1.Point2.Data.Condition, 
TestParameter, AutoAnalysis.Line1.Point2.Data.Start, false
TestParameter, AutoAnalysis.Line1.Point2.Data.StartVar, 
TestParameter, AutoAnalysis.Line1.Point2.Data.StartCondition, 
TestParameter, AutoAnalysis.Line1.GradientExpr, 0
TestParameter, AutoAnalysis.Line2.Enabled, false
TestParameter, AutoAnalysis.Line2.Type, 1
TestParameter, AutoAnalysis.Line2.Fix, False
TestParameter, AutoAnalysis.Line2.YAxis, 0
TestParameter, AutoAnalysis.Line2.Point1.Type, 0
TestParameter, AutoAnalysis.Line2.Point1.XY.X, 
TestParameter, AutoAnalysis.Line2.Point1.XY.Y, 
TestParameter, AutoAnalysis.Line2.Point1.Data.Var, 
TestParameter, AutoAnalysis.Line2.Point1.Data.Condition, 
TestParameter, AutoAnalysis.Line2.Point1.Data.Start, false
TestParameter, AutoAnalysis.Line2.Point1.Data.StartVar, 
TestParameter, AutoAnalysis.Line2.Point1.Data.StartCondition, 
TestParameter, AutoAnalysis.Line2.Point2.Type, 0
TestParameter, AutoAnalysis.Line2.Point2.XY.X, 
TestParameter, AutoAnalysis.Line2.Point2.XY.Y, 
TestParameter, AutoAnalysis.Line2.Point2.Data.Var, 
TestParameter, AutoAnalysis.Line2.Point2.Data.Condition, 
TestParameter, AutoAnalysis.Line2.Point2.Data.Start, false
TestParameter, AutoAnalysis.Line2.Point2.Data.StartVar, 
TestParameter, AutoAnalysis.Line2.Point2.Data.StartCondition, 
TestParameter, AutoAnalysis.Line2.GradientExpr, 0
TestParameter, AutoAnalysis.Marker.Enabled, false
TestParameter, AutoAnalysis.Marker.Data.Var, 
TestParameter, AutoAnalysis.Marker.Data.Condition, 
TestParameter, AutoAnalysis.Marker.Data.Start, false
TestParameter, AutoAnalysis.Marker.Data.StartVar, 
TestParameter, AutoAnalysis.Marker.Data.StartCondition, 
MetaData, TestRecord.EntryPoint, false
MetaData, TestRecord.RecordTime, 03/04/2023 17:47:35
MetaData, TestRecord.TestTarget, 
MetaData, TestRecord.IterationIndex, 161
MetaData, TestRecord.Preservation, true
MetaData, TestRecord.Flag, 
MetaData, TestRecord.Remarks, 
MetaData, TestRecord.LinkKey, 018d0f55-7b0e-4754-bad0-b61a49febf3e
Dimension1, 21, 21, 21, 21
Dimension2, 1, 1, 1, 1
DataName, V1, I1, R, Rsheet
DataValue, 0, -4.92854E-10, -0, -0
DataValue, 0.05, 1.4478400000000002E-06, 34534.202674328655, 3453.4202674328653
DataValue, 0.1, 2.8941900000000003E-06, 34551.981728912062, 3455.1981728912056
DataValue, 0.15, 4.3428100000000009E-06, 34539.84862335676, 3453.9848623356756
DataValue, 0.2, 5.78863E-06, 34550.489494059904, 3455.04894940599
DataValue, 0.25, 7.237240000000001E-06, 34543.555277978892, 3454.355527797889
DataValue, 0.3, 8.6837500000000014E-06, 34547.286598531733, 3454.7286598531732
DataValue, 0.35000000000000003, 1.0132690000000001E-05, 34541.666625545637, 3454.1666625545631
DataValue, 0.4, 1.15791E-05, 34544.999179556267, 3454.4999179556262
DataValue, 0.45, 1.30267E-05, 34544.435659069452, 3454.4435659069445
DataValue, 0.5, 1.44748E-05, 34542.791610246772, 3454.2791610246768
DataValue, 0.55, 1.59217E-05, 34544.049944415485, 3454.4049944415483
DataValue, 0.6, 1.7368600000000002E-05, 34545.098626256571, 3454.5098626256568
DataValue, 0.65, 1.8816500000000002E-05, 34544.150081045889, 3454.4150081045887
DataValue, 0.70000000000000007, 2.02651E-05, 34542.14388283305, 3454.2143882833043
DataValue, 0.75, 2.17114E-05, 34544.064408559556, 3454.4064408559552
DataValue, 0.8, 2.31595E-05, 34543.060083335135, 3454.3060083335126
DataValue, 0.85000000000000009, 2.46053E-05, 34545.40281971771, 3454.54028197177
DataValue, 0.9, 2.6054300000000002E-05, 34543.242382255521, 3454.3242382255517
DataValue, 0.95000000000000007, 2.75015E-05, 34543.570350708142, 3454.3570350708137
DataValue, 1, 2.8948300000000002E-05, 34544.342845693871, 3454.4342845693864