
SetupTitle, R-V
ApplicationTest, R-V, Public
TestParameter, Name, Port1, Port2, V1Start, V1Stop, V1Step, V2, I1Limit, IntegTime, HoldTime, DelayTime, Port1MinRng
TestParameter, Value, SMU1:MP	MPSMU, SMU2:MP	MPSMU, 0, 1, 0.05, 0, 0.01, MEDIUM, 0, 0, 1nA
DutParameter, Name, L, W, Temp
DutParameter, Value, 1E-05, 1E-06, 25
MetaData, TestRecord.EntryPoint, true
MetaData, TestRecord.RecordTime, 03/04/2023 17:28:18
MetaData, TestRecord.TestTarget, 
MetaData, TestRecord.IterationIndex, 132
MetaData, TestRecord.Preservation, true
MetaData, TestRecord.Flag, 
MetaData, TestRecord.Remarks, 
MetaData, TestRecord.LinkKey, b0c2cef7-75c2-49fd-adf3-2ddaeaf337e9
Dimension1, 21, 21, 21, 21
Dimension2, 1, 1, 1, 1
DataName, V1, I1, R, Rsheet
DataValue, 0, -1.36E-13, -0, -0
DataValue, 0.05, 3.8500000000000003E-13, 129870129870.12987, 12987012987.012985
DataValue, 0.1, 4.8500000000000005E-13, 206185567010.30927, 20618556701.030926
DataValue, 0.15, 4.0500000000000004E-13, 370370370370.3703, 37037037037.037025
DataValue, 0.2, 8.6300000000000006E-13, 231749710312.86209, 23174971031.286209
DataValue, 0.25, 7.6800000000000006E-13, 325520833333.33331, 32552083333.333328
DataValue, 0.3, 8.1400000000000007E-13, 368550368550.36853, 36855036855.03685
DataValue, 0.35000000000000003, 9.8500000000000014E-13, 355329949238.57867, 35532994923.857864
DataValue, 0.4, 1.667E-12, 239952009598.08038, 23995200959.808033
DataValue, 0.45, 1.069E-12, 420954162768.94293, 42095416276.894287
DataValue, 0.5, 9.98E-13, 501002004008.01605, 50100200400.8016
DataValue, 0.55, 1.6330000000000002E-12, 336803429271.27985, 33680342927.127979
DataValue, 0.6, 1.1580000000000001E-12, 518134715025.90668, 51813471502.59066
DataValue, 0.65, 1.322E-12, 491679273827.53406, 49167927382.7534
DataValue, 0.70000000000000007, 1.391E-12, 503235082674.335, 50323508267.433495
DataValue, 0.75, 1.256E-12, 597133757961.78345, 59713375796.178337
DataValue, 0.8, 1.2420000000000002E-12, 644122383252.818, 64412238325.2818
DataValue, 0.85000000000000009, 1.0730000000000002E-12, 792171481826.65417, 79217148182.6654
DataValue, 0.9, 1.523E-12, 590938936309.91467, 59093893630.991463
DataValue, 0.95000000000000007, 1.3990000000000002E-12, 679056468906.36169, 67905646890.636154
DataValue, 1, 1.531E-12, 653167864141.08423, 65316786414.108421
SetupTitle, R-V
PrimitiveTest, I/V Sweep
TestParameter, Context.MainFrame, B1500A
TestParameter, Channel.UnitType, SMU, SMU
TestParameter, Channel.Unit, Port1, Port2
TestParameter, Channel.IName, I1, I2
TestParameter, Channel.VName, V1, V2
TestParameter, Channel.Mode, V, V
TestParameter, Channel.Func, VAR1, CONST
TestParameter, Channel.Index, 
TestParameter, Channel.Time, 
TestParameter, Measurement.Port.Unit, Port1, Port2
TestParameter, Measurement.Port.SeriesResistor, NONE, NONE
TestParameter, Measurement.Port.Filter, OFF, OFF
TestParameter, Measurement.Port.OutputVoltageComparison, 0, 0
TestParameter, Measurement.Primary.Locus, Single
TestParameter, Measurement.Primary.Scale, LINEAR
TestParameter, Measurement.Primary.Start, V1Start
TestParameter, Measurement.Primary.Stop, V1Stop
TestParameter, Measurement.Primary.Step, V1Step
TestParameter, Measurement.Primary.Compliance, I1Limit
TestParameter, Measurement.Primary.PowerCompliance, 0
TestParameter, Measurement.Aborting.Condition, CONTINUE AT ANY
TestParameter, Measurement.PostOutput.Value, START
TestParameter, Measurement.PostOutput.Retention, OFF
TestParameter, Measurement.Bias.Source, 0, V2
TestParameter, Measurement.Bias.Compliance, 0.01, I1Limit
TestParameter, Measurement.Monitor.Unit, SMU:=Port1, SMU:=Port2
TestParameter, Measurement.Monitor.Adc, HR ADC, HR ADC
TestParameter, Measurement.Monitor.Measurement, Compliance Side, Compliance Side
TestParameter, Measurement.Monitor.RangingMode, LIMITED, LIMITED
TestParameter, Measurement.Monitor.RangeBoundary, Port1MinRng, 1nA
TestParameter, Measurement.Monitor.RangeRating, BY FULL RANGE, BY FULL RANGE
TestParameter, Measurement.Monitor.RangeRatingCoeff, 50, 50
TestParameter, Measurement.Timing.Hold, HoldTime
TestParameter, Measurement.Timing.Delay, DelayTime
TestParameter, Measurement.Adc.HighSpeed.Mode, AUTO
TestParameter, Measurement.Adc.HighSpeed.Coeff, 1
TestParameter, Measurement.Adc.HighResolution.AutoZero, ON
TestParameter, Measurement.Adc.HighResolution.Mode, IntegMode
TestParameter, Measurement.Adc.HighResolution.Coeff, AdcFactor
TestParameter, Measurement.WaitTime.Source.Coeff, 1
TestParameter, Measurement.WaitTime.Source.Offset, 0
TestParameter, Measurement.WaitTime.Monitor.Coeff, 1
TestParameter, Measurement.WaitTime.Monitor.Offset, 0
TestParameter, Function.User.Name, R, Rsheet
TestParameter, Function.User.Unit, ohm, ohm/sheet
TestParameter, Function.User.Definition, V1/I1, R*W/L
TestParameter, Output.Graph.Enabled, true
TestParameter, Output.Graph.AutoScaling, false
TestParameter, Output.Graph.XAxis.Data, V1
TestParameter, Output.Graph.XAxis.Scale, Linear
TestParameter, Output.Graph.XAxis.Left, V1Start
TestParameter, Output.Graph.XAxis.Right, V1Stop
TestParameter, Output.Graph.XAxis.RunTimeAutoScale, false
TestParameter, Output.Graph.YAxis.Data, R, I1
TestParameter, Output.Graph.YAxis.Scale, Linear, Linear
TestParameter, Output.Graph.YAxis.Bottom, 0, 0
TestParameter, Output.Graph.YAxis.Top, V1Stop/I1Limit, I1Limit
TestParameter, Output.Graph.YAxis.Group, , 
TestParameter, Output.Graph.YAxis.RunTimeAutoScale, false, false
TestParameter, Output.List.Data, V1, I1, R, Rsheet
TestParameter, AutoAnalysis.Interpolation, false
TestParameter, AutoAnalysis.Line1.Enabled, false
TestParameter, AutoAnalysis.Line1.Type, 1
TestParameter, AutoAnalysis.Line1.Fix, False
TestParameter, AutoAnalysis.Line1.YAxis, 0
TestParameter, AutoAnalysis.Line1.Point1.Type, 0
TestParameter, AutoAnalysis.Line1.Point1.XY.X, 
TestParameter, AutoAnalysis.Line1.Point1.XY.Y, 
TestParameter, AutoAnalysis.Line1.Point1.Data.Var, 
TestParameter, AutoAnalysis.Line1.Point1.Data.Condition, 
TestParameter, AutoAnalysis.Line1.Point1.Data.Start, false
TestParameter, AutoAnalysis.Line1.Point1.Data.StartVar, 
TestParameter, AutoAnalysis.Line1.Point1.Data.StartCondition, 
TestParameter, AutoAnalysis.Line1.Point2.Type, 0
TestParameter, AutoAnalysis.Line1.Point2.XY.X, 
TestParameter, AutoAnalysis.Line1.Point2.XY.Y, 
TestParameter, AutoAnalysis.Line1.Point2.Data.Var, 
TestParameter, AutoAnalysis.Line1.Point2.Data.Condition, 
TestParameter, AutoAnalysis.Line1.Point2.Data.Start, false
TestParameter, AutoAnalysis.Line1.Point2.Data.StartVar, 
TestParameter, AutoAnalysis.Line1.Point2.Data.StartCondition, 
TestParameter, AutoAnalysis.Line1.GradientExpr, 0
TestParameter, AutoAnalysis.Line2.Enabled, false
TestParameter, AutoAnalysis.Line2.Type, 1
TestParameter, AutoAnalysis.Line2.Fix, False
TestParameter, AutoAnalysis.Line2.YAxis, 0
TestParameter, AutoAnalysis.Line2.Point1.Type, 0
TestParameter, AutoAnalysis.Line2.Point1.XY.X, 
TestParameter, AutoAnalysis.Line2.Point1.XY.Y, 
TestParameter, AutoAnalysis.Line2.Point1.Data.Var, 
TestParameter, AutoAnalysis.Line2.Point1.Data.Condition, 
TestParameter, AutoAnalysis.Line2.Point1.Data.Start, false
TestParameter, AutoAnalysis.Line2.Point1.Data.StartVar, 
TestParameter, AutoAnalysis.Line2.Point1.Data.StartCondition, 
TestParameter, AutoAnalysis.Line2.Point2.Type, 0
TestParameter, AutoAnalysis.Line2.Point2.XY.X, 
TestParameter, AutoAnalysis.Line2.Point2.XY.Y, 
TestParameter, AutoAnalysis.Line2.Point2.Data.Var, 
TestParameter, AutoAnalysis.Line2.Point2.Data.Condition, 
TestParameter, AutoAnalysis.Line2.Point2.Data.Start, false
TestParameter, AutoAnalysis.Line2.Point2.Data.StartVar, 
TestParameter, AutoAnalysis.Line2.Point2.Data.StartCondition, 
TestParameter, AutoAnalysis.Line2.GradientExpr, 0
TestParameter, AutoAnalysis.Marker.Enabled, false
TestParameter, AutoAnalysis.Marker.Data.Var, 
TestParameter, AutoAnalysis.Marker.Data.Condition, 
TestParameter, AutoAnalysis.Marker.Data.Start, false
TestParameter, AutoAnalysis.Marker.Data.StartVar, 
TestParameter, AutoAnalysis.Marker.Data.StartCondition, 
MetaData, TestRecord.EntryPoint, false
MetaData, TestRecord.RecordTime, 03/04/2023 17:28:18
MetaData, TestRecord.TestTarget, 
MetaData, TestRecord.IterationIndex, 132
MetaData, TestRecord.Preservation, true
MetaData, TestRecord.Flag, 
MetaData, TestRecord.Remarks, 
MetaData, TestRecord.LinkKey, b0c2cef7-75c2-49fd-adf3-2ddaeaf337e9
Dimension1, 21, 21, 21, 21
Dimension2, 1, 1, 1, 1
DataName, V1, I1, R, Rsheet
DataValue, 0, -1.36E-13, -0, -0
DataValue, 0.05, 3.8500000000000003E-13, 129870129870.12987, 12987012987.012985
DataValue, 0.1, 4.8500000000000005E-13, 206185567010.30927, 20618556701.030926
DataValue, 0.15, 4.0500000000000004E-13, 370370370370.3703, 37037037037.037025
DataValue, 0.2, 8.6300000000000006E-13, 231749710312.86209, 23174971031.286209
DataValue, 0.25, 7.6800000000000006E-13, 325520833333.33331, 32552083333.333328
DataValue, 0.3, 8.1400000000000007E-13, 368550368550.36853, 36855036855.03685
DataValue, 0.35000000000000003, 9.8500000000000014E-13, 355329949238.57867, 35532994923.857864
DataValue, 0.4, 1.667E-12, 239952009598.08038, 23995200959.808033
DataValue, 0.45, 1.069E-12, 420954162768.94293, 42095416276.894287
DataValue, 0.5, 9.98E-13, 501002004008.01605, 50100200400.8016
DataValue, 0.55, 1.6330000000000002E-12, 336803429271.27985, 33680342927.127979
DataValue, 0.6, 1.1580000000000001E-12, 518134715025.90668, 51813471502.59066
DataValue, 0.65, 1.322E-12, 491679273827.53406, 49167927382.7534
DataValue, 0.70000000000000007, 1.391E-12, 503235082674.335, 50323508267.433495
DataValue, 0.75, 1.256E-12, 597133757961.78345, 59713375796.178337
DataValue, 0.8, 1.2420000000000002E-12, 644122383252.818, 64412238325.2818
DataValue, 0.85000000000000009, 1.0730000000000002E-12, 792171481826.65417, 79217148182.6654
DataValue, 0.9, 1.523E-12, 590938936309.91467, 59093893630.991463
DataValue, 0.95000000000000007, 1.3990000000000002E-12, 679056468906.36169, 67905646890.636154
DataValue, 1, 1.531E-12, 653167864141.08423, 65316786414.108421