
SetupTitle, R-V
ApplicationTest, R-V, Public
TestParameter, Name, Port1, Port2, V1Start, V1Stop, V1Step, V2, I1Limit, IntegTime, HoldTime, DelayTime, Port1MinRng
TestParameter, Value, SMU1:MP	MPSMU, SMU2:MP	MPSMU, 0, 1, 0.05, 0, 0.01, MEDIUM, 0, 0, 1nA
DutParameter, Name, L, W, Temp
DutParameter, Value, 1E-05, 1E-06, 25
MetaData, TestRecord.EntryPoint, true
MetaData, TestRecord.RecordTime, 03/04/2023 17:29:04
MetaData, TestRecord.TestTarget, 
MetaData, TestRecord.IterationIndex, 133
MetaData, TestRecord.Preservation, true
MetaData, TestRecord.Flag, 
MetaData, TestRecord.Remarks, 
MetaData, TestRecord.LinkKey, 8eac0a40-ad19-4462-b143-92e12e02acb9
Dimension1, 21, 21, 21, 21
Dimension2, 1, 1, 1, 1
DataName, V1, I1, R, Rsheet
DataValue, 0, 3.15E-13, 0, 0
DataValue, 0.05, 6.400000000000001E-13, 78124999999.999985, 7812499999.9999981
DataValue, 0.1, 8.45E-13, 118343195266.27219, 11834319526.627216
DataValue, 0.15, 1.003E-12, 149551345962.11365, 14955134596.211363
DataValue, 0.2, 1.024E-12, 195312500000, 19531250000
DataValue, 0.25, 1.122E-12, 222816399286.98752, 22281639928.69875
DataValue, 0.3, 1.218E-12, 246305418719.21179, 24630541871.921173
DataValue, 0.35000000000000003, 1.314E-12, 266362252663.62253, 26636225266.362247
DataValue, 0.4, 1.354E-12, 295420974889.2171, 29542097488.921703
DataValue, 0.45, 1.2860000000000002E-12, 349922239502.33276, 34992223950.233276
DataValue, 0.5, 1.46E-12, 342465753424.65753, 34246575342.465748
DataValue, 0.55, 1.385E-12, 397111913357.40076, 39711191335.740074
DataValue, 0.6, 1.4780000000000002E-12, 405953991880.9201, 40595399188.092
DataValue, 0.65, 1.6830000000000002E-12, 386215092097.445, 38621509209.744492
DataValue, 0.70000000000000007, 1.7270000000000002E-12, 405327156919.51361, 40532715691.951355
DataValue, 0.75, 1.7980000000000002E-12, 417130144605.11676, 41713014460.511673
DataValue, 0.8, 1.851E-12, 432198811453.26849, 43219881145.326843
DataValue, 0.85000000000000009, 1.8650000000000002E-12, 455764075067.02411, 45576407506.702408
DataValue, 0.9, 2.068E-12, 435203094777.56287, 43520309477.756279
DataValue, 0.95000000000000007, 2.0040000000000003E-12, 474051896207.58478, 47405189620.758476
DataValue, 1, 2.244E-12, 445632798573.97504, 44563279857.3975
SetupTitle, R-V
PrimitiveTest, I/V Sweep
TestParameter, Context.MainFrame, B1500A
TestParameter, Channel.UnitType, SMU, SMU
TestParameter, Channel.Unit, Port1, Port2
TestParameter, Channel.IName, I1, I2
TestParameter, Channel.VName, V1, V2
TestParameter, Channel.Mode, V, V
TestParameter, Channel.Func, VAR1, CONST
TestParameter, Channel.Index, 
TestParameter, Channel.Time, 
TestParameter, Measurement.Port.Unit, Port1, Port2
TestParameter, Measurement.Port.SeriesResistor, NONE, NONE
TestParameter, Measurement.Port.Filter, OFF, OFF
TestParameter, Measurement.Port.OutputVoltageComparison, 0, 0
TestParameter, Measurement.Primary.Locus, Single
TestParameter, Measurement.Primary.Scale, LINEAR
TestParameter, Measurement.Primary.Start, V1Start
TestParameter, Measurement.Primary.Stop, V1Stop
TestParameter, Measurement.Primary.Step, V1Step
TestParameter, Measurement.Primary.Compliance, I1Limit
TestParameter, Measurement.Primary.PowerCompliance, 0
TestParameter, Measurement.Aborting.Condition, CONTINUE AT ANY
TestParameter, Measurement.PostOutput.Value, START
TestParameter, Measurement.PostOutput.Retention, OFF
TestParameter, Measurement.Bias.Source, 0, V2
TestParameter, Measurement.Bias.Compliance, 0.01, I1Limit
TestParameter, Measurement.Monitor.Unit, SMU:=Port1, SMU:=Port2
TestParameter, Measurement.Monitor.Adc, HR ADC, HR ADC
TestParameter, Measurement.Monitor.Measurement, Compliance Side, Compliance Side
TestParameter, Measurement.Monitor.RangingMode, LIMITED, LIMITED
TestParameter, Measurement.Monitor.RangeBoundary, Port1MinRng, 1nA
TestParameter, Measurement.Monitor.RangeRating, BY FULL RANGE, BY FULL RANGE
TestParameter, Measurement.Monitor.RangeRatingCoeff, 50, 50
TestParameter, Measurement.Timing.Hold, HoldTime
TestParameter, Measurement.Timing.Delay, DelayTime
TestParameter, Measurement.Adc.HighSpeed.Mode, AUTO
TestParameter, Measurement.Adc.HighSpeed.Coeff, 1
TestParameter, Measurement.Adc.HighResolution.AutoZero, ON
TestParameter, Measurement.Adc.HighResolution.Mode, IntegMode
TestParameter, Measurement.Adc.HighResolution.Coeff, AdcFactor
TestParameter, Measurement.WaitTime.Source.Coeff, 1
TestParameter, Measurement.WaitTime.Source.Offset, 0
TestParameter, Measurement.WaitTime.Monitor.Coeff, 1
TestParameter, Measurement.WaitTime.Monitor.Offset, 0
TestParameter, Function.User.Name, R, Rsheet
TestParameter, Function.User.Unit, ohm, ohm/sheet
TestParameter, Function.User.Definition, V1/I1, R*W/L
TestParameter, Output.Graph.Enabled, true
TestParameter, Output.Graph.AutoScaling, false
TestParameter, Output.Graph.XAxis.Data, V1
TestParameter, Output.Graph.XAxis.Scale, Linear
TestParameter, Output.Graph.XAxis.Left, V1Start
TestParameter, Output.Graph.XAxis.Right, V1Stop
TestParameter, Output.Graph.XAxis.RunTimeAutoScale, false
TestParameter, Output.Graph.YAxis.Data, R, I1
TestParameter, Output.Graph.YAxis.Scale, Linear, Linear
TestParameter, Output.Graph.YAxis.Bottom, 0, 0
TestParameter, Output.Graph.YAxis.Top, V1Stop/I1Limit, I1Limit
TestParameter, Output.Graph.YAxis.Group, , 
TestParameter, Output.Graph.YAxis.RunTimeAutoScale, false, false
TestParameter, Output.List.Data, V1, I1, R, Rsheet
TestParameter, AutoAnalysis.Interpolation, false
TestParameter, AutoAnalysis.Line1.Enabled, false
TestParameter, AutoAnalysis.Line1.Type, 1
TestParameter, AutoAnalysis.Line1.Fix, False
TestParameter, AutoAnalysis.Line1.YAxis, 0
TestParameter, AutoAnalysis.Line1.Point1.Type, 0
TestParameter, AutoAnalysis.Line1.Point1.XY.X, 
TestParameter, AutoAnalysis.Line1.Point1.XY.Y, 
TestParameter, AutoAnalysis.Line1.Point1.Data.Var, 
TestParameter, AutoAnalysis.Line1.Point1.Data.Condition, 
TestParameter, AutoAnalysis.Line1.Point1.Data.Start, false
TestParameter, AutoAnalysis.Line1.Point1.Data.StartVar, 
TestParameter, AutoAnalysis.Line1.Point1.Data.StartCondition, 
TestParameter, AutoAnalysis.Line1.Point2.Type, 0
TestParameter, AutoAnalysis.Line1.Point2.XY.X, 
TestParameter, AutoAnalysis.Line1.Point2.XY.Y, 
TestParameter, AutoAnalysis.Line1.Point2.Data.Var, 
TestParameter, AutoAnalysis.Line1.Point2.Data.Condition, 
TestParameter, AutoAnalysis.Line1.Point2.Data.Start, false
TestParameter, AutoAnalysis.Line1.Point2.Data.StartVar, 
TestParameter, AutoAnalysis.Line1.Point2.Data.StartCondition, 
TestParameter, AutoAnalysis.Line1.GradientExpr, 0
TestParameter, AutoAnalysis.Line2.Enabled, false
TestParameter, AutoAnalysis.Line2.Type, 1
TestParameter, AutoAnalysis.Line2.Fix, False
TestParameter, AutoAnalysis.Line2.YAxis, 0
TestParameter, AutoAnalysis.Line2.Point1.Type, 0
TestParameter, AutoAnalysis.Line2.Point1.XY.X, 
TestParameter, AutoAnalysis.Line2.Point1.XY.Y, 
TestParameter, AutoAnalysis.Line2.Point1.Data.Var, 
TestParameter, AutoAnalysis.Line2.Point1.Data.Condition, 
TestParameter, AutoAnalysis.Line2.Point1.Data.Start, false
TestParameter, AutoAnalysis.Line2.Point1.Data.StartVar, 
TestParameter, AutoAnalysis.Line2.Point1.Data.StartCondition, 
TestParameter, AutoAnalysis.Line2.Point2.Type, 0
TestParameter, AutoAnalysis.Line2.Point2.XY.X, 
TestParameter, AutoAnalysis.Line2.Point2.XY.Y, 
TestParameter, AutoAnalysis.Line2.Point2.Data.Var, 
TestParameter, AutoAnalysis.Line2.Point2.Data.Condition, 
TestParameter, AutoAnalysis.Line2.Point2.Data.Start, false
TestParameter, AutoAnalysis.Line2.Point2.Data.StartVar, 
TestParameter, AutoAnalysis.Line2.Point2.Data.StartCondition, 
TestParameter, AutoAnalysis.Line2.GradientExpr, 0
TestParameter, AutoAnalysis.Marker.Enabled, false
TestParameter, AutoAnalysis.Marker.Data.Var, 
TestParameter, AutoAnalysis.Marker.Data.Condition, 
TestParameter, AutoAnalysis.Marker.Data.Start, false
TestParameter, AutoAnalysis.Marker.Data.StartVar, 
TestParameter, AutoAnalysis.Marker.Data.StartCondition, 
MetaData, TestRecord.EntryPoint, false
MetaData, TestRecord.RecordTime, 03/04/2023 17:29:04
MetaData, TestRecord.TestTarget, 
MetaData, TestRecord.IterationIndex, 133
MetaData, TestRecord.Preservation, true
MetaData, TestRecord.Flag, 
MetaData, TestRecord.Remarks, 
MetaData, TestRecord.LinkKey, 8eac0a40-ad19-4462-b143-92e12e02acb9
Dimension1, 21, 21, 21, 21
Dimension2, 1, 1, 1, 1
DataName, V1, I1, R, Rsheet
DataValue, 0, 3.15E-13, 0, 0
DataValue, 0.05, 6.400000000000001E-13, 78124999999.999985, 7812499999.9999981
DataValue, 0.1, 8.45E-13, 118343195266.27219, 11834319526.627216
DataValue, 0.15, 1.003E-12, 149551345962.11365, 14955134596.211363
DataValue, 0.2, 1.024E-12, 195312500000, 19531250000
DataValue, 0.25, 1.122E-12, 222816399286.98752, 22281639928.69875
DataValue, 0.3, 1.218E-12, 246305418719.21179, 24630541871.921173
DataValue, 0.35000000000000003, 1.314E-12, 266362252663.62253, 26636225266.362247
DataValue, 0.4, 1.354E-12, 295420974889.2171, 29542097488.921703
DataValue, 0.45, 1.2860000000000002E-12, 349922239502.33276, 34992223950.233276
DataValue, 0.5, 1.46E-12, 342465753424.65753, 34246575342.465748
DataValue, 0.55, 1.385E-12, 397111913357.40076, 39711191335.740074
DataValue, 0.6, 1.4780000000000002E-12, 405953991880.9201, 40595399188.092
DataValue, 0.65, 1.6830000000000002E-12, 386215092097.445, 38621509209.744492
DataValue, 0.70000000000000007, 1.7270000000000002E-12, 405327156919.51361, 40532715691.951355
DataValue, 0.75, 1.7980000000000002E-12, 417130144605.11676, 41713014460.511673
DataValue, 0.8, 1.851E-12, 432198811453.26849, 43219881145.326843
DataValue, 0.85000000000000009, 1.8650000000000002E-12, 455764075067.02411, 45576407506.702408
DataValue, 0.9, 2.068E-12, 435203094777.56287, 43520309477.756279
DataValue, 0.95000000000000007, 2.0040000000000003E-12, 474051896207.58478, 47405189620.758476
DataValue, 1, 2.244E-12, 445632798573.97504, 44563279857.3975