
SetupTitle, R-V
ApplicationTest, R-V, Public
TestParameter, Name, Port1, Port2, V1Start, V1Stop, V1Step, V2, I1Limit, IntegTime, HoldTime, DelayTime, Port1MinRng
TestParameter, Value, SMU1:MP	MPSMU, SMU2:MP	MPSMU, 0, 1, 0.05, 0, 0.01, MEDIUM, 0, 0, 1nA
DutParameter, Name, L, W, Temp
DutParameter, Value, 1E-05, 1E-06, 25
MetaData, TestRecord.EntryPoint, true
MetaData, TestRecord.RecordTime, 03/04/2023 16:21:46
MetaData, TestRecord.TestTarget, 
MetaData, TestRecord.IterationIndex, 37
MetaData, TestRecord.Preservation, true
MetaData, TestRecord.Flag, 
MetaData, TestRecord.Remarks, 
MetaData, TestRecord.LinkKey, de9bf76e-4995-46fe-8c0e-f35f739d4706
Dimension1, 21, 21, 21, 21
Dimension2, 1, 1, 1, 1
DataName, V1, I1, R, Rsheet
DataValue, 0, 2.0400000000000001E-13, 0, 0
DataValue, 0.05, 1.4300000000000002E-13, 349650349650.34961, 34965034965.034958
DataValue, 0.1, 2.47E-13, 404858299595.14172, 40485829959.514168
DataValue, 0.15, 2.91E-13, 515463917525.77313, 51546391752.577309
DataValue, 0.2, 4.36E-13, 458715596330.27527, 45871559633.027519
DataValue, 0.25, 3.19E-13, 783699059561.12854, 78369905956.112839
DataValue, 0.3, 3.17E-13, 946372239747.634, 94637223974.7634
DataValue, 0.35000000000000003, 4.33E-13, 808314087759.81531, 80831408775.981522
DataValue, 0.4, 3.7100000000000003E-13, 1078167115902.965, 107816711590.29649
DataValue, 0.45, 4.0300000000000005E-13, 1116625310173.6973, 111662531017.36972
DataValue, 0.5, 3.6900000000000004E-13, 1355013550135.5012, 135501355013.55011
DataValue, 0.55, 4.7900000000000008E-13, 1148225469728.6011, 114822546972.86008
DataValue, 0.6, 4.8300000000000006E-13, 1242236024844.7202, 124223602484.47202
DataValue, 0.65, 4.88E-13, 1331967213114.7542, 133196721311.4754
DataValue, 0.70000000000000007, 3.99E-13, 1754385964912.2808, 175438596491.22806
DataValue, 0.75, 3.4600000000000004E-13, 2167630057803.468, 216763005780.34677
DataValue, 0.8, 4.21E-13, 1900237529691.2114, 190023752969.12112
DataValue, 0.85000000000000009, 4.72E-13, 1800847457627.1189, 180084745762.71185
DataValue, 0.9, 4.76E-13, 1890756302521.0085, 189075630252.10083
DataValue, 0.95000000000000007, 5.7400000000000008E-13, 1655052264808.3623, 165505226480.83621
DataValue, 1, 4.8400000000000006E-13, 2066115702479.3386, 206611570247.93384
SetupTitle, R-V
PrimitiveTest, I/V Sweep
TestParameter, Context.MainFrame, B1500A
TestParameter, Channel.UnitType, SMU, SMU
TestParameter, Channel.Unit, Port1, Port2
TestParameter, Channel.IName, I1, I2
TestParameter, Channel.VName, V1, V2
TestParameter, Channel.Mode, V, V
TestParameter, Channel.Func, VAR1, CONST
TestParameter, Channel.Index, 
TestParameter, Channel.Time, 
TestParameter, Measurement.Port.Unit, Port1, Port2
TestParameter, Measurement.Port.SeriesResistor, NONE, NONE
TestParameter, Measurement.Port.Filter, OFF, OFF
TestParameter, Measurement.Port.OutputVoltageComparison, 0, 0
TestParameter, Measurement.Primary.Locus, Single
TestParameter, Measurement.Primary.Scale, LINEAR
TestParameter, Measurement.Primary.Start, V1Start
TestParameter, Measurement.Primary.Stop, V1Stop
TestParameter, Measurement.Primary.Step, V1Step
TestParameter, Measurement.Primary.Compliance, I1Limit
TestParameter, Measurement.Primary.PowerCompliance, 0
TestParameter, Measurement.Aborting.Condition, CONTINUE AT ANY
TestParameter, Measurement.PostOutput.Value, START
TestParameter, Measurement.PostOutput.Retention, OFF
TestParameter, Measurement.Bias.Source, 0, V2
TestParameter, Measurement.Bias.Compliance, 0.01, I1Limit
TestParameter, Measurement.Monitor.Unit, SMU:=Port1, SMU:=Port2
TestParameter, Measurement.Monitor.Adc, HR ADC, HR ADC
TestParameter, Measurement.Monitor.Measurement, Compliance Side, Compliance Side
TestParameter, Measurement.Monitor.RangingMode, LIMITED, LIMITED
TestParameter, Measurement.Monitor.RangeBoundary, Port1MinRng, 1nA
TestParameter, Measurement.Monitor.RangeRating, BY FULL RANGE, BY FULL RANGE
TestParameter, Measurement.Monitor.RangeRatingCoeff, 50, 50
TestParameter, Measurement.Timing.Hold, HoldTime
TestParameter, Measurement.Timing.Delay, DelayTime
TestParameter, Measurement.Adc.HighSpeed.Mode, AUTO
TestParameter, Measurement.Adc.HighSpeed.Coeff, 1
TestParameter, Measurement.Adc.HighResolution.AutoZero, ON
TestParameter, Measurement.Adc.HighResolution.Mode, IntegMode
TestParameter, Measurement.Adc.HighResolution.Coeff, AdcFactor
TestParameter, Measurement.WaitTime.Source.Coeff, 1
TestParameter, Measurement.WaitTime.Source.Offset, 0
TestParameter, Measurement.WaitTime.Monitor.Coeff, 1
TestParameter, Measurement.WaitTime.Monitor.Offset, 0
TestParameter, Function.User.Name, R, Rsheet
TestParameter, Function.User.Unit, ohm, ohm/sheet
TestParameter, Function.User.Definition, V1/I1, R*W/L
TestParameter, Output.Graph.Enabled, true
TestParameter, Output.Graph.AutoScaling, false
TestParameter, Output.Graph.XAxis.Data, V1
TestParameter, Output.Graph.XAxis.Scale, Linear
TestParameter, Output.Graph.XAxis.Left, V1Start
TestParameter, Output.Graph.XAxis.Right, V1Stop
TestParameter, Output.Graph.XAxis.RunTimeAutoScale, false
TestParameter, Output.Graph.YAxis.Data, R, I1
TestParameter, Output.Graph.YAxis.Scale, Linear, Linear
TestParameter, Output.Graph.YAxis.Bottom, 0, 0
TestParameter, Output.Graph.YAxis.Top, V1Stop/I1Limit, I1Limit
TestParameter, Output.Graph.YAxis.Group, , 
TestParameter, Output.Graph.YAxis.RunTimeAutoScale, false, false
TestParameter, Output.List.Data, V1, I1, R, Rsheet
TestParameter, AutoAnalysis.Interpolation, false
TestParameter, AutoAnalysis.Line1.Enabled, false
TestParameter, AutoAnalysis.Line1.Type, 1
TestParameter, AutoAnalysis.Line1.Fix, False
TestParameter, AutoAnalysis.Line1.YAxis, 0
TestParameter, AutoAnalysis.Line1.Point1.Type, 0
TestParameter, AutoAnalysis.Line1.Point1.XY.X, 
TestParameter, AutoAnalysis.Line1.Point1.XY.Y, 
TestParameter, AutoAnalysis.Line1.Point1.Data.Var, 
TestParameter, AutoAnalysis.Line1.Point1.Data.Condition, 
TestParameter, AutoAnalysis.Line1.Point1.Data.Start, false
TestParameter, AutoAnalysis.Line1.Point1.Data.StartVar, 
TestParameter, AutoAnalysis.Line1.Point1.Data.StartCondition, 
TestParameter, AutoAnalysis.Line1.Point2.Type, 0
TestParameter, AutoAnalysis.Line1.Point2.XY.X, 
TestParameter, AutoAnalysis.Line1.Point2.XY.Y, 
TestParameter, AutoAnalysis.Line1.Point2.Data.Var, 
TestParameter, AutoAnalysis.Line1.Point2.Data.Condition, 
TestParameter, AutoAnalysis.Line1.Point2.Data.Start, false
TestParameter, AutoAnalysis.Line1.Point2.Data.StartVar, 
TestParameter, AutoAnalysis.Line1.Point2.Data.StartCondition, 
TestParameter, AutoAnalysis.Line1.GradientExpr, 0
TestParameter, AutoAnalysis.Line2.Enabled, false
TestParameter, AutoAnalysis.Line2.Type, 1
TestParameter, AutoAnalysis.Line2.Fix, False
TestParameter, AutoAnalysis.Line2.YAxis, 0
TestParameter, AutoAnalysis.Line2.Point1.Type, 0
TestParameter, AutoAnalysis.Line2.Point1.XY.X, 
TestParameter, AutoAnalysis.Line2.Point1.XY.Y, 
TestParameter, AutoAnalysis.Line2.Point1.Data.Var, 
TestParameter, AutoAnalysis.Line2.Point1.Data.Condition, 
TestParameter, AutoAnalysis.Line2.Point1.Data.Start, false
TestParameter, AutoAnalysis.Line2.Point1.Data.StartVar, 
TestParameter, AutoAnalysis.Line2.Point1.Data.StartCondition, 
TestParameter, AutoAnalysis.Line2.Point2.Type, 0
TestParameter, AutoAnalysis.Line2.Point2.XY.X, 
TestParameter, AutoAnalysis.Line2.Point2.XY.Y, 
TestParameter, AutoAnalysis.Line2.Point2.Data.Var, 
TestParameter, AutoAnalysis.Line2.Point2.Data.Condition, 
TestParameter, AutoAnalysis.Line2.Point2.Data.Start, false
TestParameter, AutoAnalysis.Line2.Point2.Data.StartVar, 
TestParameter, AutoAnalysis.Line2.Point2.Data.StartCondition, 
TestParameter, AutoAnalysis.Line2.GradientExpr, 0
TestParameter, AutoAnalysis.Marker.Enabled, false
TestParameter, AutoAnalysis.Marker.Data.Var, 
TestParameter, AutoAnalysis.Marker.Data.Condition, 
TestParameter, AutoAnalysis.Marker.Data.Start, false
TestParameter, AutoAnalysis.Marker.Data.StartVar, 
TestParameter, AutoAnalysis.Marker.Data.StartCondition, 
MetaData, TestRecord.EntryPoint, false
MetaData, TestRecord.RecordTime, 03/04/2023 16:21:46
MetaData, TestRecord.TestTarget, 
MetaData, TestRecord.IterationIndex, 37
MetaData, TestRecord.Preservation, true
MetaData, TestRecord.Flag, 
MetaData, TestRecord.Remarks, 
MetaData, TestRecord.LinkKey, de9bf76e-4995-46fe-8c0e-f35f739d4706
Dimension1, 21, 21, 21, 21
Dimension2, 1, 1, 1, 1
DataName, V1, I1, R, Rsheet
DataValue, 0, 2.0400000000000001E-13, 0, 0
DataValue, 0.05, 1.4300000000000002E-13, 349650349650.34961, 34965034965.034958
DataValue, 0.1, 2.47E-13, 404858299595.14172, 40485829959.514168
DataValue, 0.15, 2.91E-13, 515463917525.77313, 51546391752.577309
DataValue, 0.2, 4.36E-13, 458715596330.27527, 45871559633.027519
DataValue, 0.25, 3.19E-13, 783699059561.12854, 78369905956.112839
DataValue, 0.3, 3.17E-13, 946372239747.634, 94637223974.7634
DataValue, 0.35000000000000003, 4.33E-13, 808314087759.81531, 80831408775.981522
DataValue, 0.4, 3.7100000000000003E-13, 1078167115902.965, 107816711590.29649
DataValue, 0.45, 4.0300000000000005E-13, 1116625310173.6973, 111662531017.36972
DataValue, 0.5, 3.6900000000000004E-13, 1355013550135.5012, 135501355013.55011
DataValue, 0.55, 4.7900000000000008E-13, 1148225469728.6011, 114822546972.86008
DataValue, 0.6, 4.8300000000000006E-13, 1242236024844.7202, 124223602484.47202
DataValue, 0.65, 4.88E-13, 1331967213114.7542, 133196721311.4754
DataValue, 0.70000000000000007, 3.99E-13, 1754385964912.2808, 175438596491.22806
DataValue, 0.75, 3.4600000000000004E-13, 2167630057803.468, 216763005780.34677
DataValue, 0.8, 4.21E-13, 1900237529691.2114, 190023752969.12112
DataValue, 0.85000000000000009, 4.72E-13, 1800847457627.1189, 180084745762.71185
DataValue, 0.9, 4.76E-13, 1890756302521.0085, 189075630252.10083
DataValue, 0.95000000000000007, 5.7400000000000008E-13, 1655052264808.3623, 165505226480.83621
DataValue, 1, 4.8400000000000006E-13, 2066115702479.3386, 206611570247.93384