
SetupTitle, Two Terminal IV Sweep
PrimitiveTest, I/V Sweep
TestParameter, Context.MainFrame, B1500A
TestParameter, Channel.UnitType, SMU, SMU
TestParameter, Channel.Unit, SMU3:MP, SMU4:MP
TestParameter, Channel.IName, I3, I4
TestParameter, Channel.VName, V3, V4
TestParameter, Channel.Mode, V, V
TestParameter, Channel.Func, VAR1, CONST
TestParameter, Channel.Index, 
TestParameter, Channel.Time, 
TestParameter, Measurement.Port.Unit, SMU3:MP, SMU4:MP
TestParameter, Measurement.Port.SeriesResistor, NONE, NONE
TestParameter, Measurement.Port.Filter, ON, ON
TestParameter, Measurement.Port.OutputVoltageComparison, 0, 0
TestParameter, Measurement.Primary.Locus, Single
TestParameter, Measurement.Primary.Scale, LINEAR
TestParameter, Measurement.Primary.Start, -3
TestParameter, Measurement.Primary.Stop, 5
TestParameter, Measurement.Primary.Step, 0.08
TestParameter, Measurement.Primary.Compliance, 0.1
TestParameter, Measurement.Primary.PowerCompliance, 0
TestParameter, Measurement.Aborting.Condition, CONTINUE AT ANY
TestParameter, Measurement.PostOutput.Value, START
TestParameter, Measurement.PostOutput.Retention, OFF
TestParameter, Measurement.Bias.Source, -3, 0
TestParameter, Measurement.Bias.Compliance, 0.1, 0.1
TestParameter, Measurement.Monitor.Unit, SMU3:MP, SMU4:MP
TestParameter, Measurement.Monitor.Adc, HR ADC, HR ADC
TestParameter, Measurement.Monitor.Measurement, Compliance Side, Compliance Side
TestParameter, Measurement.Monitor.RangingMode, LIMITED, LIMITED
TestParameter, Measurement.Monitor.RangeBoundary, 1nA, 1nA
TestParameter, Measurement.Monitor.RangeRating, BY FULL RANGE, BY FULL RANGE
TestParameter, Measurement.Monitor.RangeRatingCoeff, 50, 50
TestParameter, Measurement.Timing.Hold, 0
TestParameter, Measurement.Timing.Delay, 0
TestParameter, Measurement.Adc.HighSpeed.Mode, AUTO
TestParameter, Measurement.Adc.HighSpeed.Coeff, 1
TestParameter, Measurement.Adc.HighResolution.AutoZero, OFF
TestParameter, Measurement.Adc.HighResolution.Mode, AUTO
TestParameter, Measurement.Adc.HighResolution.Coeff, 6
TestParameter, Measurement.WaitTime.Source.Coeff, 1
TestParameter, Measurement.WaitTime.Source.Offset, 0
TestParameter, Measurement.WaitTime.Monitor.Coeff, 1
TestParameter, Measurement.WaitTime.Monitor.Offset, 0
TestParameter, Output.Graph.Enabled, true
TestParameter, Output.Graph.AutoScaling, false
TestParameter, Output.Graph.XAxis.Data, V3
TestParameter, Output.Graph.XAxis.Scale, Linear
TestParameter, Output.Graph.XAxis.Left, -5
TestParameter, Output.Graph.XAxis.Right, 5
TestParameter, Output.Graph.XAxis.RunTimeAutoScale, true
TestParameter, Output.Graph.YAxis.Data, I3
TestParameter, Output.Graph.YAxis.Scale, Linear
TestParameter, Output.Graph.YAxis.Bottom, -0.1
TestParameter, Output.Graph.YAxis.Top, 0.1
TestParameter, Output.Graph.YAxis.Group, 
TestParameter, Output.Graph.YAxis.RunTimeAutoScale, true
TestParameter, Output.List.Data, V1, I1, V2, I2
TestParameter, AutoAnalysis.Interpolation, false
TestParameter, AutoAnalysis.Line1.Enabled, false
TestParameter, AutoAnalysis.Line1.Type, 1
TestParameter, AutoAnalysis.Line1.Fix, True
TestParameter, AutoAnalysis.Line1.YAxis, 0
TestParameter, AutoAnalysis.Line1.Point1.Type, 0
TestParameter, AutoAnalysis.Line1.Point1.XY.X, 
TestParameter, AutoAnalysis.Line1.Point1.XY.Y, 
TestParameter, AutoAnalysis.Line1.Point1.Data.Var, 
TestParameter, AutoAnalysis.Line1.Point1.Data.Condition, 
TestParameter, AutoAnalysis.Line1.Point1.Data.Start, false
TestParameter, AutoAnalysis.Line1.Point1.Data.StartVar, 
TestParameter, AutoAnalysis.Line1.Point1.Data.StartCondition, 
TestParameter, AutoAnalysis.Line1.Point2.Type, 0
TestParameter, AutoAnalysis.Line1.Point2.XY.X, 
TestParameter, AutoAnalysis.Line1.Point2.XY.Y, 
TestParameter, AutoAnalysis.Line1.Point2.Data.Var, 
TestParameter, AutoAnalysis.Line1.Point2.Data.Condition, 
TestParameter, AutoAnalysis.Line1.Point2.Data.Start, false
TestParameter, AutoAnalysis.Line1.Point2.Data.StartVar, 
TestParameter, AutoAnalysis.Line1.Point2.Data.StartCondition, 
TestParameter, AutoAnalysis.Line1.GradientExpr, 0
TestParameter, AutoAnalysis.Line2.Enabled, false
TestParameter, AutoAnalysis.Line2.Type, 1
TestParameter, AutoAnalysis.Line2.Fix, True
TestParameter, AutoAnalysis.Line2.YAxis, 0
TestParameter, AutoAnalysis.Line2.Point1.Type, 0
TestParameter, AutoAnalysis.Line2.Point1.XY.X, 
TestParameter, AutoAnalysis.Line2.Point1.XY.Y, 
TestParameter, AutoAnalysis.Line2.Point1.Data.Var, 
TestParameter, AutoAnalysis.Line2.Point1.Data.Condition, 
TestParameter, AutoAnalysis.Line2.Point1.Data.Start, false
TestParameter, AutoAnalysis.Line2.Point1.Data.StartVar, 
TestParameter, AutoAnalysis.Line2.Point1.Data.StartCondition, 
TestParameter, AutoAnalysis.Line2.Point2.Type, 0
TestParameter, AutoAnalysis.Line2.Point2.XY.X, 
TestParameter, AutoAnalysis.Line2.Point2.XY.Y, 
TestParameter, AutoAnalysis.Line2.Point2.Data.Var, 
TestParameter, AutoAnalysis.Line2.Point2.Data.Condition, 
TestParameter, AutoAnalysis.Line2.Point2.Data.Start, false
TestParameter, AutoAnalysis.Line2.Point2.Data.StartVar, 
TestParameter, AutoAnalysis.Line2.Point2.Data.StartCondition, 
TestParameter, AutoAnalysis.Line2.GradientExpr, 0
TestParameter, AutoAnalysis.Marker.Enabled, false
TestParameter, AutoAnalysis.Marker.Data.Var, 
TestParameter, AutoAnalysis.Marker.Data.Condition, 
TestParameter, AutoAnalysis.Marker.Data.Start, false
TestParameter, AutoAnalysis.Marker.Data.StartVar, 
TestParameter, AutoAnalysis.Marker.Data.StartCondition, 
MetaData, TestRecord.EntryPoint, true
MetaData, TestRecord.RecordTime, 03/06/2023 10:03:58
MetaData, TestRecord.TestTarget, 
MetaData, TestRecord.IterationIndex, 29
MetaData, TestRecord.Preservation, true
MetaData, TestRecord.Flag, 
MetaData, TestRecord.Remarks, 
MetaData, TestRecord.LinkKey, 27874428-8a98-44bb-9781-0741e50f6ff6
Dimension1, 101, 101, 101, 101, 101, 101
Dimension2, 1, 1, 1, 1, 1, 1
DataName, V3, I3, V1, I1, V2, I2
DataValue, -3, -7.51074E-08, , , , 
DataValue, -2.92, -7.03704E-08, , , , 
DataValue, -2.84, -6.5922E-08, , , , 
DataValue, -2.7600000000000002, -6.0366599999999992E-08, , , , 
DataValue, -2.68, -5.4870999999999995E-08, , , , 
DataValue, -2.6, -5.12802E-08, , , , 
DataValue, -2.52, -4.6549199999999993E-08, , , , 
DataValue, -2.44, -4.2761599999999994E-08, , , , 
DataValue, -2.36, -3.90892E-08, , , , 
DataValue, -2.2800000000000002, -3.5234799999999993E-08, , , , 
DataValue, -2.2, -3.20878E-08, , , , 
DataValue, -2.12, -2.9262399999999996E-08, , , , 
DataValue, -2.04, -2.5611199999999998E-08, , , , 
DataValue, -1.96, -2.3623399999999998E-08, , , , 
DataValue, -1.8800000000000001, -2.08464E-08, , , , 
DataValue, -1.8, -1.81868E-08, , , , 
DataValue, -1.72, -1.7043399999999998E-08, , , , 
DataValue, -1.6400000000000001, -1.50372E-08, , , , 
DataValue, -1.56, -1.3458399999999999E-08, , , , 
DataValue, -1.48, -1.2495799999999999E-08, , , , 
DataValue, -1.4000000000000001, -1.0460599999999998E-08, , , , 
DataValue, -1.32, -9.7259999999999989E-09, , , , 
DataValue, -1.24, -8.5929E-09, , , , 
DataValue, -1.16, -7.8472E-09, , , , 
DataValue, -1.08, -6.4845E-09, , , , 
DataValue, -1, -5.1133E-09, , , , 
DataValue, -0.92, -4.3994E-09, , , , 
DataValue, -0.84, -4.2304E-09, , , , 
DataValue, -0.76, -3.7799E-09, , , , 
DataValue, -0.68, -2.6689E-09, , , , 
DataValue, -0.6, -1.8586E-09, , , , 
DataValue, -0.52, -1.6321E-09, , , , 
DataValue, -0.44, -1.6469E-09, , , , 
DataValue, -0.36, -1.3051E-09, , , , 
DataValue, -0.28, -1.0491E-09, , , , 
DataValue, -0.2, -5.2016E-10, , , , 
DataValue, -0.12, -4.7569E-10, , , , 
DataValue, -0.04, -1.9204000000000002E-10, , , , 
DataValue, 0.04, 2.5360000000000003E-11, , , , 
DataValue, 0.12, 1.5595000000000002E-10, , , , 
DataValue, 0.2, 2.4967000000000003E-10, , , , 
DataValue, 0.28, 2.5204000000000004E-10, , , , 
DataValue, 0.36, 2.5811E-10, , , , 
DataValue, 0.44, 2.7077000000000004E-10, , , , 
DataValue, 0.52, 3.5893E-10, , , , 
DataValue, 0.6, 4.9613E-10, , , , 
DataValue, 0.68, 5.5438E-10, , , , 
DataValue, 0.76, 6.0214000000000005E-10, , , , 
DataValue, 0.84, 7.7808000000000007E-10, , , , 
DataValue, 0.92, 9.301E-10, , , , 
DataValue, 1, 1.201E-09, , , , 
DataValue, 1.08, 1.364E-09, , , , 
DataValue, 1.16, 1.5555E-09, , , , 
DataValue, 1.24, 2.0055E-09, , , , 
DataValue, 1.32, 2.5218E-09, , , , 
DataValue, 1.4000000000000001, 2.9844E-09, , , , 
DataValue, 1.48, 3.4344E-09, , , , 
DataValue, 1.56, 4.1729E-09, , , , 
DataValue, 1.6400000000000001, 4.9176E-09, , , , 
DataValue, 1.72, 6.2162E-09, , , , 
DataValue, 1.8, 7.7045E-09, , , , 
DataValue, 1.8800000000000001, 9.3621E-09, , , , 
DataValue, 1.96, 1.1272399999999998E-08, , , , 
DataValue, 2.04, 1.3326999999999999E-08, , , , 
DataValue, 2.12, 1.7661399999999997E-08, , , , 
DataValue, 2.2, 2.2994599999999997E-08, , , , 
DataValue, 2.2800000000000002, 2.9970199999999994E-08, , , , 
DataValue, 2.36, 4.0608599999999995E-08, , , , 
DataValue, 2.44, 5.33364E-08, , , , 
DataValue, 2.52, 7.16732E-08, , , , 
DataValue, 2.6, 9.71432E-08, , , , 
DataValue, 2.68, 1.2895999999999999E-07, , , , 
DataValue, 2.7600000000000002, 1.8752E-07, , , , 
DataValue, 2.84, 2.581E-07, , , , 
DataValue, 2.92, 3.4622E-07, , , , 
DataValue, 3, 4.6164E-07, , , , 
DataValue, 3.08, 5.9376E-07, , , , 
DataValue, 3.16, 8.2448E-07, , , , 
DataValue, 3.24, 1.07882E-06, , , , 
DataValue, 3.3200000000000003, 1.3187000000000002E-06, , , , 
DataValue, 3.4, 1.7779000000000002E-06, , , , 
DataValue, 3.48, 2.2437000000000002E-06, , , , 
DataValue, 3.56, 3.1343000000000002E-06, , , , 
DataValue, 3.64, 3.7821E-06, , , , 
DataValue, 3.72, 4.8952E-06, , , , 
DataValue, 3.8000000000000003, 5.922E-06, , , , 
DataValue, 3.88, 7.2556000000000005E-06, , , , 
DataValue, 3.96, 9.0573E-06, , , , 
DataValue, 4.04, 1.0904100000000001E-05, , , , 
DataValue, 4.12, 1.3684E-05, , , , 
DataValue, 4.2, 1.5556E-05, , , , 
DataValue, 4.28, 1.795E-05, , , , 
DataValue, 4.36, 2.133E-05, , , , 
DataValue, 4.44, 2.4392E-05, , , , 
DataValue, 4.5200000000000005, 2.8184E-05, , , , 
DataValue, 4.6000000000000005, 3.1572E-05, , , , 
DataValue, 4.68, 3.5284E-05, , , , 
DataValue, 4.76, 3.7366E-05, , , , 
DataValue, 4.84, 4.0050000000000004E-05, , , , 
DataValue, 4.92, 4.3166E-05, , , , 
DataValue, 5, 4.8058E-05, , , , 