
SetupTitle, Two Terminal IV Sweep
PrimitiveTest, I/V Sweep
TestParameter, Context.MainFrame, B1500A
TestParameter, Channel.UnitType, SMU, SMU
TestParameter, Channel.Unit, SMU3:MP, SMU4:MP
TestParameter, Channel.IName, I3, I4
TestParameter, Channel.VName, V3, V4
TestParameter, Channel.Mode, V, V
TestParameter, Channel.Func, VAR1, CONST
TestParameter, Channel.Index, 
TestParameter, Channel.Time, 
TestParameter, Measurement.Port.Unit, SMU3:MP, SMU4:MP
TestParameter, Measurement.Port.SeriesResistor, NONE, NONE
TestParameter, Measurement.Port.Filter, ON, ON
TestParameter, Measurement.Port.OutputVoltageComparison, 0, 0
TestParameter, Measurement.Primary.Locus, Single
TestParameter, Measurement.Primary.Scale, LINEAR
TestParameter, Measurement.Primary.Start, -3
TestParameter, Measurement.Primary.Stop, 3
TestParameter, Measurement.Primary.Step, 0.06
TestParameter, Measurement.Primary.Compliance, 0.1
TestParameter, Measurement.Primary.PowerCompliance, 0
TestParameter, Measurement.Aborting.Condition, CONTINUE AT ANY
TestParameter, Measurement.PostOutput.Value, START
TestParameter, Measurement.PostOutput.Retention, OFF
TestParameter, Measurement.Bias.Source, -3, 0
TestParameter, Measurement.Bias.Compliance, 0.1, 0.1
TestParameter, Measurement.Monitor.Unit, SMU3:MP, SMU4:MP
TestParameter, Measurement.Monitor.Adc, HR ADC, HR ADC
TestParameter, Measurement.Monitor.Measurement, Compliance Side, Compliance Side
TestParameter, Measurement.Monitor.RangingMode, LIMITED, LIMITED
TestParameter, Measurement.Monitor.RangeBoundary, 1nA, 1nA
TestParameter, Measurement.Monitor.RangeRating, BY FULL RANGE, BY FULL RANGE
TestParameter, Measurement.Monitor.RangeRatingCoeff, 50, 50
TestParameter, Measurement.Timing.Hold, 0
TestParameter, Measurement.Timing.Delay, 0
TestParameter, Measurement.Adc.HighSpeed.Mode, AUTO
TestParameter, Measurement.Adc.HighSpeed.Coeff, 1
TestParameter, Measurement.Adc.HighResolution.AutoZero, OFF
TestParameter, Measurement.Adc.HighResolution.Mode, AUTO
TestParameter, Measurement.Adc.HighResolution.Coeff, 6
TestParameter, Measurement.WaitTime.Source.Coeff, 1
TestParameter, Measurement.WaitTime.Source.Offset, 0
TestParameter, Measurement.WaitTime.Monitor.Coeff, 1
TestParameter, Measurement.WaitTime.Monitor.Offset, 0
TestParameter, Output.Graph.Enabled, true
TestParameter, Output.Graph.AutoScaling, false
TestParameter, Output.Graph.XAxis.Data, V3
TestParameter, Output.Graph.XAxis.Scale, Linear
TestParameter, Output.Graph.XAxis.Left, -5
TestParameter, Output.Graph.XAxis.Right, 5
TestParameter, Output.Graph.XAxis.RunTimeAutoScale, true
TestParameter, Output.Graph.YAxis.Data, I3
TestParameter, Output.Graph.YAxis.Scale, Linear
TestParameter, Output.Graph.YAxis.Bottom, -0.1
TestParameter, Output.Graph.YAxis.Top, 0.1
TestParameter, Output.Graph.YAxis.Group, 
TestParameter, Output.Graph.YAxis.RunTimeAutoScale, true
TestParameter, Output.List.Data, V1, I1, V2, I2
TestParameter, AutoAnalysis.Interpolation, false
TestParameter, AutoAnalysis.Line1.Enabled, false
TestParameter, AutoAnalysis.Line1.Type, 1
TestParameter, AutoAnalysis.Line1.Fix, True
TestParameter, AutoAnalysis.Line1.YAxis, 0
TestParameter, AutoAnalysis.Line1.Point1.Type, 0
TestParameter, AutoAnalysis.Line1.Point1.XY.X, 
TestParameter, AutoAnalysis.Line1.Point1.XY.Y, 
TestParameter, AutoAnalysis.Line1.Point1.Data.Var, 
TestParameter, AutoAnalysis.Line1.Point1.Data.Condition, 
TestParameter, AutoAnalysis.Line1.Point1.Data.Start, false
TestParameter, AutoAnalysis.Line1.Point1.Data.StartVar, 
TestParameter, AutoAnalysis.Line1.Point1.Data.StartCondition, 
TestParameter, AutoAnalysis.Line1.Point2.Type, 0
TestParameter, AutoAnalysis.Line1.Point2.XY.X, 
TestParameter, AutoAnalysis.Line1.Point2.XY.Y, 
TestParameter, AutoAnalysis.Line1.Point2.Data.Var, 
TestParameter, AutoAnalysis.Line1.Point2.Data.Condition, 
TestParameter, AutoAnalysis.Line1.Point2.Data.Start, false
TestParameter, AutoAnalysis.Line1.Point2.Data.StartVar, 
TestParameter, AutoAnalysis.Line1.Point2.Data.StartCondition, 
TestParameter, AutoAnalysis.Line1.GradientExpr, 0
TestParameter, AutoAnalysis.Line2.Enabled, false
TestParameter, AutoAnalysis.Line2.Type, 1
TestParameter, AutoAnalysis.Line2.Fix, True
TestParameter, AutoAnalysis.Line2.YAxis, 0
TestParameter, AutoAnalysis.Line2.Point1.Type, 0
TestParameter, AutoAnalysis.Line2.Point1.XY.X, 
TestParameter, AutoAnalysis.Line2.Point1.XY.Y, 
TestParameter, AutoAnalysis.Line2.Point1.Data.Var, 
TestParameter, AutoAnalysis.Line2.Point1.Data.Condition, 
TestParameter, AutoAnalysis.Line2.Point1.Data.Start, false
TestParameter, AutoAnalysis.Line2.Point1.Data.StartVar, 
TestParameter, AutoAnalysis.Line2.Point1.Data.StartCondition, 
TestParameter, AutoAnalysis.Line2.Point2.Type, 0
TestParameter, AutoAnalysis.Line2.Point2.XY.X, 
TestParameter, AutoAnalysis.Line2.Point2.XY.Y, 
TestParameter, AutoAnalysis.Line2.Point2.Data.Var, 
TestParameter, AutoAnalysis.Line2.Point2.Data.Condition, 
TestParameter, AutoAnalysis.Line2.Point2.Data.Start, false
TestParameter, AutoAnalysis.Line2.Point2.Data.StartVar, 
TestParameter, AutoAnalysis.Line2.Point2.Data.StartCondition, 
TestParameter, AutoAnalysis.Line2.GradientExpr, 0
TestParameter, AutoAnalysis.Marker.Enabled, false
TestParameter, AutoAnalysis.Marker.Data.Var, 
TestParameter, AutoAnalysis.Marker.Data.Condition, 
TestParameter, AutoAnalysis.Marker.Data.Start, false
TestParameter, AutoAnalysis.Marker.Data.StartVar, 
TestParameter, AutoAnalysis.Marker.Data.StartCondition, 
MetaData, TestRecord.EntryPoint, true
MetaData, TestRecord.RecordTime, 03/06/2023 09:53:17
MetaData, TestRecord.TestTarget, 
MetaData, TestRecord.IterationIndex, 23
MetaData, TestRecord.Preservation, true
MetaData, TestRecord.Flag, 
MetaData, TestRecord.Remarks, 
MetaData, TestRecord.LinkKey, 4aa09bd9-f375-43cf-8354-26e941575c35
Dimension1, 101, 101, 101, 101, 101, 101
Dimension2, 1, 1, 1, 1, 1, 1
DataName, V3, I3, V1, I1, V2, I2
DataValue, -3, -5.5386E-07, , , , 
DataValue, -2.94, -5.287E-07, , , , 
DataValue, -2.88, -4.9966E-07, , , , 
DataValue, -2.82, -4.688E-07, , , , 
DataValue, -2.7600000000000002, -4.5056E-07, , , , 
DataValue, -2.7, -4.2546E-07, , , , 
DataValue, -2.64, -3.9979999999999997E-07, , , , 
DataValue, -2.58, -3.7724E-07, , , , 
DataValue, -2.52, -3.5738E-07, , , , 
DataValue, -2.46, -3.3454E-07, , , , 
DataValue, -2.4, -3.1584E-07, , , , 
DataValue, -2.34, -3.0112E-07, , , , 
DataValue, -2.2800000000000002, -2.8401999999999997E-07, , , , 
DataValue, -2.22, -2.71E-07, , , , 
DataValue, -2.16, -2.497E-07, , , , 
DataValue, -2.1, -2.35E-07, , , , 
DataValue, -2.04, -2.2487999999999999E-07, , , , 
DataValue, -1.98, -2.0768E-07, , , , 
DataValue, -1.92, -1.9373999999999999E-07, , , , 
DataValue, -1.86, -1.8551999999999998E-07, , , , 
DataValue, -1.8, -1.76E-07, , , , 
DataValue, -1.74, -1.6282E-07, , , , 
DataValue, -1.68, -1.5404E-07, , , , 
DataValue, -1.62, -1.4636E-07, , , , 
DataValue, -1.56, -1.3425999999999999E-07, , , , 
DataValue, -1.5, -1.3007999999999998E-07, , , , 
DataValue, -1.44, -1.2078E-07, , , , 
DataValue, -1.3800000000000001, -1.1298E-07, , , , 
DataValue, -1.32, -1.1192E-07, , , , 
DataValue, -1.26, -1.0004E-07, , , , 
DataValue, -1.2, -9.5561199999999989E-08, , , , 
DataValue, -1.1400000000000001, -9.0688599999999991E-08, , , , 
DataValue, -1.08, -8.6538999999999992E-08, , , , 
DataValue, -1.02, -8.38002E-08, , , , 
DataValue, -0.96, -7.73612E-08, , , , 
DataValue, -0.9, -7.31438E-08, , , , 
DataValue, -0.84, -7.2151599999999988E-08, , , , 
DataValue, -0.78, -6.73934E-08, , , , 
DataValue, -0.72, -6.4145599999999989E-08, , , , 
DataValue, -0.66, -6.0354E-08, , , , 
DataValue, -0.6, -5.8377199999999992E-08, , , , 
DataValue, -0.54, -5.7391999999999995E-08, , , , 
DataValue, -0.48, -5.2582399999999996E-08, , , , 
DataValue, -0.42, -5.0486999999999994E-08, , , , 
DataValue, -0.36, -5.0894399999999994E-08, , , , 
DataValue, -0.3, -4.7970799999999996E-08, , , , 
DataValue, -0.24, -4.5183199999999993E-08, , , , 
DataValue, -0.18, -4.4123199999999995E-08, , , , 
DataValue, -0.12, -4.3498599999999996E-08, , , , 
DataValue, -0.06, -4.2368999999999994E-08, , , , 
DataValue, 0, -4.01408E-08, , , , 
DataValue, 0.06, -3.8595199999999993E-08, , , , 
DataValue, 0.12, -3.5419399999999996E-08, , , , 
DataValue, 0.18, -2.5617799999999997E-08, , , , 
DataValue, 0.24, -1.03312E-08, , , , 
DataValue, 0.3, 2.1012199999999997E-08, , , , 
DataValue, 0.36, 9.9865999999999989E-08, , , , 
DataValue, 0.42, 3.5188E-07, , , , 
DataValue, 0.48, 1.6602000000000002E-06, , , , 
DataValue, 0.54, 9.5971000000000017E-06, , , , 
DataValue, 0.6, 3.5724E-05, , , , 
DataValue, 0.66, 7.9356E-05, , , , 
DataValue, 0.72, 0.00013496, , , , 
DataValue, 0.78, 0.00020034000000000002, , , , 
DataValue, 0.84, 0.00027638, , , , 
DataValue, 0.9, 0.00036480000000000003, , , , 
DataValue, 0.96, 0.0004672, , , , 
DataValue, 1.02, 0.00058542, , , , 
DataValue, 1.08, 0.00072008, , , , 
DataValue, 1.1400000000000001, 0.00087216000000000008, , , , 
DataValue, 1.2, 0.00104132, , , , 
DataValue, 1.26, 0.0012278, , , , 
DataValue, 1.32, 0.0014326, , , , 
DataValue, 1.3800000000000001, 0.0016558, , , , 
DataValue, 1.44, 0.0018982, , , , 
DataValue, 1.5, 0.0021602, , , , 
DataValue, 1.56, 0.0024432, , , , 
DataValue, 1.62, 0.0027476, , , , 
DataValue, 1.68, 0.0030734, , , , 
DataValue, 1.74, 0.0034224, , , , 
DataValue, 1.8, 0.003797, , , , 
DataValue, 1.86, 0.0041964, , , , 
DataValue, 1.92, 0.0046206, , , , 
DataValue, 1.98, 0.0050722, , , , 
DataValue, 2.04, 0.0055556, , , , 
DataValue, 2.1, 0.0060662, , , , 
DataValue, 2.16, 0.0066076, , , , 
DataValue, 2.22, 0.0071856, , , , 
DataValue, 2.2800000000000002, 0.0077928, , , , 
DataValue, 2.34, 0.0084358, , , , 
DataValue, 2.4, 0.0091158, , , , 
DataValue, 2.46, 0.0098376, , , , 
DataValue, 2.52, 0.0105926, , , , 
DataValue, 2.58, 0.011391, , , , 
DataValue, 2.64, 0.012238, , , , 
DataValue, 2.7, 0.013116000000000001, , , , 
DataValue, 2.7600000000000002, 0.014044000000000001, , , , 
DataValue, 2.82, 0.015022, , , , 
DataValue, 2.88, 0.016048, , , , 
DataValue, 2.94, 0.017126000000000002, , , , 
DataValue, 3, 0.018254000000000003, , , , 