
SetupTitle, Two Terminal IV Sweep
PrimitiveTest, I/V Sweep
TestParameter, Context.MainFrame, B1500A
TestParameter, Channel.UnitType, SMU, SMU
TestParameter, Channel.Unit, SMU3:MP, SMU4:MP
TestParameter, Channel.IName, I3, I4
TestParameter, Channel.VName, V3, V4
TestParameter, Channel.Mode, V, V
TestParameter, Channel.Func, VAR1, CONST
TestParameter, Channel.Index, 
TestParameter, Channel.Time, 
TestParameter, Measurement.Port.Unit, SMU3:MP, SMU4:MP
TestParameter, Measurement.Port.SeriesResistor, NONE, NONE
TestParameter, Measurement.Port.Filter, ON, ON
TestParameter, Measurement.Port.OutputVoltageComparison, 0, 0
TestParameter, Measurement.Primary.Locus, Single
TestParameter, Measurement.Primary.Scale, LINEAR
TestParameter, Measurement.Primary.Start, -3
TestParameter, Measurement.Primary.Stop, 5
TestParameter, Measurement.Primary.Step, 0.08
TestParameter, Measurement.Primary.Compliance, 0.1
TestParameter, Measurement.Primary.PowerCompliance, 0
TestParameter, Measurement.Aborting.Condition, CONTINUE AT ANY
TestParameter, Measurement.PostOutput.Value, START
TestParameter, Measurement.PostOutput.Retention, OFF
TestParameter, Measurement.Bias.Source, -3, 0
TestParameter, Measurement.Bias.Compliance, 0.1, 0.1
TestParameter, Measurement.Monitor.Unit, SMU3:MP, SMU4:MP
TestParameter, Measurement.Monitor.Adc, HR ADC, HR ADC
TestParameter, Measurement.Monitor.Measurement, Compliance Side, Compliance Side
TestParameter, Measurement.Monitor.RangingMode, LIMITED, LIMITED
TestParameter, Measurement.Monitor.RangeBoundary, 1nA, 1nA
TestParameter, Measurement.Monitor.RangeRating, BY FULL RANGE, BY FULL RANGE
TestParameter, Measurement.Monitor.RangeRatingCoeff, 50, 50
TestParameter, Measurement.Timing.Hold, 0
TestParameter, Measurement.Timing.Delay, 0
TestParameter, Measurement.Adc.HighSpeed.Mode, AUTO
TestParameter, Measurement.Adc.HighSpeed.Coeff, 1
TestParameter, Measurement.Adc.HighResolution.AutoZero, OFF
TestParameter, Measurement.Adc.HighResolution.Mode, AUTO
TestParameter, Measurement.Adc.HighResolution.Coeff, 6
TestParameter, Measurement.WaitTime.Source.Coeff, 1
TestParameter, Measurement.WaitTime.Source.Offset, 0
TestParameter, Measurement.WaitTime.Monitor.Coeff, 1
TestParameter, Measurement.WaitTime.Monitor.Offset, 0
TestParameter, Output.Graph.Enabled, true
TestParameter, Output.Graph.AutoScaling, false
TestParameter, Output.Graph.XAxis.Data, V3
TestParameter, Output.Graph.XAxis.Scale, Linear
TestParameter, Output.Graph.XAxis.Left, -5
TestParameter, Output.Graph.XAxis.Right, 5
TestParameter, Output.Graph.XAxis.RunTimeAutoScale, true
TestParameter, Output.Graph.YAxis.Data, I3
TestParameter, Output.Graph.YAxis.Scale, Linear
TestParameter, Output.Graph.YAxis.Bottom, -0.1
TestParameter, Output.Graph.YAxis.Top, 0.1
TestParameter, Output.Graph.YAxis.Group, 
TestParameter, Output.Graph.YAxis.RunTimeAutoScale, true
TestParameter, Output.List.Data, V1, I1, V2, I2
TestParameter, AutoAnalysis.Interpolation, false
TestParameter, AutoAnalysis.Line1.Enabled, false
TestParameter, AutoAnalysis.Line1.Type, 1
TestParameter, AutoAnalysis.Line1.Fix, True
TestParameter, AutoAnalysis.Line1.YAxis, 0
TestParameter, AutoAnalysis.Line1.Point1.Type, 0
TestParameter, AutoAnalysis.Line1.Point1.XY.X, 
TestParameter, AutoAnalysis.Line1.Point1.XY.Y, 
TestParameter, AutoAnalysis.Line1.Point1.Data.Var, 
TestParameter, AutoAnalysis.Line1.Point1.Data.Condition, 
TestParameter, AutoAnalysis.Line1.Point1.Data.Start, false
TestParameter, AutoAnalysis.Line1.Point1.Data.StartVar, 
TestParameter, AutoAnalysis.Line1.Point1.Data.StartCondition, 
TestParameter, AutoAnalysis.Line1.Point2.Type, 0
TestParameter, AutoAnalysis.Line1.Point2.XY.X, 
TestParameter, AutoAnalysis.Line1.Point2.XY.Y, 
TestParameter, AutoAnalysis.Line1.Point2.Data.Var, 
TestParameter, AutoAnalysis.Line1.Point2.Data.Condition, 
TestParameter, AutoAnalysis.Line1.Point2.Data.Start, false
TestParameter, AutoAnalysis.Line1.Point2.Data.StartVar, 
TestParameter, AutoAnalysis.Line1.Point2.Data.StartCondition, 
TestParameter, AutoAnalysis.Line1.GradientExpr, 0
TestParameter, AutoAnalysis.Line2.Enabled, false
TestParameter, AutoAnalysis.Line2.Type, 1
TestParameter, AutoAnalysis.Line2.Fix, True
TestParameter, AutoAnalysis.Line2.YAxis, 0
TestParameter, AutoAnalysis.Line2.Point1.Type, 0
TestParameter, AutoAnalysis.Line2.Point1.XY.X, 
TestParameter, AutoAnalysis.Line2.Point1.XY.Y, 
TestParameter, AutoAnalysis.Line2.Point1.Data.Var, 
TestParameter, AutoAnalysis.Line2.Point1.Data.Condition, 
TestParameter, AutoAnalysis.Line2.Point1.Data.Start, false
TestParameter, AutoAnalysis.Line2.Point1.Data.StartVar, 
TestParameter, AutoAnalysis.Line2.Point1.Data.StartCondition, 
TestParameter, AutoAnalysis.Line2.Point2.Type, 0
TestParameter, AutoAnalysis.Line2.Point2.XY.X, 
TestParameter, AutoAnalysis.Line2.Point2.XY.Y, 
TestParameter, AutoAnalysis.Line2.Point2.Data.Var, 
TestParameter, AutoAnalysis.Line2.Point2.Data.Condition, 
TestParameter, AutoAnalysis.Line2.Point2.Data.Start, false
TestParameter, AutoAnalysis.Line2.Point2.Data.StartVar, 
TestParameter, AutoAnalysis.Line2.Point2.Data.StartCondition, 
TestParameter, AutoAnalysis.Line2.GradientExpr, 0
TestParameter, AutoAnalysis.Marker.Enabled, false
TestParameter, AutoAnalysis.Marker.Data.Var, 
TestParameter, AutoAnalysis.Marker.Data.Condition, 
TestParameter, AutoAnalysis.Marker.Data.Start, false
TestParameter, AutoAnalysis.Marker.Data.StartVar, 
TestParameter, AutoAnalysis.Marker.Data.StartCondition, 
MetaData, TestRecord.EntryPoint, true
MetaData, TestRecord.RecordTime, 03/06/2023 10:05:24
MetaData, TestRecord.TestTarget, 
MetaData, TestRecord.IterationIndex, 30
MetaData, TestRecord.Preservation, true
MetaData, TestRecord.Flag, 
MetaData, TestRecord.Remarks, 
MetaData, TestRecord.LinkKey, d48c2975-39f8-4c88-99fe-96b0ef350827
Dimension1, 101, 101, 101, 101, 101, 101
Dimension2, 1, 1, 1, 1, 1, 1
DataName, V3, I3, V1, I1, V2, I2
DataValue, -3, -8.9753E-08, , , , 
DataValue, -2.92, -8.21122E-08, , , , 
DataValue, -2.84, -7.6690399999999989E-08, , , , 
DataValue, -2.7600000000000002, -7.2039999999999989E-08, , , , 
DataValue, -2.68, -6.616999999999999E-08, , , , 
DataValue, -2.6, -6.1816799999999993E-08, , , , 
DataValue, -2.52, -5.8112399999999993E-08, , , , 
DataValue, -2.44, -5.31822E-08, , , , 
DataValue, -2.36, -4.9142399999999993E-08, , , , 
DataValue, -2.2800000000000002, -4.5658799999999995E-08, , , , 
DataValue, -2.2, -4.2278199999999994E-08, , , , 
DataValue, -2.12, -3.9346399999999996E-08, , , , 
DataValue, -2.04, -3.5289799999999996E-08, , , , 
DataValue, -1.96, -3.2629399999999996E-08, , , , 
DataValue, -1.8800000000000001, -3.14818E-08, , , , 
DataValue, -1.8, -2.8241999999999996E-08, , , , 
DataValue, -1.72, -2.6143599999999997E-08, , , , 
DataValue, -1.6400000000000001, -2.5374199999999997E-08, , , , 
DataValue, -1.56, -2.3134799999999997E-08, , , , 
DataValue, -1.48, -2.2071999999999997E-08, , , , 
DataValue, -1.4000000000000001, -2.0383799999999998E-08, , , , 
DataValue, -1.32, -1.88506E-08, , , , 
DataValue, -1.24, -1.8605799999999997E-08, , , , 
DataValue, -1.16, -1.6632E-08, , , , 
DataValue, -1.08, -1.5600199999999998E-08, , , , 
DataValue, -1, -1.5561399999999998E-08, , , , 
DataValue, -0.92, -1.3867E-08, , , , 
DataValue, -0.84, -1.3071799999999999E-08, , , , 
DataValue, -0.76, -1.2818999999999999E-08, , , , 
DataValue, -0.68, -1.1840999999999998E-08, , , , 
DataValue, -0.6, -1.2235799999999999E-08, , , , 
DataValue, -0.52, -1.0926599999999999E-08, , , , 
DataValue, -0.44, -1.0634599999999999E-08, , , , 
DataValue, -0.36, -1.10224E-08, , , , 
DataValue, -0.28, -9.3694E-09, , , , 
DataValue, -0.2, -8.3064E-09, , , , 
DataValue, -0.12, -6.4036E-09, , , , 
DataValue, -0.04, -4.6656E-09, , , , 
DataValue, 0.04, -3.0321E-09, , , , 
DataValue, 0.12, -1.2154E-09, , , , 
DataValue, 0.2, -3.921E-10, , , , 
DataValue, 0.28, 5.869E-11, , , , 
DataValue, 0.36, 3.1425000000000003E-10, , , , 
DataValue, 0.44, 4.5385000000000004E-10, , , , 
DataValue, 0.52, 4.9966E-10, , , , 
DataValue, 0.6, 5.5705000000000006E-10, , , , 
DataValue, 0.68, 6.469E-10, , , , 
DataValue, 0.76, 7.3624E-10, , , , 
DataValue, 0.84, 8.4473E-10, , , , 
DataValue, 0.92, 9.815E-10, , , , 
DataValue, 1, 1.1134E-09, , , , 
DataValue, 1.08, 1.2845E-09, , , , 
DataValue, 1.16, 1.5322E-09, , , , 
DataValue, 1.24, 1.7922E-09, , , , 
DataValue, 1.32, 2.1037E-09, , , , 
DataValue, 1.4000000000000001, 2.4862E-09, , , , 
DataValue, 1.48, 3.0415E-09, , , , 
DataValue, 1.56, 3.7489E-09, , , , 
DataValue, 1.6400000000000001, 4.4756E-09, , , , 
DataValue, 1.72, 5.2785E-09, , , , 
DataValue, 1.8, 6.1821E-09, , , , 
DataValue, 1.8800000000000001, 7.6897E-09, , , , 
DataValue, 1.96, 9.432E-09, , , , 
DataValue, 2.04, 1.1322399999999999E-08, , , , 
DataValue, 2.12, 1.3890199999999998E-08, , , , 
DataValue, 2.2, 1.7171599999999998E-08, , , , 
DataValue, 2.2800000000000002, 2.1986199999999997E-08, , , , 
DataValue, 2.36, 2.7710599999999997E-08, , , , 
DataValue, 2.44, 3.68914E-08, , , , 
DataValue, 2.52, 4.7037799999999997E-08, , , , 
DataValue, 2.6, 5.85944E-08, , , , 
DataValue, 2.68, 7.8950799999999993E-08, , , , 
DataValue, 2.7600000000000002, 1.0824399999999999E-07, , , , 
DataValue, 2.84, 1.5998E-07, , , , 
DataValue, 2.92, 2.306E-07, , , , 
DataValue, 3, 3.2844E-07, , , , 
DataValue, 3.08, 4.78E-07, , , , 
DataValue, 3.16, 6.731E-07, , , , 
DataValue, 3.24, 9.1064E-07, , , , 
DataValue, 3.3200000000000003, 1.1368E-06, , , , 
DataValue, 3.4, 1.5169000000000003E-06, , , , 
DataValue, 3.48, 1.9647E-06, , , , 
DataValue, 3.56, 2.5942E-06, , , , 
DataValue, 3.64, 3.1591000000000004E-06, , , , 
DataValue, 3.72, 4.0835000000000008E-06, , , , 
DataValue, 3.8000000000000003, 5.2550000000000005E-06, , , , 
DataValue, 3.88, 6.1202E-06, , , , 
DataValue, 3.96, 7.3352000000000005E-06, , , , 
DataValue, 4.04, 9.1767000000000014E-06, , , , 
DataValue, 4.12, 1.1313800000000002E-05, , , , 
DataValue, 4.2, 1.4402E-05, , , , 
DataValue, 4.28, 1.6716E-05, , , , 
DataValue, 4.36, 1.9244E-05, , , , 
DataValue, 4.44, 2.2016E-05, , , , 
DataValue, 4.5200000000000005, 2.48E-05, , , , 
DataValue, 4.6000000000000005, 2.8282E-05, , , , 
DataValue, 4.68, 3.2290000000000004E-05, , , , 
DataValue, 4.76, 3.5996E-05, , , , 
DataValue, 4.84, 3.9542E-05, , , , 
DataValue, 4.92, 4.5122E-05, , , , 
DataValue, 5, 4.9814E-05, , , , 