
SetupTitle, Two Terminal IV Sweep
PrimitiveTest, I/V Sweep
TestParameter, Context.MainFrame, B1500A
TestParameter, Channel.UnitType, SMU, SMU
TestParameter, Channel.Unit, SMU3:MP, SMU4:MP
TestParameter, Channel.IName, I3, I4
TestParameter, Channel.VName, V3, V4
TestParameter, Channel.Mode, V, V
TestParameter, Channel.Func, VAR1, CONST
TestParameter, Channel.Index, 
TestParameter, Channel.Time, 
TestParameter, Measurement.Port.Unit, SMU3:MP, SMU4:MP
TestParameter, Measurement.Port.SeriesResistor, NONE, NONE
TestParameter, Measurement.Port.Filter, ON, ON
TestParameter, Measurement.Port.OutputVoltageComparison, 0, 0
TestParameter, Measurement.Primary.Locus, Single
TestParameter, Measurement.Primary.Scale, LINEAR
TestParameter, Measurement.Primary.Start, -3
TestParameter, Measurement.Primary.Stop, 5
TestParameter, Measurement.Primary.Step, 0.08
TestParameter, Measurement.Primary.Compliance, 0.1
TestParameter, Measurement.Primary.PowerCompliance, 0
TestParameter, Measurement.Aborting.Condition, CONTINUE AT ANY
TestParameter, Measurement.PostOutput.Value, START
TestParameter, Measurement.PostOutput.Retention, OFF
TestParameter, Measurement.Bias.Source, -3, 0
TestParameter, Measurement.Bias.Compliance, 0.1, 0.1
TestParameter, Measurement.Monitor.Unit, SMU3:MP, SMU4:MP
TestParameter, Measurement.Monitor.Adc, HR ADC, HR ADC
TestParameter, Measurement.Monitor.Measurement, Compliance Side, Compliance Side
TestParameter, Measurement.Monitor.RangingMode, LIMITED, LIMITED
TestParameter, Measurement.Monitor.RangeBoundary, 1nA, 1nA
TestParameter, Measurement.Monitor.RangeRating, BY FULL RANGE, BY FULL RANGE
TestParameter, Measurement.Monitor.RangeRatingCoeff, 50, 50
TestParameter, Measurement.Timing.Hold, 0
TestParameter, Measurement.Timing.Delay, 0
TestParameter, Measurement.Adc.HighSpeed.Mode, AUTO
TestParameter, Measurement.Adc.HighSpeed.Coeff, 1
TestParameter, Measurement.Adc.HighResolution.AutoZero, OFF
TestParameter, Measurement.Adc.HighResolution.Mode, AUTO
TestParameter, Measurement.Adc.HighResolution.Coeff, 6
TestParameter, Measurement.WaitTime.Source.Coeff, 1
TestParameter, Measurement.WaitTime.Source.Offset, 0
TestParameter, Measurement.WaitTime.Monitor.Coeff, 1
TestParameter, Measurement.WaitTime.Monitor.Offset, 0
TestParameter, Output.Graph.Enabled, true
TestParameter, Output.Graph.AutoScaling, false
TestParameter, Output.Graph.XAxis.Data, V3
TestParameter, Output.Graph.XAxis.Scale, Linear
TestParameter, Output.Graph.XAxis.Left, -5
TestParameter, Output.Graph.XAxis.Right, 5
TestParameter, Output.Graph.XAxis.RunTimeAutoScale, true
TestParameter, Output.Graph.YAxis.Data, I3
TestParameter, Output.Graph.YAxis.Scale, Linear
TestParameter, Output.Graph.YAxis.Bottom, -0.1
TestParameter, Output.Graph.YAxis.Top, 0.1
TestParameter, Output.Graph.YAxis.Group, 
TestParameter, Output.Graph.YAxis.RunTimeAutoScale, true
TestParameter, Output.List.Data, V1, I1, V2, I2
TestParameter, AutoAnalysis.Interpolation, false
TestParameter, AutoAnalysis.Line1.Enabled, false
TestParameter, AutoAnalysis.Line1.Type, 1
TestParameter, AutoAnalysis.Line1.Fix, True
TestParameter, AutoAnalysis.Line1.YAxis, 0
TestParameter, AutoAnalysis.Line1.Point1.Type, 0
TestParameter, AutoAnalysis.Line1.Point1.XY.X, 
TestParameter, AutoAnalysis.Line1.Point1.XY.Y, 
TestParameter, AutoAnalysis.Line1.Point1.Data.Var, 
TestParameter, AutoAnalysis.Line1.Point1.Data.Condition, 
TestParameter, AutoAnalysis.Line1.Point1.Data.Start, false
TestParameter, AutoAnalysis.Line1.Point1.Data.StartVar, 
TestParameter, AutoAnalysis.Line1.Point1.Data.StartCondition, 
TestParameter, AutoAnalysis.Line1.Point2.Type, 0
TestParameter, AutoAnalysis.Line1.Point2.XY.X, 
TestParameter, AutoAnalysis.Line1.Point2.XY.Y, 
TestParameter, AutoAnalysis.Line1.Point2.Data.Var, 
TestParameter, AutoAnalysis.Line1.Point2.Data.Condition, 
TestParameter, AutoAnalysis.Line1.Point2.Data.Start, false
TestParameter, AutoAnalysis.Line1.Point2.Data.StartVar, 
TestParameter, AutoAnalysis.Line1.Point2.Data.StartCondition, 
TestParameter, AutoAnalysis.Line1.GradientExpr, 0
TestParameter, AutoAnalysis.Line2.Enabled, false
TestParameter, AutoAnalysis.Line2.Type, 1
TestParameter, AutoAnalysis.Line2.Fix, True
TestParameter, AutoAnalysis.Line2.YAxis, 0
TestParameter, AutoAnalysis.Line2.Point1.Type, 0
TestParameter, AutoAnalysis.Line2.Point1.XY.X, 
TestParameter, AutoAnalysis.Line2.Point1.XY.Y, 
TestParameter, AutoAnalysis.Line2.Point1.Data.Var, 
TestParameter, AutoAnalysis.Line2.Point1.Data.Condition, 
TestParameter, AutoAnalysis.Line2.Point1.Data.Start, false
TestParameter, AutoAnalysis.Line2.Point1.Data.StartVar, 
TestParameter, AutoAnalysis.Line2.Point1.Data.StartCondition, 
TestParameter, AutoAnalysis.Line2.Point2.Type, 0
TestParameter, AutoAnalysis.Line2.Point2.XY.X, 
TestParameter, AutoAnalysis.Line2.Point2.XY.Y, 
TestParameter, AutoAnalysis.Line2.Point2.Data.Var, 
TestParameter, AutoAnalysis.Line2.Point2.Data.Condition, 
TestParameter, AutoAnalysis.Line2.Point2.Data.Start, false
TestParameter, AutoAnalysis.Line2.Point2.Data.StartVar, 
TestParameter, AutoAnalysis.Line2.Point2.Data.StartCondition, 
TestParameter, AutoAnalysis.Line2.GradientExpr, 0
TestParameter, AutoAnalysis.Marker.Enabled, false
TestParameter, AutoAnalysis.Marker.Data.Var, 
TestParameter, AutoAnalysis.Marker.Data.Condition, 
TestParameter, AutoAnalysis.Marker.Data.Start, false
TestParameter, AutoAnalysis.Marker.Data.StartVar, 
TestParameter, AutoAnalysis.Marker.Data.StartCondition, 
MetaData, TestRecord.EntryPoint, true
MetaData, TestRecord.RecordTime, 03/06/2023 10:02:02
MetaData, TestRecord.TestTarget, 
MetaData, TestRecord.IterationIndex, 28
MetaData, TestRecord.Preservation, true
MetaData, TestRecord.Flag, 
MetaData, TestRecord.Remarks, 
MetaData, TestRecord.LinkKey, 5c9d759b-b784-4a17-a9c9-78ec6e0576ee
Dimension1, 101, 101, 101, 101, 101, 101
Dimension2, 1, 1, 1, 1, 1, 1
DataName, V3, I3, V1, I1, V2, I2
DataValue, -3, -7.95138E-08, , , , 
DataValue, -2.92, -7.2466E-08, , , , 
DataValue, -2.84, -6.8163E-08, , , , 
DataValue, -2.7600000000000002, -6.4798E-08, , , , 
DataValue, -2.68, -5.9909E-08, , , , 
DataValue, -2.6, -5.5596199999999995E-08, , , , 
DataValue, -2.52, -5.1799999999999994E-08, , , , 
DataValue, -2.44, -4.97408E-08, , , , 
DataValue, -2.36, -4.5054999999999995E-08, , , , 
DataValue, -2.2800000000000002, -4.2257E-08, , , , 
DataValue, -2.2, -4.0163599999999993E-08, , , , 
DataValue, -2.12, -3.76454E-08, , , , 
DataValue, -2.04, -3.65752E-08, , , , 
DataValue, -1.96, -3.3282399999999995E-08, , , , 
DataValue, -1.8800000000000001, -3.18154E-08, , , , 
DataValue, -1.8, -3.1792E-08, , , , 
DataValue, -1.72, -2.89628E-08, , , , 
DataValue, -1.6400000000000001, -2.7584199999999998E-08, , , , 
DataValue, -1.56, -2.7416999999999997E-08, , , , 
DataValue, -1.48, -2.5928399999999997E-08, , , , 
DataValue, -1.4000000000000001, -2.5400799999999996E-08, , , , 
DataValue, -1.32, -2.3747599999999997E-08, , , , 
DataValue, -1.24, -2.30882E-08, , , , 
DataValue, -1.16, -2.3910999999999998E-08, , , , 
DataValue, -1.08, -2.21624E-08, , , , 
DataValue, -1, -2.18766E-08, , , , 
DataValue, -0.92, -2.1172E-08, , , , 
DataValue, -0.84, -2.0798E-08, , , , 
DataValue, -0.76, -2.1027199999999998E-08, , , , 
DataValue, -0.68, -1.9745399999999998E-08, , , , 
DataValue, -0.6, -1.95984E-08, , , , 
DataValue, -0.52, -2.0384E-08, , , , 
DataValue, -0.44, -1.89532E-08, , , , 
DataValue, -0.36, -1.9036999999999997E-08, , , , 
DataValue, -0.28, -1.9612199999999998E-08, , , , 
DataValue, -0.2, -1.7153599999999998E-08, , , , 
DataValue, -0.12, -1.4271199999999998E-08, , , , 
DataValue, -0.04, -1.0272999999999999E-08, , , , 
DataValue, 0.04, -5.5232E-09, , , , 
DataValue, 0.12, -2.1879E-09, , , , 
DataValue, 0.2, -6.8709000000000005E-10, , , , 
DataValue, 0.28, 3.168E-11, , , , 
DataValue, 0.36, 4.3426E-10, , , , 
DataValue, 0.44, 6.3607000000000006E-10, , , , 
DataValue, 0.52, 7.4754000000000009E-10, , , , 
DataValue, 0.6, 8.1947000000000007E-10, , , , 
DataValue, 0.68, 9.1159000000000005E-10, , , , 
DataValue, 0.76, 1.005E-09, , , , 
DataValue, 0.84, 1.1586E-09, , , , 
DataValue, 0.92, 1.2693E-09, , , , 
DataValue, 1, 1.4401E-09, , , , 
DataValue, 1.08, 1.6488E-09, , , , 
DataValue, 1.16, 1.8581E-09, , , , 
DataValue, 1.24, 2.2206E-09, , , , 
DataValue, 1.32, 2.6009E-09, , , , 
DataValue, 1.4000000000000001, 3.0776E-09, , , , 
DataValue, 1.48, 3.7029E-09, , , , 
DataValue, 1.56, 4.2927E-09, , , , 
DataValue, 1.6400000000000001, 5.3166E-09, , , , 
DataValue, 1.72, 6.3711E-09, , , , 
DataValue, 1.8, 7.3052999999999996E-09, , , , 
DataValue, 1.8800000000000001, 8.9691E-09, , , , 
DataValue, 1.96, 1.07027E-08, , , , 
DataValue, 2.04, 1.2822399999999999E-08, , , , 
DataValue, 2.12, 1.5599399999999998E-08, , , , 
DataValue, 2.2, 1.8818199999999998E-08, , , , 
DataValue, 2.2800000000000002, 2.31038E-08, , , , 
DataValue, 2.36, 2.7518399999999997E-08, , , , 
DataValue, 2.44, 3.26324E-08, , , , 
DataValue, 2.52, 3.8954E-08, , , , 
DataValue, 2.6, 4.6300199999999995E-08, , , , 
DataValue, 2.68, 5.4611999999999993E-08, , , , 
DataValue, 2.7600000000000002, 6.392899999999999E-08, , , , 
DataValue, 2.84, 7.627579999999999E-08, , , , 
DataValue, 2.92, 9.1017199999999985E-08, , , , 
DataValue, 3, 1.0889719999999998E-07, , , , 
DataValue, 3.08, 1.2818E-07, , , , 
DataValue, 3.16, 1.501E-07, , , , 
DataValue, 3.24, 1.8086E-07, , , , 
DataValue, 3.3200000000000003, 2.1822E-07, , , , 
DataValue, 3.4, 2.7442E-07, , , , 
DataValue, 3.48, 3.4254E-07, , , , 
DataValue, 3.56, 4.2444E-07, , , , 
DataValue, 3.64, 5.4392E-07, , , , 
DataValue, 3.72, 7.149E-07, , , , 
DataValue, 3.8000000000000003, 8.9648E-07, , , , 
DataValue, 3.88, 1.2281000000000002E-06, , , , 
DataValue, 3.96, 1.6864E-06, , , , 
DataValue, 4.04, 2.0181E-06, , , , 
DataValue, 4.12, 2.5634000000000003E-06, , , , 
DataValue, 4.2, 3.1829000000000005E-06, , , , 
DataValue, 4.28, 4.0869000000000006E-06, , , , 
DataValue, 4.36, 5.0779E-06, , , , 
DataValue, 4.44, 6.1161000000000006E-06, , , , 
DataValue, 4.5200000000000005, 7.6052000000000005E-06, , , , 
DataValue, 4.6000000000000005, 9.5073000000000013E-06, , , , 
DataValue, 4.68, 1.1359900000000001E-05, , , , 
DataValue, 4.76, 1.6604E-05, , , , 
DataValue, 4.84, 1.9980000000000002E-05, , , , 
DataValue, 4.92, 2.4228000000000002E-05, , , , 
DataValue, 5, 3.1198E-05, , , , 