
SetupTitle, Two Terminal IV Sweep
PrimitiveTest, I/V Sweep
TestParameter, Context.MainFrame, B1500A
TestParameter, Channel.UnitType, SMU, SMU
TestParameter, Channel.Unit, SMU3:MP, SMU4:MP
TestParameter, Channel.IName, I3, I4
TestParameter, Channel.VName, V3, V4
TestParameter, Channel.Mode, V, V
TestParameter, Channel.Func, VAR1, CONST
TestParameter, Channel.Index, 
TestParameter, Channel.Time, 
TestParameter, Measurement.Port.Unit, SMU3:MP, SMU4:MP
TestParameter, Measurement.Port.SeriesResistor, NONE, NONE
TestParameter, Measurement.Port.Filter, ON, ON
TestParameter, Measurement.Port.OutputVoltageComparison, 0, 0
TestParameter, Measurement.Primary.Locus, Single
TestParameter, Measurement.Primary.Scale, LINEAR
TestParameter, Measurement.Primary.Start, -3
TestParameter, Measurement.Primary.Stop, 5
TestParameter, Measurement.Primary.Step, 0.08
TestParameter, Measurement.Primary.Compliance, 0.01
TestParameter, Measurement.Primary.PowerCompliance, 0
TestParameter, Measurement.Aborting.Condition, CONTINUE AT ANY
TestParameter, Measurement.PostOutput.Value, START
TestParameter, Measurement.PostOutput.Retention, OFF
TestParameter, Measurement.Bias.Source, -3, 0
TestParameter, Measurement.Bias.Compliance, 0.01, 0.1
TestParameter, Measurement.Monitor.Unit, SMU3:MP, SMU4:MP
TestParameter, Measurement.Monitor.Adc, HR ADC, HR ADC
TestParameter, Measurement.Monitor.Measurement, Compliance Side, Compliance Side
TestParameter, Measurement.Monitor.RangingMode, LIMITED, LIMITED
TestParameter, Measurement.Monitor.RangeBoundary, 1nA, 1nA
TestParameter, Measurement.Monitor.RangeRating, BY FULL RANGE, BY FULL RANGE
TestParameter, Measurement.Monitor.RangeRatingCoeff, 50, 50
TestParameter, Measurement.Timing.Hold, 0
TestParameter, Measurement.Timing.Delay, 0
TestParameter, Measurement.Adc.HighSpeed.Mode, AUTO
TestParameter, Measurement.Adc.HighSpeed.Coeff, 1
TestParameter, Measurement.Adc.HighResolution.AutoZero, OFF
TestParameter, Measurement.Adc.HighResolution.Mode, AUTO
TestParameter, Measurement.Adc.HighResolution.Coeff, 6
TestParameter, Measurement.WaitTime.Source.Coeff, 1
TestParameter, Measurement.WaitTime.Source.Offset, 0
TestParameter, Measurement.WaitTime.Monitor.Coeff, 1
TestParameter, Measurement.WaitTime.Monitor.Offset, 0
TestParameter, Output.Graph.Enabled, true
TestParameter, Output.Graph.AutoScaling, false
TestParameter, Output.Graph.XAxis.Data, V3
TestParameter, Output.Graph.XAxis.Scale, Linear
TestParameter, Output.Graph.XAxis.Left, -5
TestParameter, Output.Graph.XAxis.Right, 5
TestParameter, Output.Graph.XAxis.RunTimeAutoScale, true
TestParameter, Output.Graph.YAxis.Data, I3
TestParameter, Output.Graph.YAxis.Scale, Linear
TestParameter, Output.Graph.YAxis.Bottom, -0.1
TestParameter, Output.Graph.YAxis.Top, 0.1
TestParameter, Output.Graph.YAxis.Group, 
TestParameter, Output.Graph.YAxis.RunTimeAutoScale, true
TestParameter, Output.List.Data, V1, I1, V2, I2
TestParameter, AutoAnalysis.Interpolation, false
TestParameter, AutoAnalysis.Line1.Enabled, false
TestParameter, AutoAnalysis.Line1.Type, 1
TestParameter, AutoAnalysis.Line1.Fix, True
TestParameter, AutoAnalysis.Line1.YAxis, 0
TestParameter, AutoAnalysis.Line1.Point1.Type, 0
TestParameter, AutoAnalysis.Line1.Point1.XY.X, 
TestParameter, AutoAnalysis.Line1.Point1.XY.Y, 
TestParameter, AutoAnalysis.Line1.Point1.Data.Var, 
TestParameter, AutoAnalysis.Line1.Point1.Data.Condition, 
TestParameter, AutoAnalysis.Line1.Point1.Data.Start, false
TestParameter, AutoAnalysis.Line1.Point1.Data.StartVar, 
TestParameter, AutoAnalysis.Line1.Point1.Data.StartCondition, 
TestParameter, AutoAnalysis.Line1.Point2.Type, 0
TestParameter, AutoAnalysis.Line1.Point2.XY.X, 
TestParameter, AutoAnalysis.Line1.Point2.XY.Y, 
TestParameter, AutoAnalysis.Line1.Point2.Data.Var, 
TestParameter, AutoAnalysis.Line1.Point2.Data.Condition, 
TestParameter, AutoAnalysis.Line1.Point2.Data.Start, false
TestParameter, AutoAnalysis.Line1.Point2.Data.StartVar, 
TestParameter, AutoAnalysis.Line1.Point2.Data.StartCondition, 
TestParameter, AutoAnalysis.Line1.GradientExpr, 0
TestParameter, AutoAnalysis.Line2.Enabled, false
TestParameter, AutoAnalysis.Line2.Type, 1
TestParameter, AutoAnalysis.Line2.Fix, True
TestParameter, AutoAnalysis.Line2.YAxis, 0
TestParameter, AutoAnalysis.Line2.Point1.Type, 0
TestParameter, AutoAnalysis.Line2.Point1.XY.X, 
TestParameter, AutoAnalysis.Line2.Point1.XY.Y, 
TestParameter, AutoAnalysis.Line2.Point1.Data.Var, 
TestParameter, AutoAnalysis.Line2.Point1.Data.Condition, 
TestParameter, AutoAnalysis.Line2.Point1.Data.Start, false
TestParameter, AutoAnalysis.Line2.Point1.Data.StartVar, 
TestParameter, AutoAnalysis.Line2.Point1.Data.StartCondition, 
TestParameter, AutoAnalysis.Line2.Point2.Type, 0
TestParameter, AutoAnalysis.Line2.Point2.XY.X, 
TestParameter, AutoAnalysis.Line2.Point2.XY.Y, 
TestParameter, AutoAnalysis.Line2.Point2.Data.Var, 
TestParameter, AutoAnalysis.Line2.Point2.Data.Condition, 
TestParameter, AutoAnalysis.Line2.Point2.Data.Start, false
TestParameter, AutoAnalysis.Line2.Point2.Data.StartVar, 
TestParameter, AutoAnalysis.Line2.Point2.Data.StartCondition, 
TestParameter, AutoAnalysis.Line2.GradientExpr, 0
TestParameter, AutoAnalysis.Marker.Enabled, false
TestParameter, AutoAnalysis.Marker.Data.Var, 
TestParameter, AutoAnalysis.Marker.Data.Condition, 
TestParameter, AutoAnalysis.Marker.Data.Start, false
TestParameter, AutoAnalysis.Marker.Data.StartVar, 
TestParameter, AutoAnalysis.Marker.Data.StartCondition, 
MetaData, TestRecord.EntryPoint, true
MetaData, TestRecord.RecordTime, 03/06/2023 10:19:07
MetaData, TestRecord.TestTarget, 
MetaData, TestRecord.IterationIndex, 36
MetaData, TestRecord.Preservation, true
MetaData, TestRecord.Flag, 
MetaData, TestRecord.Remarks, 
MetaData, TestRecord.LinkKey, 8048f155-2733-4c06-ad24-701bd87dd917
Dimension1, 101, 101, 101, 101, 101, 101
Dimension2, 1, 1, 1, 1, 1, 1
DataName, V3, I3, V1, I1, V2, I2
DataValue, -3, -7.2122E-09, , , , 
DataValue, -2.92, -7.3601E-09, , , , 
DataValue, -2.84, -8.122E-09, , , , 
DataValue, -2.7600000000000002, -7.8822E-09, , , , 
DataValue, -2.68, -6.1629E-09, , , , 
DataValue, -2.6, -6.3314E-09, , , , 
DataValue, -2.52, -6.49E-09, , , , 
DataValue, -2.44, -7.4448E-09, , , , 
DataValue, -2.36, -7.0446E-09, , , , 
DataValue, -2.2800000000000002, -5.4508E-09, , , , 
DataValue, -2.2, -5.7592E-09, , , , 
DataValue, -2.12, -5.984E-09, , , , 
DataValue, -2.04, -6.9455E-09, , , , 
DataValue, -1.96, -6.5956E-09, , , , 
DataValue, -1.8800000000000001, -5.0258E-09, , , , 
DataValue, -1.8, -5.3819E-09, , , , 
DataValue, -1.72, -5.6754E-09, , , , 
DataValue, -1.6400000000000001, -6.6528E-09, , , , 
DataValue, -1.56, -6.3216E-09, , , , 
DataValue, -1.48, -4.7946999999999996E-09, , , , 
DataValue, -1.4000000000000001, -5.1816E-09, , , , 
DataValue, -1.32, -5.4939E-09, , , , 
DataValue, -1.24, -6.4967E-09, , , , 
DataValue, -1.16, -6.1697E-09, , , , 
DataValue, -1.08, -4.6392E-09, , , , 
DataValue, -1, -5.0897E-09, , , , 
DataValue, -0.92, -5.7336E-09, , , , 
DataValue, -0.84, -6.3717E-09, , , , 
DataValue, -0.76, -5.1057E-09, , , , 
DataValue, -0.68, -4.8319E-09, , , , 
DataValue, -0.6, -5.2862E-09, , , , 
DataValue, -0.52, -6.1479E-09, , , , 
DataValue, -0.44, -6.3113E-09, , , , 
DataValue, -0.36, -4.9528E-09, , , , 
DataValue, -0.28, -4.7739E-09, , , , 
DataValue, -0.2, -5.1792E-09, , , , 
DataValue, -0.12, -5.9204E-09, , , , 
DataValue, -0.04, -5.4103E-09, , , , 
DataValue, 0.04, -3.2542E-09, , , , 
DataValue, 0.12, -1.6536E-09, , , , 
DataValue, 0.2, -7.2403E-10, , , , 
DataValue, 0.28, -2.1322000000000001E-10, , , , 
DataValue, 0.36, 2.0130000000000002E-11, , , , 
DataValue, 0.44, 1.9195000000000002E-10, , , , 
DataValue, 0.52, 2.936E-10, , , , 
DataValue, 0.6, 3.7662000000000004E-10, , , , 
DataValue, 0.68, 3.8749E-10, , , , 
DataValue, 0.76, 3.9608000000000004E-10, , , , 
DataValue, 0.84, 4.5821E-10, , , , 
DataValue, 0.92, 5.1929000000000008E-10, , , , 
DataValue, 1, 6.1285E-10, , , , 
DataValue, 1.08, 6.3926E-10, , , , 
DataValue, 1.16, 7.4704E-10, , , , 
DataValue, 1.24, 7.7515000000000006E-10, , , , 
DataValue, 1.32, 8.9621E-10, , , , 
DataValue, 1.4000000000000001, 9.506E-10, , , , 
DataValue, 1.48, 1.0908E-09, , , , 
DataValue, 1.56, 1.271E-09, , , , 
DataValue, 1.6400000000000001, 1.421E-09, , , , 
DataValue, 1.72, 1.571E-09, , , , 
DataValue, 1.8, 1.8374E-09, , , , 
DataValue, 1.8800000000000001, 2.1318E-09, , , , 
DataValue, 1.96, 2.5218E-09, , , , 
DataValue, 2.04, 2.8529E-09, , , , 
DataValue, 2.12, 3.3328E-09, , , , 
DataValue, 2.2, 3.9189E-09, , , , 
DataValue, 2.2800000000000002, 4.652E-09, , , , 
DataValue, 2.36, 5.3835E-09, , , , 
DataValue, 2.44, 6.2352E-09, , , , 
DataValue, 2.52, 7.4203E-09, , , , 
DataValue, 2.6, 8.7764E-09, , , , 
DataValue, 2.68, 1.03868E-08, , , , 
DataValue, 2.7600000000000002, 1.2140799999999998E-08, , , , 
DataValue, 2.84, 1.4277599999999999E-08, , , , 
DataValue, 2.92, 1.7092E-08, , , , 
DataValue, 3, 2.04324E-08, , , , 
DataValue, 3.08, 2.3837799999999997E-08, , , , 
DataValue, 3.16, 2.8414199999999996E-08, , , , 
DataValue, 3.24, 3.3671799999999995E-08, , , , 
DataValue, 3.3200000000000003, 4.0242199999999995E-08, , , , 
DataValue, 3.4, 4.79996E-08, , , , 
DataValue, 3.48, 5.7740999999999994E-08, , , , 
DataValue, 3.56, 6.95578E-08, , , , 
DataValue, 3.64, 8.5574E-08, , , , 
DataValue, 3.72, 1.0618039999999998E-07, , , , 
DataValue, 3.8000000000000003, 1.3411999999999999E-07, , , , 
DataValue, 3.88, 1.7382E-07, , , , 
DataValue, 3.96, 2.4034E-07, , , , 
DataValue, 4.04, 3.3956E-07, , , , 
DataValue, 4.12, 4.9072E-07, , , , 
DataValue, 4.2, 7.2906E-07, , , , 
DataValue, 4.28, 9.8476E-07, , , , 
DataValue, 4.36, 1.6193000000000001E-06, , , , 
DataValue, 4.44, 2.0623E-06, , , , 
DataValue, 4.5200000000000005, 2.7852000000000005E-06, , , , 
DataValue, 4.6000000000000005, 3.6916000000000004E-06, , , , 
DataValue, 4.68, 4.8489E-06, , , , 
DataValue, 4.76, 5.672800000000001E-06, , , , 
DataValue, 4.84, 7.3977E-06, , , , 
DataValue, 4.92, 9.3944000000000011E-06, , , , 
DataValue, 5, 1.2914E-05, , , , 