
SetupTitle, Two Terminal IV Sweep
PrimitiveTest, I/V Sweep
TestParameter, Context.MainFrame, B1500A
TestParameter, Channel.UnitType, SMU, SMU
TestParameter, Channel.Unit, SMU3:MP, SMU4:MP
TestParameter, Channel.IName, I3, I4
TestParameter, Channel.VName, V3, V4
TestParameter, Channel.Mode, V, V
TestParameter, Channel.Func, VAR1, CONST
TestParameter, Channel.Index, 
TestParameter, Channel.Time, 
TestParameter, Measurement.Port.Unit, SMU3:MP, SMU4:MP
TestParameter, Measurement.Port.SeriesResistor, NONE, NONE
TestParameter, Measurement.Port.Filter, ON, ON
TestParameter, Measurement.Port.OutputVoltageComparison, 0, 0
TestParameter, Measurement.Primary.Locus, Single
TestParameter, Measurement.Primary.Scale, LINEAR
TestParameter, Measurement.Primary.Start, -3
TestParameter, Measurement.Primary.Stop, 5
TestParameter, Measurement.Primary.Step, 0.08
TestParameter, Measurement.Primary.Compliance, 0.01
TestParameter, Measurement.Primary.PowerCompliance, 0
TestParameter, Measurement.Aborting.Condition, CONTINUE AT ANY
TestParameter, Measurement.PostOutput.Value, START
TestParameter, Measurement.PostOutput.Retention, OFF
TestParameter, Measurement.Bias.Source, -3, 0
TestParameter, Measurement.Bias.Compliance, 0.01, 0.1
TestParameter, Measurement.Monitor.Unit, SMU3:MP, SMU4:MP
TestParameter, Measurement.Monitor.Adc, HR ADC, HR ADC
TestParameter, Measurement.Monitor.Measurement, Compliance Side, Compliance Side
TestParameter, Measurement.Monitor.RangingMode, LIMITED, LIMITED
TestParameter, Measurement.Monitor.RangeBoundary, 1nA, 1nA
TestParameter, Measurement.Monitor.RangeRating, BY FULL RANGE, BY FULL RANGE
TestParameter, Measurement.Monitor.RangeRatingCoeff, 50, 50
TestParameter, Measurement.Timing.Hold, 0
TestParameter, Measurement.Timing.Delay, 0
TestParameter, Measurement.Adc.HighSpeed.Mode, AUTO
TestParameter, Measurement.Adc.HighSpeed.Coeff, 1
TestParameter, Measurement.Adc.HighResolution.AutoZero, OFF
TestParameter, Measurement.Adc.HighResolution.Mode, AUTO
TestParameter, Measurement.Adc.HighResolution.Coeff, 6
TestParameter, Measurement.WaitTime.Source.Coeff, 1
TestParameter, Measurement.WaitTime.Source.Offset, 0
TestParameter, Measurement.WaitTime.Monitor.Coeff, 1
TestParameter, Measurement.WaitTime.Monitor.Offset, 0
TestParameter, Output.Graph.Enabled, true
TestParameter, Output.Graph.AutoScaling, false
TestParameter, Output.Graph.XAxis.Data, V3
TestParameter, Output.Graph.XAxis.Scale, Linear
TestParameter, Output.Graph.XAxis.Left, -5
TestParameter, Output.Graph.XAxis.Right, 5
TestParameter, Output.Graph.XAxis.RunTimeAutoScale, true
TestParameter, Output.Graph.YAxis.Data, I3
TestParameter, Output.Graph.YAxis.Scale, Linear
TestParameter, Output.Graph.YAxis.Bottom, -0.1
TestParameter, Output.Graph.YAxis.Top, 0.1
TestParameter, Output.Graph.YAxis.Group, 
TestParameter, Output.Graph.YAxis.RunTimeAutoScale, true
TestParameter, Output.List.Data, V1, I1, V2, I2
TestParameter, AutoAnalysis.Interpolation, false
TestParameter, AutoAnalysis.Line1.Enabled, false
TestParameter, AutoAnalysis.Line1.Type, 1
TestParameter, AutoAnalysis.Line1.Fix, True
TestParameter, AutoAnalysis.Line1.YAxis, 0
TestParameter, AutoAnalysis.Line1.Point1.Type, 0
TestParameter, AutoAnalysis.Line1.Point1.XY.X, 
TestParameter, AutoAnalysis.Line1.Point1.XY.Y, 
TestParameter, AutoAnalysis.Line1.Point1.Data.Var, 
TestParameter, AutoAnalysis.Line1.Point1.Data.Condition, 
TestParameter, AutoAnalysis.Line1.Point1.Data.Start, false
TestParameter, AutoAnalysis.Line1.Point1.Data.StartVar, 
TestParameter, AutoAnalysis.Line1.Point1.Data.StartCondition, 
TestParameter, AutoAnalysis.Line1.Point2.Type, 0
TestParameter, AutoAnalysis.Line1.Point2.XY.X, 
TestParameter, AutoAnalysis.Line1.Point2.XY.Y, 
TestParameter, AutoAnalysis.Line1.Point2.Data.Var, 
TestParameter, AutoAnalysis.Line1.Point2.Data.Condition, 
TestParameter, AutoAnalysis.Line1.Point2.Data.Start, false
TestParameter, AutoAnalysis.Line1.Point2.Data.StartVar, 
TestParameter, AutoAnalysis.Line1.Point2.Data.StartCondition, 
TestParameter, AutoAnalysis.Line1.GradientExpr, 0
TestParameter, AutoAnalysis.Line2.Enabled, false
TestParameter, AutoAnalysis.Line2.Type, 1
TestParameter, AutoAnalysis.Line2.Fix, True
TestParameter, AutoAnalysis.Line2.YAxis, 0
TestParameter, AutoAnalysis.Line2.Point1.Type, 0
TestParameter, AutoAnalysis.Line2.Point1.XY.X, 
TestParameter, AutoAnalysis.Line2.Point1.XY.Y, 
TestParameter, AutoAnalysis.Line2.Point1.Data.Var, 
TestParameter, AutoAnalysis.Line2.Point1.Data.Condition, 
TestParameter, AutoAnalysis.Line2.Point1.Data.Start, false
TestParameter, AutoAnalysis.Line2.Point1.Data.StartVar, 
TestParameter, AutoAnalysis.Line2.Point1.Data.StartCondition, 
TestParameter, AutoAnalysis.Line2.Point2.Type, 0
TestParameter, AutoAnalysis.Line2.Point2.XY.X, 
TestParameter, AutoAnalysis.Line2.Point2.XY.Y, 
TestParameter, AutoAnalysis.Line2.Point2.Data.Var, 
TestParameter, AutoAnalysis.Line2.Point2.Data.Condition, 
TestParameter, AutoAnalysis.Line2.Point2.Data.Start, false
TestParameter, AutoAnalysis.Line2.Point2.Data.StartVar, 
TestParameter, AutoAnalysis.Line2.Point2.Data.StartCondition, 
TestParameter, AutoAnalysis.Line2.GradientExpr, 0
TestParameter, AutoAnalysis.Marker.Enabled, false
TestParameter, AutoAnalysis.Marker.Data.Var, 
TestParameter, AutoAnalysis.Marker.Data.Condition, 
TestParameter, AutoAnalysis.Marker.Data.Start, false
TestParameter, AutoAnalysis.Marker.Data.StartVar, 
TestParameter, AutoAnalysis.Marker.Data.StartCondition, 
MetaData, TestRecord.EntryPoint, true
MetaData, TestRecord.RecordTime, 03/06/2023 10:17:57
MetaData, TestRecord.TestTarget, 
MetaData, TestRecord.IterationIndex, 35
MetaData, TestRecord.Preservation, true
MetaData, TestRecord.Flag, 
MetaData, TestRecord.Remarks, 
MetaData, TestRecord.LinkKey, 61ac71c6-effe-4c83-87d9-2612ddb043f1
Dimension1, 101, 101, 101, 101, 101, 101
Dimension2, 1, 1, 1, 1, 1, 1
DataName, V3, I3, V1, I1, V2, I2
DataValue, -3, -1.754E-09, , , , 
DataValue, -2.92, -1.6038E-09, , , , 
DataValue, -2.84, -1.4622E-09, , , , 
DataValue, -2.7600000000000002, -1.3605E-09, , , , 
DataValue, -2.68, -1.2498E-09, , , , 
DataValue, -2.6, -1.0361E-09, , , , 
DataValue, -2.52, -1.0144E-09, , , , 
DataValue, -2.44, -8.844400000000001E-10, , , , 
DataValue, -2.36, -7.6437E-10, , , , 
DataValue, -2.2800000000000002, -6.9714E-10, , , , 
DataValue, -2.2, -6.2856E-10, , , , 
DataValue, -2.12, -5.9551E-10, , , , 
DataValue, -2.04, -4.8839E-10, , , , 
DataValue, -1.96, -4.1360000000000005E-10, , , , 
DataValue, -1.8800000000000001, -3.4772E-10, , , , 
DataValue, -1.8, -3.4685000000000005E-10, , , , 
DataValue, -1.72, -3.2672000000000004E-10, , , , 
DataValue, -1.6400000000000001, -2.6424E-10, , , , 
DataValue, -1.56, -2.1799000000000001E-10, , , , 
DataValue, -1.48, -1.6718E-10, , , , 
DataValue, -1.4000000000000001, -1.6733E-10, , , , 
DataValue, -1.32, -1.5621000000000002E-10, , , , 
DataValue, -1.24, -1.3235000000000001E-10, , , , 
DataValue, -1.16, -9.1470000000000008E-11, , , , 
DataValue, -1.08, -6.355E-11, , , , 
DataValue, -1, -6.2410000000000007E-11, , , , 
DataValue, -0.92, -5.9370000000000011E-11, , , , 
DataValue, -0.84, -5.218E-11, , , , 
DataValue, -0.76, -2.4210000000000003E-11, , , , 
DataValue, -0.68, -5.09E-12, , , , 
DataValue, -0.6, -6.26E-12, , , , 
DataValue, -0.52, -4.03E-12, , , , 
DataValue, -0.44, -6.2800000000000007E-12, , , , 
DataValue, -0.36, 1.3590000000000002E-11, , , , 
DataValue, -0.28, 2.5100000000000003E-11, , , , 
DataValue, -0.2, 3.0350000000000004E-11, , , , 
DataValue, -0.12, 2.396E-11, , , , 
DataValue, -0.04, 1.881E-11, , , , 
DataValue, 0.04, 3.066E-11, , , , 
DataValue, 0.12, 3.9720000000000006E-11, , , , 
DataValue, 0.2, 6.3540000000000008E-11, , , , 
DataValue, 0.28, 8.2650000000000007E-11, , , , 
DataValue, 0.36, 9.8390000000000009E-11, , , , 
DataValue, 0.44, 1.0831000000000001E-10, , , , 
DataValue, 0.52, 1.2908E-10, , , , 
DataValue, 0.6, 1.5173E-10, , , , 
DataValue, 0.68, 1.6933000000000002E-10, , , , 
DataValue, 0.76, 1.8526000000000002E-10, , , , 
DataValue, 0.84, 2.0224000000000002E-10, , , , 
DataValue, 0.92, 2.2716000000000002E-10, , , , 
DataValue, 1, 2.6085000000000003E-10, , , , 
DataValue, 1.08, 2.8858E-10, , , , 
DataValue, 1.16, 3.2017000000000004E-10, , , , 
DataValue, 1.24, 3.4543E-10, , , , 
DataValue, 1.32, 3.9239000000000003E-10, , , , 
DataValue, 1.4000000000000001, 4.4438E-10, , , , 
DataValue, 1.48, 5.0419E-10, , , , 
DataValue, 1.56, 5.6469E-10, , , , 
DataValue, 1.6400000000000001, 6.2561000000000008E-10, , , , 
DataValue, 1.72, 7.1365E-10, , , , 
DataValue, 1.8, 8.0533E-10, , , , 
DataValue, 1.8800000000000001, 9.0609E-10, , , , 
DataValue, 1.96, 1.0285E-09, , , , 
DataValue, 2.04, 1.1671E-09, , , , 
DataValue, 2.12, 1.348E-09, , , , 
DataValue, 2.2, 1.5549E-09, , , , 
DataValue, 2.2800000000000002, 1.7904E-09, , , , 
DataValue, 2.36, 2.0684E-09, , , , 
DataValue, 2.44, 2.3777E-09, , , , 
DataValue, 2.52, 2.7604E-09, , , , 
DataValue, 2.6, 3.2172E-09, , , , 
DataValue, 2.68, 3.7389E-09, , , , 
DataValue, 2.7600000000000002, 4.3492E-09, , , , 
DataValue, 2.84, 5.0737E-09, , , , 
DataValue, 2.92, 5.9308E-09, , , , 
DataValue, 3, 6.9453E-09, , , , 
DataValue, 3.08, 8.1108E-09, , , , 
DataValue, 3.16, 9.4946E-09, , , , 
DataValue, 3.24, 1.10832E-08, , , , 
DataValue, 3.3200000000000003, 1.2975799999999999E-08, , , , 
DataValue, 3.4, 1.5424999999999998E-08, , , , 
DataValue, 3.48, 1.8234999999999998E-08, , , , 
DataValue, 3.56, 2.16404E-08, , , , 
DataValue, 3.64, 2.57462E-08, , , , 
DataValue, 3.72, 3.0901999999999994E-08, , , , 
DataValue, 3.8000000000000003, 3.7383399999999993E-08, , , , 
DataValue, 3.88, 4.5612799999999995E-08, , , , 
DataValue, 3.96, 5.6368399999999994E-08, , , , 
DataValue, 4.04, 6.74142E-08, , , , 
DataValue, 4.12, 8.4056E-08, , , , 
DataValue, 4.2, 1.047884E-07, , , , 
DataValue, 4.28, 1.4436E-07, , , , 
DataValue, 4.36, 1.8759999999999999E-07, , , , 
DataValue, 4.44, 3E-07, , , , 
DataValue, 4.5200000000000005, 1.07692E-06, , , , 
DataValue, 4.6000000000000005, 2.2757E-06, , , , 
DataValue, 4.68, 3.1486000000000002E-06, , , , 
DataValue, 4.76, 4.8288E-06, , , , 
DataValue, 4.84, 7.0666000000000011E-06, , , , 
DataValue, 4.92, 1.00139E-05, , , , 
DataValue, 5, 1.5384E-05, , , , 