
SetupTitle, Two Terminal IV Sweep
PrimitiveTest, I/V Sweep
TestParameter, Context.MainFrame, B1500A
TestParameter, Channel.UnitType, SMU, SMU
TestParameter, Channel.Unit, SMU3:MP, SMU4:MP
TestParameter, Channel.IName, I3, I4
TestParameter, Channel.VName, V3, V4
TestParameter, Channel.Mode, V, V
TestParameter, Channel.Func, VAR1, CONST
TestParameter, Channel.Index, 
TestParameter, Channel.Time, 
TestParameter, Measurement.Port.Unit, SMU3:MP, SMU4:MP
TestParameter, Measurement.Port.SeriesResistor, NONE, NONE
TestParameter, Measurement.Port.Filter, ON, ON
TestParameter, Measurement.Port.OutputVoltageComparison, 0, 0
TestParameter, Measurement.Primary.Locus, Single
TestParameter, Measurement.Primary.Scale, LINEAR
TestParameter, Measurement.Primary.Start, -10
TestParameter, Measurement.Primary.Stop, 0
TestParameter, Measurement.Primary.Step, 0.1
TestParameter, Measurement.Primary.Compliance, 0.01
TestParameter, Measurement.Primary.PowerCompliance, 0
TestParameter, Measurement.Aborting.Condition, CONTINUE AT ANY
TestParameter, Measurement.PostOutput.Value, START
TestParameter, Measurement.PostOutput.Retention, OFF
TestParameter, Measurement.Bias.Source, -10, 0
TestParameter, Measurement.Bias.Compliance, 0.01, 0.1
TestParameter, Measurement.Monitor.Unit, SMU3:MP, SMU4:MP
TestParameter, Measurement.Monitor.Adc, HR ADC, HR ADC
TestParameter, Measurement.Monitor.Measurement, Compliance Side, Compliance Side
TestParameter, Measurement.Monitor.RangingMode, LIMITED, LIMITED
TestParameter, Measurement.Monitor.RangeBoundary, 1nA, 1nA
TestParameter, Measurement.Monitor.RangeRating, BY FULL RANGE, BY FULL RANGE
TestParameter, Measurement.Monitor.RangeRatingCoeff, 50, 50
TestParameter, Measurement.Timing.Hold, 0
TestParameter, Measurement.Timing.Delay, 0
TestParameter, Measurement.Adc.HighSpeed.Mode, AUTO
TestParameter, Measurement.Adc.HighSpeed.Coeff, 1
TestParameter, Measurement.Adc.HighResolution.AutoZero, OFF
TestParameter, Measurement.Adc.HighResolution.Mode, AUTO
TestParameter, Measurement.Adc.HighResolution.Coeff, 6
TestParameter, Measurement.WaitTime.Source.Coeff, 1
TestParameter, Measurement.WaitTime.Source.Offset, 0
TestParameter, Measurement.WaitTime.Monitor.Coeff, 1
TestParameter, Measurement.WaitTime.Monitor.Offset, 0
TestParameter, Output.Graph.Enabled, true
TestParameter, Output.Graph.AutoScaling, false
TestParameter, Output.Graph.XAxis.Data, V3
TestParameter, Output.Graph.XAxis.Scale, Linear
TestParameter, Output.Graph.XAxis.Left, -5
TestParameter, Output.Graph.XAxis.Right, 5
TestParameter, Output.Graph.XAxis.RunTimeAutoScale, true
TestParameter, Output.Graph.YAxis.Data, I3
TestParameter, Output.Graph.YAxis.Scale, Linear
TestParameter, Output.Graph.YAxis.Bottom, -0.1
TestParameter, Output.Graph.YAxis.Top, 0.1
TestParameter, Output.Graph.YAxis.Group, 
TestParameter, Output.Graph.YAxis.RunTimeAutoScale, true
TestParameter, Output.List.Data, V1, I1, V2, I2
TestParameter, AutoAnalysis.Interpolation, false
TestParameter, AutoAnalysis.Line1.Enabled, false
TestParameter, AutoAnalysis.Line1.Type, 1
TestParameter, AutoAnalysis.Line1.Fix, True
TestParameter, AutoAnalysis.Line1.YAxis, 0
TestParameter, AutoAnalysis.Line1.Point1.Type, 0
TestParameter, AutoAnalysis.Line1.Point1.XY.X, 
TestParameter, AutoAnalysis.Line1.Point1.XY.Y, 
TestParameter, AutoAnalysis.Line1.Point1.Data.Var, 
TestParameter, AutoAnalysis.Line1.Point1.Data.Condition, 
TestParameter, AutoAnalysis.Line1.Point1.Data.Start, false
TestParameter, AutoAnalysis.Line1.Point1.Data.StartVar, 
TestParameter, AutoAnalysis.Line1.Point1.Data.StartCondition, 
TestParameter, AutoAnalysis.Line1.Point2.Type, 0
TestParameter, AutoAnalysis.Line1.Point2.XY.X, 
TestParameter, AutoAnalysis.Line1.Point2.XY.Y, 
TestParameter, AutoAnalysis.Line1.Point2.Data.Var, 
TestParameter, AutoAnalysis.Line1.Point2.Data.Condition, 
TestParameter, AutoAnalysis.Line1.Point2.Data.Start, false
TestParameter, AutoAnalysis.Line1.Point2.Data.StartVar, 
TestParameter, AutoAnalysis.Line1.Point2.Data.StartCondition, 
TestParameter, AutoAnalysis.Line1.GradientExpr, 0
TestParameter, AutoAnalysis.Line2.Enabled, false
TestParameter, AutoAnalysis.Line2.Type, 1
TestParameter, AutoAnalysis.Line2.Fix, True
TestParameter, AutoAnalysis.Line2.YAxis, 0
TestParameter, AutoAnalysis.Line2.Point1.Type, 0
TestParameter, AutoAnalysis.Line2.Point1.XY.X, 
TestParameter, AutoAnalysis.Line2.Point1.XY.Y, 
TestParameter, AutoAnalysis.Line2.Point1.Data.Var, 
TestParameter, AutoAnalysis.Line2.Point1.Data.Condition, 
TestParameter, AutoAnalysis.Line2.Point1.Data.Start, false
TestParameter, AutoAnalysis.Line2.Point1.Data.StartVar, 
TestParameter, AutoAnalysis.Line2.Point1.Data.StartCondition, 
TestParameter, AutoAnalysis.Line2.Point2.Type, 0
TestParameter, AutoAnalysis.Line2.Point2.XY.X, 
TestParameter, AutoAnalysis.Line2.Point2.XY.Y, 
TestParameter, AutoAnalysis.Line2.Point2.Data.Var, 
TestParameter, AutoAnalysis.Line2.Point2.Data.Condition, 
TestParameter, AutoAnalysis.Line2.Point2.Data.Start, false
TestParameter, AutoAnalysis.Line2.Point2.Data.StartVar, 
TestParameter, AutoAnalysis.Line2.Point2.Data.StartCondition, 
TestParameter, AutoAnalysis.Line2.GradientExpr, 0
TestParameter, AutoAnalysis.Marker.Enabled, false
TestParameter, AutoAnalysis.Marker.Data.Var, 
TestParameter, AutoAnalysis.Marker.Data.Condition, 
TestParameter, AutoAnalysis.Marker.Data.Start, false
TestParameter, AutoAnalysis.Marker.Data.StartVar, 
TestParameter, AutoAnalysis.Marker.Data.StartCondition, 
MetaData, TestRecord.EntryPoint, true
MetaData, TestRecord.RecordTime, 03/06/2023 10:14:16
MetaData, TestRecord.TestTarget, 
MetaData, TestRecord.IterationIndex, 34
MetaData, TestRecord.Preservation, true
MetaData, TestRecord.Flag, 
MetaData, TestRecord.Remarks, 
MetaData, TestRecord.LinkKey, 847e7956-134f-4d59-b202-241265bc62f1
Dimension1, 101, 101, 101, 101, 101, 101
Dimension2, 1, 1, 1, 1, 1, 1
DataName, V3, I3, V1, I1, V2, I2
DataValue, -10, -6.503E-05, , , , 
DataValue, -9.9, -4.97E-05, , , , 
DataValue, -9.8, -3.7032E-05, , , , 
DataValue, -9.7000000000000011, -2.6744E-05, , , , 
DataValue, -9.6, -1.8658E-05, , , , 
DataValue, -9.5, -1.2564E-05, , , , 
DataValue, -9.4, -9.2674E-06, , , , 
DataValue, -9.3, -7.9683000000000013E-06, , , , 
DataValue, -9.2000000000000011, -7.0383000000000009E-06, , , , 
DataValue, -9.1, -6.2132000000000009E-06, , , , 
DataValue, -9, -5.5231000000000005E-06, , , , 
DataValue, -8.9, -4.9950000000000005E-06, , , , 
DataValue, -8.8, -4.5573E-06, , , , 
DataValue, -8.7000000000000011, -4.1124000000000006E-06, , , , 
DataValue, -8.6, -3.7507000000000004E-06, , , , 
DataValue, -8.5, -3.4443E-06, , , , 
DataValue, -8.4, -3.1713000000000005E-06, , , , 
DataValue, -8.3, -2.9271000000000003E-06, , , , 
DataValue, -8.2, -2.7011000000000003E-06, , , , 
DataValue, -8.1, -2.5024000000000004E-06, , , , 
DataValue, -8, -2.3308E-06, , , , 
DataValue, -7.9, -2.1291E-06, , , , 
DataValue, -7.8, -1.9941E-06, , , , 
DataValue, -7.7, -1.8706000000000001E-06, , , , 
DataValue, -7.6000000000000005, -1.7432E-06, , , , 
DataValue, -7.5, -1.6123000000000002E-06, , , , 
DataValue, -7.4, -1.5162000000000002E-06, , , , 
DataValue, -7.3, -1.4282000000000002E-06, , , , 
DataValue, -7.2, -1.3369E-06, , , , 
DataValue, -7.1000000000000005, -1.2497E-06, , , , 
DataValue, -7, -1.1842E-06, , , , 
DataValue, -6.9, -1.1155000000000002E-06, , , , 
DataValue, -6.8, -1.0391000000000001E-06, , , , 
DataValue, -6.7, -9.8798E-07, , , , 
DataValue, -6.6000000000000005, -9.1708E-07, , , , 
DataValue, -6.5, -8.648E-07, , , , 
DataValue, -6.4, -8.1078E-07, , , , 
DataValue, -6.3, -7.596E-07, , , , 
DataValue, -6.2, -7.097E-07, , , , 
DataValue, -6.1000000000000005, -6.7154E-07, , , , 
DataValue, -6, -6.3311999999999994E-07, , , , 
DataValue, -5.9, -5.9238E-07, , , , 
DataValue, -5.8, -5.5804E-07, , , , 
DataValue, -5.7, -5.2022E-07, , , , 
DataValue, -5.6000000000000005, -4.9164E-07, , , , 
DataValue, -5.5, -4.6352E-07, , , , 
DataValue, -5.4, -4.3778E-07, , , , 
DataValue, -5.3, -4.0773999999999997E-07, , , , 
DataValue, -5.2, -3.8538E-07, , , , 
DataValue, -5.1000000000000005, -3.62E-07, , , , 
DataValue, -5, -3.388E-07, , , , 
DataValue, -4.9, -3.1445999999999997E-07, , , , 
DataValue, -4.8, -2.9848E-07, , , , 
DataValue, -4.7, -2.756E-07, , , , 
DataValue, -4.6000000000000005, -2.592E-07, , , , 
DataValue, -4.5, -2.4388E-07, , , , 
DataValue, -4.4, -2.285E-07, , , , 
DataValue, -4.3, -2.1376E-07, , , , 
DataValue, -4.2, -1.9863999999999998E-07, , , , 
DataValue, -4.1, -1.849E-07, , , , 
DataValue, -4, -1.7082E-07, , , , 
DataValue, -3.9, -1.5794E-07, , , , 
DataValue, -3.8000000000000003, -1.4734E-07, , , , 
DataValue, -3.7, -1.3554E-07, , , , 
DataValue, -3.6, -1.2406E-07, , , , 
DataValue, -3.5, -1.143E-07, , , , 
DataValue, -3.4, -1.0626E-07, , , , 
DataValue, -3.3000000000000003, -9.59921E-08, , , , 
DataValue, -3.2, -8.8653899999999989E-08, , , , 
DataValue, -3.1, -8.0306499999999992E-08, , , , 
DataValue, -3, -7.37209E-08, , , , 
DataValue, -2.9, -6.71636E-08, , , , 
DataValue, -2.8000000000000003, -6.06017E-08, , , , 
DataValue, -2.7, -5.4917499999999995E-08, , , , 
DataValue, -2.6, -4.9723599999999994E-08, , , , 
DataValue, -2.5, -4.4283299999999997E-08, , , , 
DataValue, -2.4, -3.9168699999999995E-08, , , , 
DataValue, -2.3000000000000003, -3.5138499999999994E-08, , , , 
DataValue, -2.2, -3.05396E-08, , , , 
DataValue, -2.1, -2.7131699999999998E-08, , , , 
DataValue, -2, -2.3901299999999996E-08, , , , 
DataValue, -1.9000000000000001, -2.1172199999999997E-08, , , , 
DataValue, -1.8, -1.87071E-08, , , , 
DataValue, -1.7, -1.6118899999999998E-08, , , , 
DataValue, -1.6, -1.3903599999999998E-08, , , , 
DataValue, -1.5, -1.2103899999999998E-08, , , , 
DataValue, -1.4000000000000001, -1.0538199999999999E-08, , , , 
DataValue, -1.3, -9.1519E-09, , , , 
DataValue, -1.2, -7.8747E-09, , , , 
DataValue, -1.1, -6.9051E-09, , , , 
DataValue, -1, -5.5248E-09, , , , 
DataValue, -0.9, -4.1669E-09, , , , 
DataValue, -0.8, -3.4064E-09, , , , 
DataValue, -0.70000000000000007, -3.1151E-09, , , , 
DataValue, -0.6, -2.4687E-09, , , , 
DataValue, -0.5, -1.6776E-09, , , , 
DataValue, -0.4, -1.0396E-09, , , , 
DataValue, -0.3, -1.0935E-09, , , , 
DataValue, -0.2, -6.7629E-10, , , , 
DataValue, -0.1, -3.8447E-10, , , , 
DataValue, 0, -5.3990000000000006E-11, , , , 