
SetupTitle, Two Terminal IV Sweep
PrimitiveTest, I/V Sweep
TestParameter, Context.MainFrame, B1500A
TestParameter, Channel.UnitType, SMU, SMU
TestParameter, Channel.Unit, SMU3:MP, SMU4:MP
TestParameter, Channel.IName, I3, I4
TestParameter, Channel.VName, V3, V4
TestParameter, Channel.Mode, V, V
TestParameter, Channel.Func, VAR1, CONST
TestParameter, Channel.Index, 
TestParameter, Channel.Time, 
TestParameter, Measurement.Port.Unit, SMU3:MP, SMU4:MP
TestParameter, Measurement.Port.SeriesResistor, NONE, NONE
TestParameter, Measurement.Port.Filter, ON, ON
TestParameter, Measurement.Port.OutputVoltageComparison, 0, 0
TestParameter, Measurement.Primary.Locus, Single
TestParameter, Measurement.Primary.Scale, LINEAR
TestParameter, Measurement.Primary.Start, -3
TestParameter, Measurement.Primary.Stop, 5
TestParameter, Measurement.Primary.Step, 0.08
TestParameter, Measurement.Primary.Compliance, 0.1
TestParameter, Measurement.Primary.PowerCompliance, 0
TestParameter, Measurement.Aborting.Condition, CONTINUE AT ANY
TestParameter, Measurement.PostOutput.Value, START
TestParameter, Measurement.PostOutput.Retention, OFF
TestParameter, Measurement.Bias.Source, -3, 0
TestParameter, Measurement.Bias.Compliance, 0.1, 0.1
TestParameter, Measurement.Monitor.Unit, SMU3:MP, SMU4:MP
TestParameter, Measurement.Monitor.Adc, HR ADC, HR ADC
TestParameter, Measurement.Monitor.Measurement, Compliance Side, Compliance Side
TestParameter, Measurement.Monitor.RangingMode, LIMITED, LIMITED
TestParameter, Measurement.Monitor.RangeBoundary, 1nA, 1nA
TestParameter, Measurement.Monitor.RangeRating, BY FULL RANGE, BY FULL RANGE
TestParameter, Measurement.Monitor.RangeRatingCoeff, 50, 50
TestParameter, Measurement.Timing.Hold, 0
TestParameter, Measurement.Timing.Delay, 0
TestParameter, Measurement.Adc.HighSpeed.Mode, AUTO
TestParameter, Measurement.Adc.HighSpeed.Coeff, 1
TestParameter, Measurement.Adc.HighResolution.AutoZero, OFF
TestParameter, Measurement.Adc.HighResolution.Mode, AUTO
TestParameter, Measurement.Adc.HighResolution.Coeff, 6
TestParameter, Measurement.WaitTime.Source.Coeff, 1
TestParameter, Measurement.WaitTime.Source.Offset, 0
TestParameter, Measurement.WaitTime.Monitor.Coeff, 1
TestParameter, Measurement.WaitTime.Monitor.Offset, 0
TestParameter, Output.Graph.Enabled, true
TestParameter, Output.Graph.AutoScaling, false
TestParameter, Output.Graph.XAxis.Data, V3
TestParameter, Output.Graph.XAxis.Scale, Linear
TestParameter, Output.Graph.XAxis.Left, -5
TestParameter, Output.Graph.XAxis.Right, 5
TestParameter, Output.Graph.XAxis.RunTimeAutoScale, true
TestParameter, Output.Graph.YAxis.Data, I3
TestParameter, Output.Graph.YAxis.Scale, Linear
TestParameter, Output.Graph.YAxis.Bottom, -0.1
TestParameter, Output.Graph.YAxis.Top, 0.1
TestParameter, Output.Graph.YAxis.Group, 
TestParameter, Output.Graph.YAxis.RunTimeAutoScale, true
TestParameter, Output.List.Data, V1, I1, V2, I2
TestParameter, AutoAnalysis.Interpolation, false
TestParameter, AutoAnalysis.Line1.Enabled, false
TestParameter, AutoAnalysis.Line1.Type, 1
TestParameter, AutoAnalysis.Line1.Fix, True
TestParameter, AutoAnalysis.Line1.YAxis, 0
TestParameter, AutoAnalysis.Line1.Point1.Type, 0
TestParameter, AutoAnalysis.Line1.Point1.XY.X, 
TestParameter, AutoAnalysis.Line1.Point1.XY.Y, 
TestParameter, AutoAnalysis.Line1.Point1.Data.Var, 
TestParameter, AutoAnalysis.Line1.Point1.Data.Condition, 
TestParameter, AutoAnalysis.Line1.Point1.Data.Start, false
TestParameter, AutoAnalysis.Line1.Point1.Data.StartVar, 
TestParameter, AutoAnalysis.Line1.Point1.Data.StartCondition, 
TestParameter, AutoAnalysis.Line1.Point2.Type, 0
TestParameter, AutoAnalysis.Line1.Point2.XY.X, 
TestParameter, AutoAnalysis.Line1.Point2.XY.Y, 
TestParameter, AutoAnalysis.Line1.Point2.Data.Var, 
TestParameter, AutoAnalysis.Line1.Point2.Data.Condition, 
TestParameter, AutoAnalysis.Line1.Point2.Data.Start, false
TestParameter, AutoAnalysis.Line1.Point2.Data.StartVar, 
TestParameter, AutoAnalysis.Line1.Point2.Data.StartCondition, 
TestParameter, AutoAnalysis.Line1.GradientExpr, 0
TestParameter, AutoAnalysis.Line2.Enabled, false
TestParameter, AutoAnalysis.Line2.Type, 1
TestParameter, AutoAnalysis.Line2.Fix, True
TestParameter, AutoAnalysis.Line2.YAxis, 0
TestParameter, AutoAnalysis.Line2.Point1.Type, 0
TestParameter, AutoAnalysis.Line2.Point1.XY.X, 
TestParameter, AutoAnalysis.Line2.Point1.XY.Y, 
TestParameter, AutoAnalysis.Line2.Point1.Data.Var, 
TestParameter, AutoAnalysis.Line2.Point1.Data.Condition, 
TestParameter, AutoAnalysis.Line2.Point1.Data.Start, false
TestParameter, AutoAnalysis.Line2.Point1.Data.StartVar, 
TestParameter, AutoAnalysis.Line2.Point1.Data.StartCondition, 
TestParameter, AutoAnalysis.Line2.Point2.Type, 0
TestParameter, AutoAnalysis.Line2.Point2.XY.X, 
TestParameter, AutoAnalysis.Line2.Point2.XY.Y, 
TestParameter, AutoAnalysis.Line2.Point2.Data.Var, 
TestParameter, AutoAnalysis.Line2.Point2.Data.Condition, 
TestParameter, AutoAnalysis.Line2.Point2.Data.Start, false
TestParameter, AutoAnalysis.Line2.Point2.Data.StartVar, 
TestParameter, AutoAnalysis.Line2.Point2.Data.StartCondition, 
TestParameter, AutoAnalysis.Line2.GradientExpr, 0
TestParameter, AutoAnalysis.Marker.Enabled, false
TestParameter, AutoAnalysis.Marker.Data.Var, 
TestParameter, AutoAnalysis.Marker.Data.Condition, 
TestParameter, AutoAnalysis.Marker.Data.Start, false
TestParameter, AutoAnalysis.Marker.Data.StartVar, 
TestParameter, AutoAnalysis.Marker.Data.StartCondition, 
MetaData, TestRecord.EntryPoint, true
MetaData, TestRecord.RecordTime, 03/06/2023 10:00:26
MetaData, TestRecord.TestTarget, 
MetaData, TestRecord.IterationIndex, 27
MetaData, TestRecord.Preservation, true
MetaData, TestRecord.Flag, 
MetaData, TestRecord.Remarks, 
MetaData, TestRecord.LinkKey, 8425577d-fd4b-4a21-96a3-96903b52c5c9
Dimension1, 101, 101, 101, 101, 101, 101
Dimension2, 1, 1, 1, 1, 1, 1
DataName, V3, I3, V1, I1, V2, I2
DataValue, -3, -5.4558199999999996E-08, , , , 
DataValue, -2.92, -4.9145999999999996E-08, , , , 
DataValue, -2.84, -4.4863799999999993E-08, , , , 
DataValue, -2.7600000000000002, -3.99006E-08, , , , 
DataValue, -2.68, -3.70378E-08, , , , 
DataValue, -2.6, -3.43426E-08, , , , 
DataValue, -2.52, -3.02658E-08, , , , 
DataValue, -2.44, -2.7646399999999997E-08, , , , 
DataValue, -2.36, -2.5374199999999997E-08, , , , 
DataValue, -2.2800000000000002, -2.2190399999999997E-08, , , , 
DataValue, -2.2, -2.1052999999999997E-08, , , , 
DataValue, -2.12, -1.8354799999999997E-08, , , , 
DataValue, -2.04, -1.65084E-08, , , , 
DataValue, -1.96, -1.52666E-08, , , , 
DataValue, -1.8800000000000001, -1.2984199999999998E-08, , , , 
DataValue, -1.8, -1.1603399999999998E-08, , , , 
DataValue, -1.72, -1.0803199999999998E-08, , , , 
DataValue, -1.6400000000000001, -8.9863E-09, , , , 
DataValue, -1.56, -7.686E-09, , , , 
DataValue, -1.48, -7.4227E-09, , , , 
DataValue, -1.4000000000000001, -6.8066E-09, , , , 
DataValue, -1.32, -5.7222E-09, , , , 
DataValue, -1.24, -4.5546E-09, , , , 
DataValue, -1.16, -3.9547E-09, , , , 
DataValue, -1.08, -3.9486E-09, , , , 
DataValue, -1, -3.5206E-09, , , , 
DataValue, -0.92, -2.6027E-09, , , , 
DataValue, -0.84, -1.9135E-09, , , , 
DataValue, -0.76, -1.9299E-09, , , , 
DataValue, -0.68, -1.9521E-09, , , , 
DataValue, -0.6, -1.3635E-09, , , , 
DataValue, -0.52, -1.1671E-09, , , , 
DataValue, -0.44, -1.0198E-09, , , , 
DataValue, -0.36, -4.7247E-10, , , , 
DataValue, -0.28, -5.4481E-10, , , , 
DataValue, -0.2, -4.2518E-10, , , , 
DataValue, -0.12, -1.0933000000000001E-10, , , , 
DataValue, -0.04, 7.2770000000000011E-11, , , , 
DataValue, 0.04, 1.465E-10, , , , 
DataValue, 0.12, 1.7468E-10, , , , 
DataValue, 0.2, 2.1667E-10, , , , 
DataValue, 0.28, 2.4589E-10, , , , 
DataValue, 0.36, 3.2931E-10, , , , 
DataValue, 0.44, 4.1293000000000004E-10, , , , 
DataValue, 0.52, 4.3105000000000003E-10, , , , 
DataValue, 0.6, 4.2935E-10, , , , 
DataValue, 0.68, 4.5500000000000003E-10, , , , 
DataValue, 0.76, 5.4506000000000008E-10, , , , 
DataValue, 0.84, 6.4910000000000006E-10, , , , 
DataValue, 0.92, 7.2378000000000006E-10, , , , 
DataValue, 1, 7.5377000000000008E-10, , , , 
DataValue, 1.08, 8.3614000000000007E-10, , , , 
DataValue, 1.16, 9.798E-10, , , , 
DataValue, 1.24, 1.1003E-09, , , , 
DataValue, 1.32, 1.1988E-09, , , , 
DataValue, 1.4000000000000001, 1.297E-09, , , , 
DataValue, 1.48, 1.4884E-09, , , , 
DataValue, 1.56, 1.754E-09, , , , 
DataValue, 1.6400000000000001, 1.9861E-09, , , , 
DataValue, 1.72, 2.2261E-09, , , , 
DataValue, 1.8, 2.4835E-09, , , , 
DataValue, 1.8800000000000001, 2.8451E-09, , , , 
DataValue, 1.96, 3.3365E-09, , , , 
DataValue, 2.04, 3.8638E-09, , , , 
DataValue, 2.12, 4.3723E-09, , , , 
DataValue, 2.2, 4.9581E-09, , , , 
DataValue, 2.2800000000000002, 5.7586E-09, , , , 
DataValue, 2.36, 6.774E-09, , , , 
DataValue, 2.44, 7.8523E-09, , , , 
DataValue, 2.52, 9.0616E-09, , , , 
DataValue, 2.6, 1.04428E-08, , , , 
DataValue, 2.68, 1.21738E-08, , , , 
DataValue, 2.7600000000000002, 1.4355399999999999E-08, , , , 
DataValue, 2.84, 1.69924E-08, , , , 
DataValue, 2.92, 1.9952399999999997E-08, , , , 
DataValue, 3, 2.3627599999999996E-08, , , , 
DataValue, 3.08, 2.8055E-08, , , , 
DataValue, 3.16, 3.3079599999999994E-08, , , , 
DataValue, 3.24, 3.90476E-08, , , , 
DataValue, 3.3200000000000003, 4.6334199999999994E-08, , , , 
DataValue, 3.4, 5.5194999999999992E-08, , , , 
DataValue, 3.48, 6.6431E-08, , , , 
DataValue, 3.56, 7.9264999999999989E-08, , , , 
DataValue, 3.64, 9.60878E-08, , , , 
DataValue, 3.72, 1.1812E-07, , , , 
DataValue, 3.8000000000000003, 1.497E-07, , , , 
DataValue, 3.88, 2.375E-07, , , , 
DataValue, 3.96, 4.0764E-07, , , , 
DataValue, 4.04, 6.4182E-07, , , , 
DataValue, 4.12, 8.5627999999999994E-07, , , , 
DataValue, 4.2, 1.4061000000000002E-06, , , , 
DataValue, 4.28, 1.8072000000000003E-06, , , , 
DataValue, 4.36, 2.2665000000000002E-06, , , , 
DataValue, 4.44, 2.9717000000000003E-06, , , , 
DataValue, 4.5200000000000005, 3.8494000000000008E-06, , , , 
DataValue, 4.6000000000000005, 4.9035000000000006E-06, , , , 
DataValue, 4.68, 6.5353000000000008E-06, , , , 
DataValue, 4.76, 9.3823000000000016E-06, , , , 
DataValue, 4.84, 1.7462E-05, , , , 
DataValue, 4.92, 2.1228E-05, , , , 
DataValue, 5, 2.5006E-05, , , , 