
SetupTitle, Two Terminal IV Sweep
PrimitiveTest, I/V Sweep
TestParameter, Context.MainFrame, B1500A
TestParameter, Channel.UnitType, SMU, SMU
TestParameter, Channel.Unit, SMU3:MP, SMU4:MP
TestParameter, Channel.IName, I3, I4
TestParameter, Channel.VName, V3, V4
TestParameter, Channel.Mode, V, V
TestParameter, Channel.Func, VAR1, CONST
TestParameter, Channel.Index, 
TestParameter, Channel.Time, 
TestParameter, Measurement.Port.Unit, SMU3:MP, SMU4:MP
TestParameter, Measurement.Port.SeriesResistor, NONE, NONE
TestParameter, Measurement.Port.Filter, ON, ON
TestParameter, Measurement.Port.OutputVoltageComparison, 0, 0
TestParameter, Measurement.Primary.Locus, Single
TestParameter, Measurement.Primary.Scale, LINEAR
TestParameter, Measurement.Primary.Start, -3
TestParameter, Measurement.Primary.Stop, 3
TestParameter, Measurement.Primary.Step, 0.06
TestParameter, Measurement.Primary.Compliance, 0.1
TestParameter, Measurement.Primary.PowerCompliance, 0
TestParameter, Measurement.Aborting.Condition, CONTINUE AT ANY
TestParameter, Measurement.PostOutput.Value, START
TestParameter, Measurement.PostOutput.Retention, OFF
TestParameter, Measurement.Bias.Source, -3, 0
TestParameter, Measurement.Bias.Compliance, 0.1, 0.1
TestParameter, Measurement.Monitor.Unit, SMU3:MP, SMU4:MP
TestParameter, Measurement.Monitor.Adc, HR ADC, HR ADC
TestParameter, Measurement.Monitor.Measurement, Compliance Side, Compliance Side
TestParameter, Measurement.Monitor.RangingMode, LIMITED, LIMITED
TestParameter, Measurement.Monitor.RangeBoundary, 1nA, 1nA
TestParameter, Measurement.Monitor.RangeRating, BY FULL RANGE, BY FULL RANGE
TestParameter, Measurement.Monitor.RangeRatingCoeff, 50, 50
TestParameter, Measurement.Timing.Hold, 0
TestParameter, Measurement.Timing.Delay, 0
TestParameter, Measurement.Adc.HighSpeed.Mode, AUTO
TestParameter, Measurement.Adc.HighSpeed.Coeff, 1
TestParameter, Measurement.Adc.HighResolution.AutoZero, OFF
TestParameter, Measurement.Adc.HighResolution.Mode, AUTO
TestParameter, Measurement.Adc.HighResolution.Coeff, 6
TestParameter, Measurement.WaitTime.Source.Coeff, 1
TestParameter, Measurement.WaitTime.Source.Offset, 0
TestParameter, Measurement.WaitTime.Monitor.Coeff, 1
TestParameter, Measurement.WaitTime.Monitor.Offset, 0
TestParameter, Output.Graph.Enabled, true
TestParameter, Output.Graph.AutoScaling, false
TestParameter, Output.Graph.XAxis.Data, V3
TestParameter, Output.Graph.XAxis.Scale, Linear
TestParameter, Output.Graph.XAxis.Left, -5
TestParameter, Output.Graph.XAxis.Right, 5
TestParameter, Output.Graph.XAxis.RunTimeAutoScale, true
TestParameter, Output.Graph.YAxis.Data, I3
TestParameter, Output.Graph.YAxis.Scale, Linear
TestParameter, Output.Graph.YAxis.Bottom, -0.1
TestParameter, Output.Graph.YAxis.Top, 0.1
TestParameter, Output.Graph.YAxis.Group, 
TestParameter, Output.Graph.YAxis.RunTimeAutoScale, true
TestParameter, Output.List.Data, V1, I1, V2, I2
TestParameter, AutoAnalysis.Interpolation, false
TestParameter, AutoAnalysis.Line1.Enabled, false
TestParameter, AutoAnalysis.Line1.Type, 1
TestParameter, AutoAnalysis.Line1.Fix, True
TestParameter, AutoAnalysis.Line1.YAxis, 0
TestParameter, AutoAnalysis.Line1.Point1.Type, 0
TestParameter, AutoAnalysis.Line1.Point1.XY.X, 
TestParameter, AutoAnalysis.Line1.Point1.XY.Y, 
TestParameter, AutoAnalysis.Line1.Point1.Data.Var, 
TestParameter, AutoAnalysis.Line1.Point1.Data.Condition, 
TestParameter, AutoAnalysis.Line1.Point1.Data.Start, false
TestParameter, AutoAnalysis.Line1.Point1.Data.StartVar, 
TestParameter, AutoAnalysis.Line1.Point1.Data.StartCondition, 
TestParameter, AutoAnalysis.Line1.Point2.Type, 0
TestParameter, AutoAnalysis.Line1.Point2.XY.X, 
TestParameter, AutoAnalysis.Line1.Point2.XY.Y, 
TestParameter, AutoAnalysis.Line1.Point2.Data.Var, 
TestParameter, AutoAnalysis.Line1.Point2.Data.Condition, 
TestParameter, AutoAnalysis.Line1.Point2.Data.Start, false
TestParameter, AutoAnalysis.Line1.Point2.Data.StartVar, 
TestParameter, AutoAnalysis.Line1.Point2.Data.StartCondition, 
TestParameter, AutoAnalysis.Line1.GradientExpr, 0
TestParameter, AutoAnalysis.Line2.Enabled, false
TestParameter, AutoAnalysis.Line2.Type, 1
TestParameter, AutoAnalysis.Line2.Fix, True
TestParameter, AutoAnalysis.Line2.YAxis, 0
TestParameter, AutoAnalysis.Line2.Point1.Type, 0
TestParameter, AutoAnalysis.Line2.Point1.XY.X, 
TestParameter, AutoAnalysis.Line2.Point1.XY.Y, 
TestParameter, AutoAnalysis.Line2.Point1.Data.Var, 
TestParameter, AutoAnalysis.Line2.Point1.Data.Condition, 
TestParameter, AutoAnalysis.Line2.Point1.Data.Start, false
TestParameter, AutoAnalysis.Line2.Point1.Data.StartVar, 
TestParameter, AutoAnalysis.Line2.Point1.Data.StartCondition, 
TestParameter, AutoAnalysis.Line2.Point2.Type, 0
TestParameter, AutoAnalysis.Line2.Point2.XY.X, 
TestParameter, AutoAnalysis.Line2.Point2.XY.Y, 
TestParameter, AutoAnalysis.Line2.Point2.Data.Var, 
TestParameter, AutoAnalysis.Line2.Point2.Data.Condition, 
TestParameter, AutoAnalysis.Line2.Point2.Data.Start, false
TestParameter, AutoAnalysis.Line2.Point2.Data.StartVar, 
TestParameter, AutoAnalysis.Line2.Point2.Data.StartCondition, 
TestParameter, AutoAnalysis.Line2.GradientExpr, 0
TestParameter, AutoAnalysis.Marker.Enabled, false
TestParameter, AutoAnalysis.Marker.Data.Var, 
TestParameter, AutoAnalysis.Marker.Data.Condition, 
TestParameter, AutoAnalysis.Marker.Data.Start, false
TestParameter, AutoAnalysis.Marker.Data.StartVar, 
TestParameter, AutoAnalysis.Marker.Data.StartCondition, 
MetaData, TestRecord.EntryPoint, true
MetaData, TestRecord.RecordTime, 03/06/2023 09:50:11
MetaData, TestRecord.TestTarget, 
MetaData, TestRecord.IterationIndex, 22
MetaData, TestRecord.Preservation, true
MetaData, TestRecord.Flag, 
MetaData, TestRecord.Remarks, 
MetaData, TestRecord.LinkKey, 16881270-e3b3-4117-8f68-c279241d5d05
Dimension1, 101, 101, 101, 101, 101, 101
Dimension2, 1, 1, 1, 1, 1, 1
DataName, V3, I3, V1, I1, V2, I2
DataValue, -3, -5.0848E-07, , , , 
DataValue, -2.94, -4.8026E-07, , , , 
DataValue, -2.88, -4.5488E-07, , , , 
DataValue, -2.82, -4.2334E-07, , , , 
DataValue, -2.7600000000000002, -4.0622E-07, , , , 
DataValue, -2.7, -3.8054E-07, , , , 
DataValue, -2.64, -3.5898E-07, , , , 
DataValue, -2.58, -3.3876E-07, , , , 
DataValue, -2.52, -3.1368E-07, , , , 
DataValue, -2.46, -2.945E-07, , , , 
DataValue, -2.4, -2.7978E-07, , , , 
DataValue, -2.34, -2.6001999999999997E-07, , , , 
DataValue, -2.2800000000000002, -2.4202E-07, , , , 
DataValue, -2.22, -2.2697999999999999E-07, , , , 
DataValue, -2.16, -2.106E-07, , , , 
DataValue, -2.1, -1.9618E-07, , , , 
DataValue, -2.04, -1.8288E-07, , , , 
DataValue, -1.98, -1.6903999999999998E-07, , , , 
DataValue, -1.92, -1.5584E-07, , , , 
DataValue, -1.86, -1.455E-07, , , , 
DataValue, -1.8, -1.3388E-07, , , , 
DataValue, -1.74, -1.2436E-07, , , , 
DataValue, -1.68, -1.1464E-07, , , , 
DataValue, -1.62, -1.0545999999999999E-07, , , , 
DataValue, -1.56, -9.6203999999999992E-08, , , , 
DataValue, -1.5, -9.0204999999999993E-08, , , , 
DataValue, -1.44, -8.2324199999999988E-08, , , , 
DataValue, -1.3800000000000001, -7.53084E-08, , , , 
DataValue, -1.32, -6.94448E-08, , , , 
DataValue, -1.26, -6.1151799999999993E-08, , , , 
DataValue, -1.2, -5.7489599999999992E-08, , , , 
DataValue, -1.1400000000000001, -5.0651199999999992E-08, , , , 
DataValue, -1.08, -4.6007199999999994E-08, , , , 
DataValue, -1.02, -4.22998E-08, , , , 
DataValue, -0.96, -3.6870799999999996E-08, , , , 
DataValue, -0.9, -3.41034E-08, , , , 
DataValue, -0.84, -3.03772E-08, , , , 
DataValue, -0.78, -2.5829399999999998E-08, , , , 
DataValue, -0.72, -2.4199799999999997E-08, , , , 
DataValue, -0.66, -2.0118399999999997E-08, , , , 
DataValue, -0.6, -1.7749599999999998E-08, , , , 
DataValue, -0.54, -1.55506E-08, , , , 
DataValue, -0.48, -1.2203799999999999E-08, , , , 
DataValue, -0.42, -1.13992E-08, , , , 
DataValue, -0.36, -9.0593999999999987E-09, , , , 
DataValue, -0.3, -7.901E-09, , , , 
DataValue, -0.24, -5.7782E-09, , , , 
DataValue, -0.18, -3.4294E-09, , , , 
DataValue, -0.12, -2.1848E-09, , , , 
DataValue, -0.06, -1.5897E-09, , , , 
DataValue, 0, -4.302E-10, , , , 
DataValue, 0.06, 1.7005E-09, , , , 
DataValue, 0.12, 6.3998E-09, , , , 
DataValue, 0.18, 1.4245599999999999E-08, , , , 
DataValue, 0.24, 2.8531799999999996E-08, , , , 
DataValue, 0.3, 6.2699E-08, , , , 
DataValue, 0.36, 1.4104E-07, , , , 
DataValue, 0.42, 3.959E-07, , , , 
DataValue, 0.48, 1.7077000000000002E-06, , , , 
DataValue, 0.54, 9.6505E-06, , , , 
DataValue, 0.6, 3.5784E-05, , , , 
DataValue, 0.66, 7.947E-05, , , , 
DataValue, 0.72, 0.00013508000000000002, , , , 
DataValue, 0.78, 0.00020062000000000001, , , , 
DataValue, 0.84, 0.00027672, , , , 
DataValue, 0.9, 0.00036528, , , , 
DataValue, 0.96, 0.00046802000000000004, , , , 
DataValue, 1.02, 0.00058658000000000007, , , , 
DataValue, 1.08, 0.00072184000000000007, , , , 
DataValue, 1.1400000000000001, 0.00087458, , , , 
DataValue, 1.2, 0.00104422, , , , 
DataValue, 1.26, 0.001232, , , , 
DataValue, 1.32, 0.0014382, , , , 
DataValue, 1.3800000000000001, 0.001663, , , , 
DataValue, 1.44, 0.0019062, , , , 
DataValue, 1.5, 0.0021708, , , , 
DataValue, 1.56, 0.0024562, , , , 
DataValue, 1.62, 0.0027618, , , , 
DataValue, 1.68, 0.0030908, , , , 
DataValue, 1.74, 0.0034434, , , , 
DataValue, 1.8, 0.0038196000000000003, , , , 
DataValue, 1.86, 0.004222, , , , 
DataValue, 1.92, 0.004652, , , , 
DataValue, 1.98, 0.0051082, , , , 
DataValue, 2.04, 0.0055962, , , , 
DataValue, 2.1, 0.0061122, , , , 
DataValue, 2.16, 0.0066596, , , , 
DataValue, 2.22, 0.0072418000000000005, , , , 
DataValue, 2.2800000000000002, 0.0078568, , , , 
DataValue, 2.34, 0.0085102, , , , 
DataValue, 2.4, 0.0091986, , , , 
DataValue, 2.46, 0.009929, , , , 
DataValue, 2.52, 0.0106982, , , , 
DataValue, 2.58, 0.011508, , , , 
DataValue, 2.64, 0.012364000000000002, , , , 
DataValue, 2.7, 0.013264000000000002, , , , 
DataValue, 2.7600000000000002, 0.014212, , , , 
DataValue, 2.82, 0.015206, , , , 
DataValue, 2.88, 0.01625, , , , 
DataValue, 2.94, 0.017358000000000002, , , , 
DataValue, 3, 0.018504000000000003, , , , 