
SetupTitle, R-V
ApplicationTest, R-V, Public
TestParameter, Name, Port1, Port2, V1Start, V1Stop, V1Step, V2, I1Limit, IntegTime, HoldTime, DelayTime, Port1MinRng
TestParameter, Value, SMU1:MP	MPSMU, SMU2:MP	MPSMU, 0, 1, 0.05, 0, 0.01, MEDIUM, 0, 0, 1nA
DutParameter, Name, L, W, Temp
DutParameter, Value, 1E-05, 1E-06, 25
MetaData, TestRecord.EntryPoint, true
MetaData, TestRecord.RecordTime, 03/04/2023 16:17:28
MetaData, TestRecord.TestTarget, 
MetaData, TestRecord.IterationIndex, 31
MetaData, TestRecord.Preservation, true
MetaData, TestRecord.Flag, 
MetaData, TestRecord.Remarks, 
MetaData, TestRecord.LinkKey, 33218263-7b73-471b-91ba-3b68889671ea
Dimension1, 21, 21, 21, 21
Dimension2, 1, 1, 1, 1
DataName, V1, I1, R, Rsheet
DataValue, 0, 1.25E-13, 0, 0
DataValue, 0.05, 2.94E-13, 170068027210.88437, 17006802721.088434
DataValue, 0.1, 3.41E-13, 293255131964.80939, 29325513196.480934
DataValue, 0.15, 3.15E-13, 476190476190.47614, 47619047619.047607
DataValue, 0.2, 9.72E-13, 205761316872.42798, 20576131687.242794
DataValue, 0.25, 3.8200000000000004E-13, 654450261780.10461, 65445026178.010452
DataValue, 0.3, 1.9100000000000002E-13, 1570680628272.251, 157068062827.2251
DataValue, 0.35000000000000003, 4.2500000000000006E-13, 823529411764.70581, 82352941176.470566
DataValue, 0.4, 4.11E-13, 973236009732.36011, 97323600973.236
DataValue, 0.45, 1.3250000000000001E-12, 339622641509.43396, 33962264150.94339
DataValue, 0.5, 7.6600000000000007E-13, 652741514360.31323, 65274151436.031311
DataValue, 0.55, 4.9E-13, 1122448979591.8367, 112244897959.18366
DataValue, 0.6, 4.92E-13, 1219512195121.9512, 121951219512.19511
DataValue, 0.65, 3.16E-13, 2056962025316.4556, 205696202531.64554
DataValue, 0.70000000000000007, 7.07E-13, 990099009900.99011, 99009900990.099
DataValue, 0.75, 5.2800000000000007E-13, 1420454545454.5452, 142045454545.4545
DataValue, 0.8, 9.27E-13, 862998921251.34851, 86299892125.134842
DataValue, 0.85000000000000009, 3.1000000000000004E-13, 2741935483870.9678, 274193548387.09674
DataValue, 0.9, 7.1600000000000008E-13, 1256983240223.4636, 125698324022.34636
DataValue, 0.95000000000000007, 3.1300000000000003E-13, 3035143769968.0513, 303514376996.80505
DataValue, 1, 1.0560000000000002E-12, 946969696969.6969, 94696969696.969681
SetupTitle, R-V
PrimitiveTest, I/V Sweep
TestParameter, Context.MainFrame, B1500A
TestParameter, Channel.UnitType, SMU, SMU
TestParameter, Channel.Unit, Port1, Port2
TestParameter, Channel.IName, I1, I2
TestParameter, Channel.VName, V1, V2
TestParameter, Channel.Mode, V, V
TestParameter, Channel.Func, VAR1, CONST
TestParameter, Channel.Index, 
TestParameter, Channel.Time, 
TestParameter, Measurement.Port.Unit, Port1, Port2
TestParameter, Measurement.Port.SeriesResistor, NONE, NONE
TestParameter, Measurement.Port.Filter, OFF, OFF
TestParameter, Measurement.Port.OutputVoltageComparison, 0, 0
TestParameter, Measurement.Primary.Locus, Single
TestParameter, Measurement.Primary.Scale, LINEAR
TestParameter, Measurement.Primary.Start, V1Start
TestParameter, Measurement.Primary.Stop, V1Stop
TestParameter, Measurement.Primary.Step, V1Step
TestParameter, Measurement.Primary.Compliance, I1Limit
TestParameter, Measurement.Primary.PowerCompliance, 0
TestParameter, Measurement.Aborting.Condition, CONTINUE AT ANY
TestParameter, Measurement.PostOutput.Value, START
TestParameter, Measurement.PostOutput.Retention, OFF
TestParameter, Measurement.Bias.Source, 0, V2
TestParameter, Measurement.Bias.Compliance, 0.01, I1Limit
TestParameter, Measurement.Monitor.Unit, SMU:=Port1, SMU:=Port2
TestParameter, Measurement.Monitor.Adc, HR ADC, HR ADC
TestParameter, Measurement.Monitor.Measurement, Compliance Side, Compliance Side
TestParameter, Measurement.Monitor.RangingMode, LIMITED, LIMITED
TestParameter, Measurement.Monitor.RangeBoundary, Port1MinRng, 1nA
TestParameter, Measurement.Monitor.RangeRating, BY FULL RANGE, BY FULL RANGE
TestParameter, Measurement.Monitor.RangeRatingCoeff, 50, 50
TestParameter, Measurement.Timing.Hold, HoldTime
TestParameter, Measurement.Timing.Delay, DelayTime
TestParameter, Measurement.Adc.HighSpeed.Mode, AUTO
TestParameter, Measurement.Adc.HighSpeed.Coeff, 1
TestParameter, Measurement.Adc.HighResolution.AutoZero, ON
TestParameter, Measurement.Adc.HighResolution.Mode, IntegMode
TestParameter, Measurement.Adc.HighResolution.Coeff, AdcFactor
TestParameter, Measurement.WaitTime.Source.Coeff, 1
TestParameter, Measurement.WaitTime.Source.Offset, 0
TestParameter, Measurement.WaitTime.Monitor.Coeff, 1
TestParameter, Measurement.WaitTime.Monitor.Offset, 0
TestParameter, Function.User.Name, R, Rsheet
TestParameter, Function.User.Unit, ohm, ohm/sheet
TestParameter, Function.User.Definition, V1/I1, R*W/L
TestParameter, Output.Graph.Enabled, true
TestParameter, Output.Graph.AutoScaling, false
TestParameter, Output.Graph.XAxis.Data, V1
TestParameter, Output.Graph.XAxis.Scale, Linear
TestParameter, Output.Graph.XAxis.Left, V1Start
TestParameter, Output.Graph.XAxis.Right, V1Stop
TestParameter, Output.Graph.XAxis.RunTimeAutoScale, false
TestParameter, Output.Graph.YAxis.Data, R, I1
TestParameter, Output.Graph.YAxis.Scale, Linear, Linear
TestParameter, Output.Graph.YAxis.Bottom, 0, 0
TestParameter, Output.Graph.YAxis.Top, V1Stop/I1Limit, I1Limit
TestParameter, Output.Graph.YAxis.Group, , 
TestParameter, Output.Graph.YAxis.RunTimeAutoScale, false, false
TestParameter, Output.List.Data, V1, I1, R, Rsheet
TestParameter, AutoAnalysis.Interpolation, false
TestParameter, AutoAnalysis.Line1.Enabled, false
TestParameter, AutoAnalysis.Line1.Type, 1
TestParameter, AutoAnalysis.Line1.Fix, False
TestParameter, AutoAnalysis.Line1.YAxis, 0
TestParameter, AutoAnalysis.Line1.Point1.Type, 0
TestParameter, AutoAnalysis.Line1.Point1.XY.X, 
TestParameter, AutoAnalysis.Line1.Point1.XY.Y, 
TestParameter, AutoAnalysis.Line1.Point1.Data.Var, 
TestParameter, AutoAnalysis.Line1.Point1.Data.Condition, 
TestParameter, AutoAnalysis.Line1.Point1.Data.Start, false
TestParameter, AutoAnalysis.Line1.Point1.Data.StartVar, 
TestParameter, AutoAnalysis.Line1.Point1.Data.StartCondition, 
TestParameter, AutoAnalysis.Line1.Point2.Type, 0
TestParameter, AutoAnalysis.Line1.Point2.XY.X, 
TestParameter, AutoAnalysis.Line1.Point2.XY.Y, 
TestParameter, AutoAnalysis.Line1.Point2.Data.Var, 
TestParameter, AutoAnalysis.Line1.Point2.Data.Condition, 
TestParameter, AutoAnalysis.Line1.Point2.Data.Start, false
TestParameter, AutoAnalysis.Line1.Point2.Data.StartVar, 
TestParameter, AutoAnalysis.Line1.Point2.Data.StartCondition, 
TestParameter, AutoAnalysis.Line1.GradientExpr, 0
TestParameter, AutoAnalysis.Line2.Enabled, false
TestParameter, AutoAnalysis.Line2.Type, 1
TestParameter, AutoAnalysis.Line2.Fix, False
TestParameter, AutoAnalysis.Line2.YAxis, 0
TestParameter, AutoAnalysis.Line2.Point1.Type, 0
TestParameter, AutoAnalysis.Line2.Point1.XY.X, 
TestParameter, AutoAnalysis.Line2.Point1.XY.Y, 
TestParameter, AutoAnalysis.Line2.Point1.Data.Var, 
TestParameter, AutoAnalysis.Line2.Point1.Data.Condition, 
TestParameter, AutoAnalysis.Line2.Point1.Data.Start, false
TestParameter, AutoAnalysis.Line2.Point1.Data.StartVar, 
TestParameter, AutoAnalysis.Line2.Point1.Data.StartCondition, 
TestParameter, AutoAnalysis.Line2.Point2.Type, 0
TestParameter, AutoAnalysis.Line2.Point2.XY.X, 
TestParameter, AutoAnalysis.Line2.Point2.XY.Y, 
TestParameter, AutoAnalysis.Line2.Point2.Data.Var, 
TestParameter, AutoAnalysis.Line2.Point2.Data.Condition, 
TestParameter, AutoAnalysis.Line2.Point2.Data.Start, false
TestParameter, AutoAnalysis.Line2.Point2.Data.StartVar, 
TestParameter, AutoAnalysis.Line2.Point2.Data.StartCondition, 
TestParameter, AutoAnalysis.Line2.GradientExpr, 0
TestParameter, AutoAnalysis.Marker.Enabled, false
TestParameter, AutoAnalysis.Marker.Data.Var, 
TestParameter, AutoAnalysis.Marker.Data.Condition, 
TestParameter, AutoAnalysis.Marker.Data.Start, false
TestParameter, AutoAnalysis.Marker.Data.StartVar, 
TestParameter, AutoAnalysis.Marker.Data.StartCondition, 
MetaData, TestRecord.EntryPoint, false
MetaData, TestRecord.RecordTime, 03/04/2023 16:17:28
MetaData, TestRecord.TestTarget, 
MetaData, TestRecord.IterationIndex, 31
MetaData, TestRecord.Preservation, true
MetaData, TestRecord.Flag, 
MetaData, TestRecord.Remarks, 
MetaData, TestRecord.LinkKey, 33218263-7b73-471b-91ba-3b68889671ea
Dimension1, 21, 21, 21, 21
Dimension2, 1, 1, 1, 1
DataName, V1, I1, R, Rsheet
DataValue, 0, 1.25E-13, 0, 0
DataValue, 0.05, 2.94E-13, 170068027210.88437, 17006802721.088434
DataValue, 0.1, 3.41E-13, 293255131964.80939, 29325513196.480934
DataValue, 0.15, 3.15E-13, 476190476190.47614, 47619047619.047607
DataValue, 0.2, 9.72E-13, 205761316872.42798, 20576131687.242794
DataValue, 0.25, 3.8200000000000004E-13, 654450261780.10461, 65445026178.010452
DataValue, 0.3, 1.9100000000000002E-13, 1570680628272.251, 157068062827.2251
DataValue, 0.35000000000000003, 4.2500000000000006E-13, 823529411764.70581, 82352941176.470566
DataValue, 0.4, 4.11E-13, 973236009732.36011, 97323600973.236
DataValue, 0.45, 1.3250000000000001E-12, 339622641509.43396, 33962264150.94339
DataValue, 0.5, 7.6600000000000007E-13, 652741514360.31323, 65274151436.031311
DataValue, 0.55, 4.9E-13, 1122448979591.8367, 112244897959.18366
DataValue, 0.6, 4.92E-13, 1219512195121.9512, 121951219512.19511
DataValue, 0.65, 3.16E-13, 2056962025316.4556, 205696202531.64554
DataValue, 0.70000000000000007, 7.07E-13, 990099009900.99011, 99009900990.099
DataValue, 0.75, 5.2800000000000007E-13, 1420454545454.5452, 142045454545.4545
DataValue, 0.8, 9.27E-13, 862998921251.34851, 86299892125.134842
DataValue, 0.85000000000000009, 3.1000000000000004E-13, 2741935483870.9678, 274193548387.09674
DataValue, 0.9, 7.1600000000000008E-13, 1256983240223.4636, 125698324022.34636
DataValue, 0.95000000000000007, 3.1300000000000003E-13, 3035143769968.0513, 303514376996.80505
DataValue, 1, 1.0560000000000002E-12, 946969696969.6969, 94696969696.969681