
SetupTitle, R-V
ApplicationTest, R-V, Public
TestParameter, Name, Port1, Port2, V1Start, V1Stop, V1Step, V2, I1Limit, IntegTime, HoldTime, DelayTime, Port1MinRng
TestParameter, Value, SMU1:MP	MPSMU, SMU2:MP	MPSMU, 0, 1, 0.05, 0, 0.01, MEDIUM, 0, 0, 1nA
DutParameter, Name, L, W, Temp
DutParameter, Value, 1E-05, 1E-06, 25
MetaData, TestRecord.EntryPoint, true
MetaData, TestRecord.RecordTime, 03/04/2023 16:18:31
MetaData, TestRecord.TestTarget, 
MetaData, TestRecord.IterationIndex, 33
MetaData, TestRecord.Preservation, true
MetaData, TestRecord.Flag, 
MetaData, TestRecord.Remarks, 
MetaData, TestRecord.LinkKey, 19d5a176-5143-4068-9a67-c3d711bfae6d
Dimension1, 21, 21, 21, 21
Dimension2, 1, 1, 1, 1
DataName, V1, I1, R, Rsheet
DataValue, 0, 2.0300000000000002E-13, 0, 0
DataValue, 0.05, 2.49E-13, 200803212851.40564, 20080321285.140564
DataValue, 0.1, 2.82E-13, 354609929078.01422, 35460992907.801422
DataValue, 0.15, 3.08E-13, 487012987012.987, 48701298701.298691
DataValue, 0.2, 2.5100000000000004E-13, 796812749003.984, 79681274900.398392
DataValue, 0.25, 2.92E-13, 856164383561.6438, 85616438356.164368
DataValue, 0.3, 4.5000000000000005E-13, 666666666666.66663, 66666666666.666656
DataValue, 0.35000000000000003, 4.5400000000000003E-13, 770925110132.15857, 77092511013.215851
DataValue, 0.4, 3.51E-13, 1139601139601.1397, 113960113960.11395
DataValue, 0.45, 4.7800000000000008E-13, 941422594142.25928, 94142259414.2259
DataValue, 0.5, 3.9100000000000005E-13, 1278772378516.6238, 127877237851.66237
DataValue, 0.55, 3.27E-13, 1681957186544.3425, 168195718654.43424
DataValue, 0.6, 9.3100000000000017E-13, 644468313641.24585, 64446831364.12458
DataValue, 0.65, 5.9900000000000007E-13, 1085141903171.9531, 108514190317.1953
DataValue, 0.70000000000000007, 4.1900000000000003E-13, 1670644391408.1145, 167064439140.81143
DataValue, 0.75, 4.24E-13, 1768867924528.3018, 176886792452.83017
DataValue, 0.8, 5.6E-13, 1428571428571.4285, 142857142857.14282
DataValue, 0.85000000000000009, 6.37E-13, 1334379905808.4773, 133437990580.8477
DataValue, 0.9, 4.1900000000000003E-13, 2147971360381.8616, 214797136038.18616
DataValue, 0.95000000000000007, 6.4900000000000006E-13, 1463790446841.2942, 146379044684.1294
DataValue, 1, 6.15E-13, 1626016260162.6016, 162601626016.26013
SetupTitle, R-V
PrimitiveTest, I/V Sweep
TestParameter, Context.MainFrame, B1500A
TestParameter, Channel.UnitType, SMU, SMU
TestParameter, Channel.Unit, Port1, Port2
TestParameter, Channel.IName, I1, I2
TestParameter, Channel.VName, V1, V2
TestParameter, Channel.Mode, V, V
TestParameter, Channel.Func, VAR1, CONST
TestParameter, Channel.Index, 
TestParameter, Channel.Time, 
TestParameter, Measurement.Port.Unit, Port1, Port2
TestParameter, Measurement.Port.SeriesResistor, NONE, NONE
TestParameter, Measurement.Port.Filter, OFF, OFF
TestParameter, Measurement.Port.OutputVoltageComparison, 0, 0
TestParameter, Measurement.Primary.Locus, Single
TestParameter, Measurement.Primary.Scale, LINEAR
TestParameter, Measurement.Primary.Start, V1Start
TestParameter, Measurement.Primary.Stop, V1Stop
TestParameter, Measurement.Primary.Step, V1Step
TestParameter, Measurement.Primary.Compliance, I1Limit
TestParameter, Measurement.Primary.PowerCompliance, 0
TestParameter, Measurement.Aborting.Condition, CONTINUE AT ANY
TestParameter, Measurement.PostOutput.Value, START
TestParameter, Measurement.PostOutput.Retention, OFF
TestParameter, Measurement.Bias.Source, 0, V2
TestParameter, Measurement.Bias.Compliance, 0.01, I1Limit
TestParameter, Measurement.Monitor.Unit, SMU:=Port1, SMU:=Port2
TestParameter, Measurement.Monitor.Adc, HR ADC, HR ADC
TestParameter, Measurement.Monitor.Measurement, Compliance Side, Compliance Side
TestParameter, Measurement.Monitor.RangingMode, LIMITED, LIMITED
TestParameter, Measurement.Monitor.RangeBoundary, Port1MinRng, 1nA
TestParameter, Measurement.Monitor.RangeRating, BY FULL RANGE, BY FULL RANGE
TestParameter, Measurement.Monitor.RangeRatingCoeff, 50, 50
TestParameter, Measurement.Timing.Hold, HoldTime
TestParameter, Measurement.Timing.Delay, DelayTime
TestParameter, Measurement.Adc.HighSpeed.Mode, AUTO
TestParameter, Measurement.Adc.HighSpeed.Coeff, 1
TestParameter, Measurement.Adc.HighResolution.AutoZero, ON
TestParameter, Measurement.Adc.HighResolution.Mode, IntegMode
TestParameter, Measurement.Adc.HighResolution.Coeff, AdcFactor
TestParameter, Measurement.WaitTime.Source.Coeff, 1
TestParameter, Measurement.WaitTime.Source.Offset, 0
TestParameter, Measurement.WaitTime.Monitor.Coeff, 1
TestParameter, Measurement.WaitTime.Monitor.Offset, 0
TestParameter, Function.User.Name, R, Rsheet
TestParameter, Function.User.Unit, ohm, ohm/sheet
TestParameter, Function.User.Definition, V1/I1, R*W/L
TestParameter, Output.Graph.Enabled, true
TestParameter, Output.Graph.AutoScaling, false
TestParameter, Output.Graph.XAxis.Data, V1
TestParameter, Output.Graph.XAxis.Scale, Linear
TestParameter, Output.Graph.XAxis.Left, V1Start
TestParameter, Output.Graph.XAxis.Right, V1Stop
TestParameter, Output.Graph.XAxis.RunTimeAutoScale, false
TestParameter, Output.Graph.YAxis.Data, R, I1
TestParameter, Output.Graph.YAxis.Scale, Linear, Linear
TestParameter, Output.Graph.YAxis.Bottom, 0, 0
TestParameter, Output.Graph.YAxis.Top, V1Stop/I1Limit, I1Limit
TestParameter, Output.Graph.YAxis.Group, , 
TestParameter, Output.Graph.YAxis.RunTimeAutoScale, false, false
TestParameter, Output.List.Data, V1, I1, R, Rsheet
TestParameter, AutoAnalysis.Interpolation, false
TestParameter, AutoAnalysis.Line1.Enabled, false
TestParameter, AutoAnalysis.Line1.Type, 1
TestParameter, AutoAnalysis.Line1.Fix, False
TestParameter, AutoAnalysis.Line1.YAxis, 0
TestParameter, AutoAnalysis.Line1.Point1.Type, 0
TestParameter, AutoAnalysis.Line1.Point1.XY.X, 
TestParameter, AutoAnalysis.Line1.Point1.XY.Y, 
TestParameter, AutoAnalysis.Line1.Point1.Data.Var, 
TestParameter, AutoAnalysis.Line1.Point1.Data.Condition, 
TestParameter, AutoAnalysis.Line1.Point1.Data.Start, false
TestParameter, AutoAnalysis.Line1.Point1.Data.StartVar, 
TestParameter, AutoAnalysis.Line1.Point1.Data.StartCondition, 
TestParameter, AutoAnalysis.Line1.Point2.Type, 0
TestParameter, AutoAnalysis.Line1.Point2.XY.X, 
TestParameter, AutoAnalysis.Line1.Point2.XY.Y, 
TestParameter, AutoAnalysis.Line1.Point2.Data.Var, 
TestParameter, AutoAnalysis.Line1.Point2.Data.Condition, 
TestParameter, AutoAnalysis.Line1.Point2.Data.Start, false
TestParameter, AutoAnalysis.Line1.Point2.Data.StartVar, 
TestParameter, AutoAnalysis.Line1.Point2.Data.StartCondition, 
TestParameter, AutoAnalysis.Line1.GradientExpr, 0
TestParameter, AutoAnalysis.Line2.Enabled, false
TestParameter, AutoAnalysis.Line2.Type, 1
TestParameter, AutoAnalysis.Line2.Fix, False
TestParameter, AutoAnalysis.Line2.YAxis, 0
TestParameter, AutoAnalysis.Line2.Point1.Type, 0
TestParameter, AutoAnalysis.Line2.Point1.XY.X, 
TestParameter, AutoAnalysis.Line2.Point1.XY.Y, 
TestParameter, AutoAnalysis.Line2.Point1.Data.Var, 
TestParameter, AutoAnalysis.Line2.Point1.Data.Condition, 
TestParameter, AutoAnalysis.Line2.Point1.Data.Start, false
TestParameter, AutoAnalysis.Line2.Point1.Data.StartVar, 
TestParameter, AutoAnalysis.Line2.Point1.Data.StartCondition, 
TestParameter, AutoAnalysis.Line2.Point2.Type, 0
TestParameter, AutoAnalysis.Line2.Point2.XY.X, 
TestParameter, AutoAnalysis.Line2.Point2.XY.Y, 
TestParameter, AutoAnalysis.Line2.Point2.Data.Var, 
TestParameter, AutoAnalysis.Line2.Point2.Data.Condition, 
TestParameter, AutoAnalysis.Line2.Point2.Data.Start, false
TestParameter, AutoAnalysis.Line2.Point2.Data.StartVar, 
TestParameter, AutoAnalysis.Line2.Point2.Data.StartCondition, 
TestParameter, AutoAnalysis.Line2.GradientExpr, 0
TestParameter, AutoAnalysis.Marker.Enabled, false
TestParameter, AutoAnalysis.Marker.Data.Var, 
TestParameter, AutoAnalysis.Marker.Data.Condition, 
TestParameter, AutoAnalysis.Marker.Data.Start, false
TestParameter, AutoAnalysis.Marker.Data.StartVar, 
TestParameter, AutoAnalysis.Marker.Data.StartCondition, 
MetaData, TestRecord.EntryPoint, false
MetaData, TestRecord.RecordTime, 03/04/2023 16:18:30
MetaData, TestRecord.TestTarget, 
MetaData, TestRecord.IterationIndex, 33
MetaData, TestRecord.Preservation, true
MetaData, TestRecord.Flag, 
MetaData, TestRecord.Remarks, 
MetaData, TestRecord.LinkKey, 19d5a176-5143-4068-9a67-c3d711bfae6d
Dimension1, 21, 21, 21, 21
Dimension2, 1, 1, 1, 1
DataName, V1, I1, R, Rsheet
DataValue, 0, 2.0300000000000002E-13, 0, 0
DataValue, 0.05, 2.49E-13, 200803212851.40564, 20080321285.140564
DataValue, 0.1, 2.82E-13, 354609929078.01422, 35460992907.801422
DataValue, 0.15, 3.08E-13, 487012987012.987, 48701298701.298691
DataValue, 0.2, 2.5100000000000004E-13, 796812749003.984, 79681274900.398392
DataValue, 0.25, 2.92E-13, 856164383561.6438, 85616438356.164368
DataValue, 0.3, 4.5000000000000005E-13, 666666666666.66663, 66666666666.666656
DataValue, 0.35000000000000003, 4.5400000000000003E-13, 770925110132.15857, 77092511013.215851
DataValue, 0.4, 3.51E-13, 1139601139601.1397, 113960113960.11395
DataValue, 0.45, 4.7800000000000008E-13, 941422594142.25928, 94142259414.2259
DataValue, 0.5, 3.9100000000000005E-13, 1278772378516.6238, 127877237851.66237
DataValue, 0.55, 3.27E-13, 1681957186544.3425, 168195718654.43424
DataValue, 0.6, 9.3100000000000017E-13, 644468313641.24585, 64446831364.12458
DataValue, 0.65, 5.9900000000000007E-13, 1085141903171.9531, 108514190317.1953
DataValue, 0.70000000000000007, 4.1900000000000003E-13, 1670644391408.1145, 167064439140.81143
DataValue, 0.75, 4.24E-13, 1768867924528.3018, 176886792452.83017
DataValue, 0.8, 5.6E-13, 1428571428571.4285, 142857142857.14282
DataValue, 0.85000000000000009, 6.37E-13, 1334379905808.4773, 133437990580.8477
DataValue, 0.9, 4.1900000000000003E-13, 2147971360381.8616, 214797136038.18616
DataValue, 0.95000000000000007, 6.4900000000000006E-13, 1463790446841.2942, 146379044684.1294
DataValue, 1, 6.15E-13, 1626016260162.6016, 162601626016.26013