
SetupTitle, R-V
ApplicationTest, R-V, Public
TestParameter, Name, Port1, Port2, V1Start, V1Stop, V1Step, V2, I1Limit, IntegTime, HoldTime, DelayTime, Port1MinRng
TestParameter, Value, SMU1:MP	MPSMU, SMU2:MP	MPSMU, 0, 1, 0.05, 0, 0.01, MEDIUM, 0, 0, 1nA
DutParameter, Name, L, W, Temp
DutParameter, Value, 1E-05, 1E-06, 25
MetaData, TestRecord.EntryPoint, true
MetaData, TestRecord.RecordTime, 03/04/2023 16:10:19
MetaData, TestRecord.TestTarget, 
MetaData, TestRecord.IterationIndex, 21
MetaData, TestRecord.Preservation, true
MetaData, TestRecord.Flag, 
MetaData, TestRecord.Remarks, 
MetaData, TestRecord.LinkKey, 7cec000a-1a87-44f7-8187-e4c26a36253b
Dimension1, 21, 21, 21, 21
Dimension2, 1, 1, 1, 1
DataName, V1, I1, R, Rsheet
DataValue, 0, -1E-15, -0, -0
DataValue, 0.05, 3.8000000000000005E-13, 131578947368.42105, 13157894736.842102
DataValue, 0.1, 6.57E-13, 152207001522.07, 15220700152.206999
DataValue, 0.15, 9.67E-13, 155118924508.79007, 15511892450.879004
DataValue, 0.2, 7.8600000000000008E-13, 254452926208.6514, 25445292620.865135
DataValue, 0.25, 1.126E-12, 222024866785.07993, 22202486678.507988
DataValue, 0.3, 1.372E-12, 218658892128.27988, 21865889212.827984
DataValue, 0.35000000000000003, 1.1000000000000002E-12, 318181818181.81818, 31818181818.181816
DataValue, 0.4, 1.324E-12, 302114803625.37769, 30211480362.537762
DataValue, 0.45, 1.4400000000000001E-12, 312500000000, 31249999999.999996
DataValue, 0.5, 1.118E-12, 447227191413.23792, 44722719141.323784
DataValue, 0.55, 1.439E-12, 382209867963.86383, 38220986796.386383
DataValue, 0.6, 1.3980000000000001E-12, 429184549356.22314, 42918454935.622314
DataValue, 0.65, 1.429E-12, 454863540937.71869, 45486354093.771858
DataValue, 0.70000000000000007, 1.3500000000000001E-12, 518518518518.51855, 51851851851.851852
DataValue, 0.75, 1.573E-12, 476795931341.38586, 47679593134.13858
DataValue, 0.8, 1.6470000000000002E-12, 485731633272.61688, 48573163327.261681
DataValue, 0.85000000000000009, 1.5490000000000002E-12, 548741123305.35828, 54874112330.53582
DataValue, 0.9, 1.6240000000000002E-12, 554187192118.22656, 55418719211.822647
DataValue, 0.95000000000000007, 1.939E-12, 489943269726.66321, 48994326972.666313
DataValue, 1, 1.942E-12, 514933058702.36871, 51493305870.236862
SetupTitle, R-V
PrimitiveTest, I/V Sweep
TestParameter, Context.MainFrame, B1500A
TestParameter, Channel.UnitType, SMU, SMU
TestParameter, Channel.Unit, Port1, Port2
TestParameter, Channel.IName, I1, I2
TestParameter, Channel.VName, V1, V2
TestParameter, Channel.Mode, V, V
TestParameter, Channel.Func, VAR1, CONST
TestParameter, Channel.Index, 
TestParameter, Channel.Time, 
TestParameter, Measurement.Port.Unit, Port1, Port2
TestParameter, Measurement.Port.SeriesResistor, NONE, NONE
TestParameter, Measurement.Port.Filter, OFF, OFF
TestParameter, Measurement.Port.OutputVoltageComparison, 0, 0
TestParameter, Measurement.Primary.Locus, Single
TestParameter, Measurement.Primary.Scale, LINEAR
TestParameter, Measurement.Primary.Start, V1Start
TestParameter, Measurement.Primary.Stop, V1Stop
TestParameter, Measurement.Primary.Step, V1Step
TestParameter, Measurement.Primary.Compliance, I1Limit
TestParameter, Measurement.Primary.PowerCompliance, 0
TestParameter, Measurement.Aborting.Condition, CONTINUE AT ANY
TestParameter, Measurement.PostOutput.Value, START
TestParameter, Measurement.PostOutput.Retention, OFF
TestParameter, Measurement.Bias.Source, 0, V2
TestParameter, Measurement.Bias.Compliance, 0.01, I1Limit
TestParameter, Measurement.Monitor.Unit, SMU:=Port1, SMU:=Port2
TestParameter, Measurement.Monitor.Adc, HR ADC, HR ADC
TestParameter, Measurement.Monitor.Measurement, Compliance Side, Compliance Side
TestParameter, Measurement.Monitor.RangingMode, LIMITED, LIMITED
TestParameter, Measurement.Monitor.RangeBoundary, Port1MinRng, 1nA
TestParameter, Measurement.Monitor.RangeRating, BY FULL RANGE, BY FULL RANGE
TestParameter, Measurement.Monitor.RangeRatingCoeff, 50, 50
TestParameter, Measurement.Timing.Hold, HoldTime
TestParameter, Measurement.Timing.Delay, DelayTime
TestParameter, Measurement.Adc.HighSpeed.Mode, AUTO
TestParameter, Measurement.Adc.HighSpeed.Coeff, 1
TestParameter, Measurement.Adc.HighResolution.AutoZero, ON
TestParameter, Measurement.Adc.HighResolution.Mode, IntegMode
TestParameter, Measurement.Adc.HighResolution.Coeff, AdcFactor
TestParameter, Measurement.WaitTime.Source.Coeff, 1
TestParameter, Measurement.WaitTime.Source.Offset, 0
TestParameter, Measurement.WaitTime.Monitor.Coeff, 1
TestParameter, Measurement.WaitTime.Monitor.Offset, 0
TestParameter, Function.User.Name, R, Rsheet
TestParameter, Function.User.Unit, ohm, ohm/sheet
TestParameter, Function.User.Definition, V1/I1, R*W/L
TestParameter, Output.Graph.Enabled, true
TestParameter, Output.Graph.AutoScaling, false
TestParameter, Output.Graph.XAxis.Data, V1
TestParameter, Output.Graph.XAxis.Scale, Linear
TestParameter, Output.Graph.XAxis.Left, V1Start
TestParameter, Output.Graph.XAxis.Right, V1Stop
TestParameter, Output.Graph.XAxis.RunTimeAutoScale, false
TestParameter, Output.Graph.YAxis.Data, R, I1
TestParameter, Output.Graph.YAxis.Scale, Linear, Linear
TestParameter, Output.Graph.YAxis.Bottom, 0, 0
TestParameter, Output.Graph.YAxis.Top, V1Stop/I1Limit, I1Limit
TestParameter, Output.Graph.YAxis.Group, , 
TestParameter, Output.Graph.YAxis.RunTimeAutoScale, false, false
TestParameter, Output.List.Data, V1, I1, R, Rsheet
TestParameter, AutoAnalysis.Interpolation, false
TestParameter, AutoAnalysis.Line1.Enabled, false
TestParameter, AutoAnalysis.Line1.Type, 1
TestParameter, AutoAnalysis.Line1.Fix, False
TestParameter, AutoAnalysis.Line1.YAxis, 0
TestParameter, AutoAnalysis.Line1.Point1.Type, 0
TestParameter, AutoAnalysis.Line1.Point1.XY.X, 
TestParameter, AutoAnalysis.Line1.Point1.XY.Y, 
TestParameter, AutoAnalysis.Line1.Point1.Data.Var, 
TestParameter, AutoAnalysis.Line1.Point1.Data.Condition, 
TestParameter, AutoAnalysis.Line1.Point1.Data.Start, false
TestParameter, AutoAnalysis.Line1.Point1.Data.StartVar, 
TestParameter, AutoAnalysis.Line1.Point1.Data.StartCondition, 
TestParameter, AutoAnalysis.Line1.Point2.Type, 0
TestParameter, AutoAnalysis.Line1.Point2.XY.X, 
TestParameter, AutoAnalysis.Line1.Point2.XY.Y, 
TestParameter, AutoAnalysis.Line1.Point2.Data.Var, 
TestParameter, AutoAnalysis.Line1.Point2.Data.Condition, 
TestParameter, AutoAnalysis.Line1.Point2.Data.Start, false
TestParameter, AutoAnalysis.Line1.Point2.Data.StartVar, 
TestParameter, AutoAnalysis.Line1.Point2.Data.StartCondition, 
TestParameter, AutoAnalysis.Line1.GradientExpr, 0
TestParameter, AutoAnalysis.Line2.Enabled, false
TestParameter, AutoAnalysis.Line2.Type, 1
TestParameter, AutoAnalysis.Line2.Fix, False
TestParameter, AutoAnalysis.Line2.YAxis, 0
TestParameter, AutoAnalysis.Line2.Point1.Type, 0
TestParameter, AutoAnalysis.Line2.Point1.XY.X, 
TestParameter, AutoAnalysis.Line2.Point1.XY.Y, 
TestParameter, AutoAnalysis.Line2.Point1.Data.Var, 
TestParameter, AutoAnalysis.Line2.Point1.Data.Condition, 
TestParameter, AutoAnalysis.Line2.Point1.Data.Start, false
TestParameter, AutoAnalysis.Line2.Point1.Data.StartVar, 
TestParameter, AutoAnalysis.Line2.Point1.Data.StartCondition, 
TestParameter, AutoAnalysis.Line2.Point2.Type, 0
TestParameter, AutoAnalysis.Line2.Point2.XY.X, 
TestParameter, AutoAnalysis.Line2.Point2.XY.Y, 
TestParameter, AutoAnalysis.Line2.Point2.Data.Var, 
TestParameter, AutoAnalysis.Line2.Point2.Data.Condition, 
TestParameter, AutoAnalysis.Line2.Point2.Data.Start, false
TestParameter, AutoAnalysis.Line2.Point2.Data.StartVar, 
TestParameter, AutoAnalysis.Line2.Point2.Data.StartCondition, 
TestParameter, AutoAnalysis.Line2.GradientExpr, 0
TestParameter, AutoAnalysis.Marker.Enabled, false
TestParameter, AutoAnalysis.Marker.Data.Var, 
TestParameter, AutoAnalysis.Marker.Data.Condition, 
TestParameter, AutoAnalysis.Marker.Data.Start, false
TestParameter, AutoAnalysis.Marker.Data.StartVar, 
TestParameter, AutoAnalysis.Marker.Data.StartCondition, 
MetaData, TestRecord.EntryPoint, false
MetaData, TestRecord.RecordTime, 03/04/2023 16:10:19
MetaData, TestRecord.TestTarget, 
MetaData, TestRecord.IterationIndex, 21
MetaData, TestRecord.Preservation, true
MetaData, TestRecord.Flag, 
MetaData, TestRecord.Remarks, 
MetaData, TestRecord.LinkKey, 7cec000a-1a87-44f7-8187-e4c26a36253b
Dimension1, 21, 21, 21, 21
Dimension2, 1, 1, 1, 1
DataName, V1, I1, R, Rsheet
DataValue, 0, -1E-15, -0, -0
DataValue, 0.05, 3.8000000000000005E-13, 131578947368.42105, 13157894736.842102
DataValue, 0.1, 6.57E-13, 152207001522.07, 15220700152.206999
DataValue, 0.15, 9.67E-13, 155118924508.79007, 15511892450.879004
DataValue, 0.2, 7.8600000000000008E-13, 254452926208.6514, 25445292620.865135
DataValue, 0.25, 1.126E-12, 222024866785.07993, 22202486678.507988
DataValue, 0.3, 1.372E-12, 218658892128.27988, 21865889212.827984
DataValue, 0.35000000000000003, 1.1000000000000002E-12, 318181818181.81818, 31818181818.181816
DataValue, 0.4, 1.324E-12, 302114803625.37769, 30211480362.537762
DataValue, 0.45, 1.4400000000000001E-12, 312500000000, 31249999999.999996
DataValue, 0.5, 1.118E-12, 447227191413.23792, 44722719141.323784
DataValue, 0.55, 1.439E-12, 382209867963.86383, 38220986796.386383
DataValue, 0.6, 1.3980000000000001E-12, 429184549356.22314, 42918454935.622314
DataValue, 0.65, 1.429E-12, 454863540937.71869, 45486354093.771858
DataValue, 0.70000000000000007, 1.3500000000000001E-12, 518518518518.51855, 51851851851.851852
DataValue, 0.75, 1.573E-12, 476795931341.38586, 47679593134.13858
DataValue, 0.8, 1.6470000000000002E-12, 485731633272.61688, 48573163327.261681
DataValue, 0.85000000000000009, 1.5490000000000002E-12, 548741123305.35828, 54874112330.53582
DataValue, 0.9, 1.6240000000000002E-12, 554187192118.22656, 55418719211.822647
DataValue, 0.95000000000000007, 1.939E-12, 489943269726.66321, 48994326972.666313
DataValue, 1, 1.942E-12, 514933058702.36871, 51493305870.236862