
SetupTitle, R-V
ApplicationTest, R-V, Public
TestParameter, Name, Port1, Port2, V1Start, V1Stop, V1Step, V2, I1Limit, IntegTime, HoldTime, DelayTime, Port1MinRng
TestParameter, Value, SMU1:MP	MPSMU, SMU2:MP	MPSMU, 0, 1, 0.05, 0, 0.01, MEDIUM, 0, 0, 1nA
DutParameter, Name, L, W, Temp
DutParameter, Value, 1E-05, 1E-06, 25
MetaData, TestRecord.EntryPoint, true
MetaData, TestRecord.RecordTime, 03/04/2023 18:19:21
MetaData, TestRecord.TestTarget, 
MetaData, TestRecord.IterationIndex, 214
MetaData, TestRecord.Preservation, true
MetaData, TestRecord.Flag, 
MetaData, TestRecord.Remarks, 
MetaData, TestRecord.LinkKey, a6bea46c-f413-4c8c-b899-6aab7f53073d
Dimension1, 21, 21, 21, 21
Dimension2, 1, 1, 1, 1
DataName, V1, I1, R, Rsheet
DataValue, 0, -1.3200000000000002E-13, -0, -0
DataValue, 0.05, 3.05E-13, 163934426229.50821, 16393442622.950821
DataValue, 0.1, 6.2100000000000008E-13, 161030595813.2045, 16103059581.32045
DataValue, 0.15, 7.4100000000000007E-13, 202429149797.57083, 20242914979.75708
DataValue, 0.2, 6.86E-13, 291545189504.37317, 29154518950.437317
DataValue, 0.25, 1.187E-12, 210614995787.70007, 21061499578.770004
DataValue, 0.3, 1.408E-12, 213068181818.18179, 21306818181.818176
DataValue, 0.35000000000000003, 1.2840000000000002E-12, 272585669781.93146, 27258566978.193142
DataValue, 0.4, 1.404E-12, 284900284900.28491, 28490028490.028488
DataValue, 0.45, 1.619E-12, 277949351451.51324, 27794935145.151321
DataValue, 0.5, 1.6550000000000001E-12, 302114803625.37762, 30211480362.537758
DataValue, 0.55, 1.867E-12, 294590251740.76062, 29459025174.076061
DataValue, 0.6, 1.93E-12, 310880829015.544, 31088082901.554394
DataValue, 0.65, 1.8860000000000002E-12, 344644750795.334, 34464475079.533394
DataValue, 0.70000000000000007, 2.04E-12, 343137254901.96075, 34313725490.196068
DataValue, 0.75, 2.3380000000000003E-12, 320786997433.704, 32078699743.370396
DataValue, 0.8, 2.4800000000000003E-12, 322580645161.29028, 32258064516.129021
DataValue, 0.85000000000000009, 2.3460000000000003E-12, 362318840579.71014, 36231884057.971008
DataValue, 0.9, 2.679E-12, 335946248600.22394, 33594624860.022388
DataValue, 0.95000000000000007, 2.6010000000000003E-12, 365244136870.43445, 36524413687.043442
DataValue, 1, 2.7730000000000004E-12, 360620266858.99744, 36062026685.899734
SetupTitle, R-V
PrimitiveTest, I/V Sweep
TestParameter, Context.MainFrame, B1500A
TestParameter, Channel.UnitType, SMU, SMU
TestParameter, Channel.Unit, Port1, Port2
TestParameter, Channel.IName, I1, I2
TestParameter, Channel.VName, V1, V2
TestParameter, Channel.Mode, V, V
TestParameter, Channel.Func, VAR1, CONST
TestParameter, Channel.Index, 
TestParameter, Channel.Time, 
TestParameter, Measurement.Port.Unit, Port1, Port2
TestParameter, Measurement.Port.SeriesResistor, NONE, NONE
TestParameter, Measurement.Port.Filter, OFF, OFF
TestParameter, Measurement.Port.OutputVoltageComparison, 0, 0
TestParameter, Measurement.Primary.Locus, Single
TestParameter, Measurement.Primary.Scale, LINEAR
TestParameter, Measurement.Primary.Start, V1Start
TestParameter, Measurement.Primary.Stop, V1Stop
TestParameter, Measurement.Primary.Step, V1Step
TestParameter, Measurement.Primary.Compliance, I1Limit
TestParameter, Measurement.Primary.PowerCompliance, 0
TestParameter, Measurement.Aborting.Condition, CONTINUE AT ANY
TestParameter, Measurement.PostOutput.Value, START
TestParameter, Measurement.PostOutput.Retention, OFF
TestParameter, Measurement.Bias.Source, 0, V2
TestParameter, Measurement.Bias.Compliance, 0.01, I1Limit
TestParameter, Measurement.Monitor.Unit, SMU:=Port1, SMU:=Port2
TestParameter, Measurement.Monitor.Adc, HR ADC, HR ADC
TestParameter, Measurement.Monitor.Measurement, Compliance Side, Compliance Side
TestParameter, Measurement.Monitor.RangingMode, LIMITED, LIMITED
TestParameter, Measurement.Monitor.RangeBoundary, Port1MinRng, 1nA
TestParameter, Measurement.Monitor.RangeRating, BY FULL RANGE, BY FULL RANGE
TestParameter, Measurement.Monitor.RangeRatingCoeff, 50, 50
TestParameter, Measurement.Timing.Hold, HoldTime
TestParameter, Measurement.Timing.Delay, DelayTime
TestParameter, Measurement.Adc.HighSpeed.Mode, AUTO
TestParameter, Measurement.Adc.HighSpeed.Coeff, 1
TestParameter, Measurement.Adc.HighResolution.AutoZero, ON
TestParameter, Measurement.Adc.HighResolution.Mode, IntegMode
TestParameter, Measurement.Adc.HighResolution.Coeff, AdcFactor
TestParameter, Measurement.WaitTime.Source.Coeff, 1
TestParameter, Measurement.WaitTime.Source.Offset, 0
TestParameter, Measurement.WaitTime.Monitor.Coeff, 1
TestParameter, Measurement.WaitTime.Monitor.Offset, 0
TestParameter, Function.User.Name, R, Rsheet
TestParameter, Function.User.Unit, ohm, ohm/sheet
TestParameter, Function.User.Definition, V1/I1, R*W/L
TestParameter, Output.Graph.Enabled, true
TestParameter, Output.Graph.AutoScaling, false
TestParameter, Output.Graph.XAxis.Data, V1
TestParameter, Output.Graph.XAxis.Scale, Linear
TestParameter, Output.Graph.XAxis.Left, V1Start
TestParameter, Output.Graph.XAxis.Right, V1Stop
TestParameter, Output.Graph.XAxis.RunTimeAutoScale, false
TestParameter, Output.Graph.YAxis.Data, R, I1
TestParameter, Output.Graph.YAxis.Scale, Linear, Linear
TestParameter, Output.Graph.YAxis.Bottom, 0, 0
TestParameter, Output.Graph.YAxis.Top, V1Stop/I1Limit, I1Limit
TestParameter, Output.Graph.YAxis.Group, , 
TestParameter, Output.Graph.YAxis.RunTimeAutoScale, false, false
TestParameter, Output.List.Data, V1, I1, R, Rsheet
TestParameter, AutoAnalysis.Interpolation, false
TestParameter, AutoAnalysis.Line1.Enabled, false
TestParameter, AutoAnalysis.Line1.Type, 1
TestParameter, AutoAnalysis.Line1.Fix, False
TestParameter, AutoAnalysis.Line1.YAxis, 0
TestParameter, AutoAnalysis.Line1.Point1.Type, 0
TestParameter, AutoAnalysis.Line1.Point1.XY.X, 
TestParameter, AutoAnalysis.Line1.Point1.XY.Y, 
TestParameter, AutoAnalysis.Line1.Point1.Data.Var, 
TestParameter, AutoAnalysis.Line1.Point1.Data.Condition, 
TestParameter, AutoAnalysis.Line1.Point1.Data.Start, false
TestParameter, AutoAnalysis.Line1.Point1.Data.StartVar, 
TestParameter, AutoAnalysis.Line1.Point1.Data.StartCondition, 
TestParameter, AutoAnalysis.Line1.Point2.Type, 0
TestParameter, AutoAnalysis.Line1.Point2.XY.X, 
TestParameter, AutoAnalysis.Line1.Point2.XY.Y, 
TestParameter, AutoAnalysis.Line1.Point2.Data.Var, 
TestParameter, AutoAnalysis.Line1.Point2.Data.Condition, 
TestParameter, AutoAnalysis.Line1.Point2.Data.Start, false
TestParameter, AutoAnalysis.Line1.Point2.Data.StartVar, 
TestParameter, AutoAnalysis.Line1.Point2.Data.StartCondition, 
TestParameter, AutoAnalysis.Line1.GradientExpr, 0
TestParameter, AutoAnalysis.Line2.Enabled, false
TestParameter, AutoAnalysis.Line2.Type, 1
TestParameter, AutoAnalysis.Line2.Fix, False
TestParameter, AutoAnalysis.Line2.YAxis, 0
TestParameter, AutoAnalysis.Line2.Point1.Type, 0
TestParameter, AutoAnalysis.Line2.Point1.XY.X, 
TestParameter, AutoAnalysis.Line2.Point1.XY.Y, 
TestParameter, AutoAnalysis.Line2.Point1.Data.Var, 
TestParameter, AutoAnalysis.Line2.Point1.Data.Condition, 
TestParameter, AutoAnalysis.Line2.Point1.Data.Start, false
TestParameter, AutoAnalysis.Line2.Point1.Data.StartVar, 
TestParameter, AutoAnalysis.Line2.Point1.Data.StartCondition, 
TestParameter, AutoAnalysis.Line2.Point2.Type, 0
TestParameter, AutoAnalysis.Line2.Point2.XY.X, 
TestParameter, AutoAnalysis.Line2.Point2.XY.Y, 
TestParameter, AutoAnalysis.Line2.Point2.Data.Var, 
TestParameter, AutoAnalysis.Line2.Point2.Data.Condition, 
TestParameter, AutoAnalysis.Line2.Point2.Data.Start, false
TestParameter, AutoAnalysis.Line2.Point2.Data.StartVar, 
TestParameter, AutoAnalysis.Line2.Point2.Data.StartCondition, 
TestParameter, AutoAnalysis.Line2.GradientExpr, 0
TestParameter, AutoAnalysis.Marker.Enabled, false
TestParameter, AutoAnalysis.Marker.Data.Var, 
TestParameter, AutoAnalysis.Marker.Data.Condition, 
TestParameter, AutoAnalysis.Marker.Data.Start, false
TestParameter, AutoAnalysis.Marker.Data.StartVar, 
TestParameter, AutoAnalysis.Marker.Data.StartCondition, 
MetaData, TestRecord.EntryPoint, false
MetaData, TestRecord.RecordTime, 03/04/2023 18:19:21
MetaData, TestRecord.TestTarget, 
MetaData, TestRecord.IterationIndex, 214
MetaData, TestRecord.Preservation, true
MetaData, TestRecord.Flag, 
MetaData, TestRecord.Remarks, 
MetaData, TestRecord.LinkKey, a6bea46c-f413-4c8c-b899-6aab7f53073d
Dimension1, 21, 21, 21, 21
Dimension2, 1, 1, 1, 1
DataName, V1, I1, R, Rsheet
DataValue, 0, -1.3200000000000002E-13, -0, -0
DataValue, 0.05, 3.05E-13, 163934426229.50821, 16393442622.950821
DataValue, 0.1, 6.2100000000000008E-13, 161030595813.2045, 16103059581.32045
DataValue, 0.15, 7.4100000000000007E-13, 202429149797.57083, 20242914979.75708
DataValue, 0.2, 6.86E-13, 291545189504.37317, 29154518950.437317
DataValue, 0.25, 1.187E-12, 210614995787.70007, 21061499578.770004
DataValue, 0.3, 1.408E-12, 213068181818.18179, 21306818181.818176
DataValue, 0.35000000000000003, 1.2840000000000002E-12, 272585669781.93146, 27258566978.193142
DataValue, 0.4, 1.404E-12, 284900284900.28491, 28490028490.028488
DataValue, 0.45, 1.619E-12, 277949351451.51324, 27794935145.151321
DataValue, 0.5, 1.6550000000000001E-12, 302114803625.37762, 30211480362.537758
DataValue, 0.55, 1.867E-12, 294590251740.76062, 29459025174.076061
DataValue, 0.6, 1.93E-12, 310880829015.544, 31088082901.554394
DataValue, 0.65, 1.8860000000000002E-12, 344644750795.334, 34464475079.533394
DataValue, 0.70000000000000007, 2.04E-12, 343137254901.96075, 34313725490.196068
DataValue, 0.75, 2.3380000000000003E-12, 320786997433.704, 32078699743.370396
DataValue, 0.8, 2.4800000000000003E-12, 322580645161.29028, 32258064516.129021
DataValue, 0.85000000000000009, 2.3460000000000003E-12, 362318840579.71014, 36231884057.971008
DataValue, 0.9, 2.679E-12, 335946248600.22394, 33594624860.022388
DataValue, 0.95000000000000007, 2.6010000000000003E-12, 365244136870.43445, 36524413687.043442
DataValue, 1, 2.7730000000000004E-12, 360620266858.99744, 36062026685.899734