
SetupTitle, Two Terminal IV Sweep
PrimitiveTest, I/V Sweep
TestParameter, Context.MainFrame, B1500A
TestParameter, Channel.UnitType, SMU, SMU
TestParameter, Channel.Unit, SMU3:MP, SMU4:MP
TestParameter, Channel.IName, I3, I4
TestParameter, Channel.VName, V3, V4
TestParameter, Channel.Mode, V, V
TestParameter, Channel.Func, VAR1, CONST
TestParameter, Channel.Index, 
TestParameter, Channel.Time, 
TestParameter, Measurement.Port.Unit, SMU3:MP, SMU4:MP
TestParameter, Measurement.Port.SeriesResistor, NONE, NONE
TestParameter, Measurement.Port.Filter, ON, ON
TestParameter, Measurement.Port.OutputVoltageComparison, 0, 0
TestParameter, Measurement.Primary.Locus, Single
TestParameter, Measurement.Primary.Scale, LINEAR
TestParameter, Measurement.Primary.Start, -3
TestParameter, Measurement.Primary.Stop, 5
TestParameter, Measurement.Primary.Step, 0.08
TestParameter, Measurement.Primary.Compliance, 0.01
TestParameter, Measurement.Primary.PowerCompliance, 0
TestParameter, Measurement.Aborting.Condition, CONTINUE AT ANY
TestParameter, Measurement.PostOutput.Value, START
TestParameter, Measurement.PostOutput.Retention, OFF
TestParameter, Measurement.Bias.Source, -3, 0
TestParameter, Measurement.Bias.Compliance, 0.01, 0.1
TestParameter, Measurement.Monitor.Unit, SMU3:MP, SMU4:MP
TestParameter, Measurement.Monitor.Adc, HR ADC, HR ADC
TestParameter, Measurement.Monitor.Measurement, Compliance Side, Compliance Side
TestParameter, Measurement.Monitor.RangingMode, LIMITED, LIMITED
TestParameter, Measurement.Monitor.RangeBoundary, 1nA, 1nA
TestParameter, Measurement.Monitor.RangeRating, BY FULL RANGE, BY FULL RANGE
TestParameter, Measurement.Monitor.RangeRatingCoeff, 50, 50
TestParameter, Measurement.Timing.Hold, 0
TestParameter, Measurement.Timing.Delay, 0
TestParameter, Measurement.Adc.HighSpeed.Mode, AUTO
TestParameter, Measurement.Adc.HighSpeed.Coeff, 1
TestParameter, Measurement.Adc.HighResolution.AutoZero, OFF
TestParameter, Measurement.Adc.HighResolution.Mode, AUTO
TestParameter, Measurement.Adc.HighResolution.Coeff, 6
TestParameter, Measurement.WaitTime.Source.Coeff, 1
TestParameter, Measurement.WaitTime.Source.Offset, 0
TestParameter, Measurement.WaitTime.Monitor.Coeff, 1
TestParameter, Measurement.WaitTime.Monitor.Offset, 0
TestParameter, Output.Graph.Enabled, true
TestParameter, Output.Graph.AutoScaling, false
TestParameter, Output.Graph.XAxis.Data, V3
TestParameter, Output.Graph.XAxis.Scale, Linear
TestParameter, Output.Graph.XAxis.Left, -5
TestParameter, Output.Graph.XAxis.Right, 5
TestParameter, Output.Graph.XAxis.RunTimeAutoScale, true
TestParameter, Output.Graph.YAxis.Data, I3
TestParameter, Output.Graph.YAxis.Scale, Linear
TestParameter, Output.Graph.YAxis.Bottom, -0.1
TestParameter, Output.Graph.YAxis.Top, 0.1
TestParameter, Output.Graph.YAxis.Group, 
TestParameter, Output.Graph.YAxis.RunTimeAutoScale, true
TestParameter, Output.List.Data, V1, I1, V2, I2
TestParameter, AutoAnalysis.Interpolation, false
TestParameter, AutoAnalysis.Line1.Enabled, false
TestParameter, AutoAnalysis.Line1.Type, 1
TestParameter, AutoAnalysis.Line1.Fix, True
TestParameter, AutoAnalysis.Line1.YAxis, 0
TestParameter, AutoAnalysis.Line1.Point1.Type, 0
TestParameter, AutoAnalysis.Line1.Point1.XY.X, 
TestParameter, AutoAnalysis.Line1.Point1.XY.Y, 
TestParameter, AutoAnalysis.Line1.Point1.Data.Var, 
TestParameter, AutoAnalysis.Line1.Point1.Data.Condition, 
TestParameter, AutoAnalysis.Line1.Point1.Data.Start, false
TestParameter, AutoAnalysis.Line1.Point1.Data.StartVar, 
TestParameter, AutoAnalysis.Line1.Point1.Data.StartCondition, 
TestParameter, AutoAnalysis.Line1.Point2.Type, 0
TestParameter, AutoAnalysis.Line1.Point2.XY.X, 
TestParameter, AutoAnalysis.Line1.Point2.XY.Y, 
TestParameter, AutoAnalysis.Line1.Point2.Data.Var, 
TestParameter, AutoAnalysis.Line1.Point2.Data.Condition, 
TestParameter, AutoAnalysis.Line1.Point2.Data.Start, false
TestParameter, AutoAnalysis.Line1.Point2.Data.StartVar, 
TestParameter, AutoAnalysis.Line1.Point2.Data.StartCondition, 
TestParameter, AutoAnalysis.Line1.GradientExpr, 0
TestParameter, AutoAnalysis.Line2.Enabled, false
TestParameter, AutoAnalysis.Line2.Type, 1
TestParameter, AutoAnalysis.Line2.Fix, True
TestParameter, AutoAnalysis.Line2.YAxis, 0
TestParameter, AutoAnalysis.Line2.Point1.Type, 0
TestParameter, AutoAnalysis.Line2.Point1.XY.X, 
TestParameter, AutoAnalysis.Line2.Point1.XY.Y, 
TestParameter, AutoAnalysis.Line2.Point1.Data.Var, 
TestParameter, AutoAnalysis.Line2.Point1.Data.Condition, 
TestParameter, AutoAnalysis.Line2.Point1.Data.Start, false
TestParameter, AutoAnalysis.Line2.Point1.Data.StartVar, 
TestParameter, AutoAnalysis.Line2.Point1.Data.StartCondition, 
TestParameter, AutoAnalysis.Line2.Point2.Type, 0
TestParameter, AutoAnalysis.Line2.Point2.XY.X, 
TestParameter, AutoAnalysis.Line2.Point2.XY.Y, 
TestParameter, AutoAnalysis.Line2.Point2.Data.Var, 
TestParameter, AutoAnalysis.Line2.Point2.Data.Condition, 
TestParameter, AutoAnalysis.Line2.Point2.Data.Start, false
TestParameter, AutoAnalysis.Line2.Point2.Data.StartVar, 
TestParameter, AutoAnalysis.Line2.Point2.Data.StartCondition, 
TestParameter, AutoAnalysis.Line2.GradientExpr, 0
TestParameter, AutoAnalysis.Marker.Enabled, false
TestParameter, AutoAnalysis.Marker.Data.Var, 
TestParameter, AutoAnalysis.Marker.Data.Condition, 
TestParameter, AutoAnalysis.Marker.Data.Start, false
TestParameter, AutoAnalysis.Marker.Data.StartVar, 
TestParameter, AutoAnalysis.Marker.Data.StartCondition, 
MetaData, TestRecord.EntryPoint, true
MetaData, TestRecord.RecordTime, 03/06/2023 10:28:54
MetaData, TestRecord.TestTarget, 
MetaData, TestRecord.IterationIndex, 45
MetaData, TestRecord.Preservation, true
MetaData, TestRecord.Flag, 
MetaData, TestRecord.Remarks, 
MetaData, TestRecord.LinkKey, 48801c9b-44f4-494b-88b9-99058d800a95
Dimension1, 101, 101, 101, 101, 101, 101
Dimension2, 1, 1, 1, 1, 1, 1
DataName, V3, I3, V1, I1, V2, I2
DataValue, -3, -1.59162E-08, , , , 
DataValue, -2.92, -1.6980799999999997E-08, , , , 
DataValue, -2.84, -1.52608E-08, , , , 
DataValue, -2.7600000000000002, -1.56012E-08, , , , 
DataValue, -2.68, -1.6097399999999997E-08, , , , 
DataValue, -2.6, -1.4941599999999997E-08, , , , 
DataValue, -2.52, -1.61322E-08, , , , 
DataValue, -2.44, -1.49724E-08, , , , 
DataValue, -2.36, -1.45652E-08, , , , 
DataValue, -2.2800000000000002, -1.62602E-08, , , , 
DataValue, -2.2, -1.4250999999999998E-08, , , , 
DataValue, -2.12, -1.4547999999999999E-08, , , , 
DataValue, -2.04, -1.5885999999999997E-08, , , , 
DataValue, -1.96, -1.4134E-08, , , , 
DataValue, -1.8800000000000001, -1.45306E-08, , , , 
DataValue, -1.8, -1.5399599999999997E-08, , , , 
DataValue, -1.72, -1.4058599999999999E-08, , , , 
DataValue, -1.6400000000000001, -1.4692599999999998E-08, , , , 
DataValue, -1.56, -1.4821999999999999E-08, , , , 
DataValue, -1.48, -1.3977399999999999E-08, , , , 
DataValue, -1.4000000000000001, -1.5723799999999998E-08, , , , 
DataValue, -1.32, -1.3736399999999998E-08, , , , 
DataValue, -1.24, -1.4299599999999999E-08, , , , 
DataValue, -1.16, -1.4536799999999999E-08, , , , 
DataValue, -1.08, -1.3784599999999999E-08, , , , 
DataValue, -1, -1.5538999999999998E-08, , , , 
DataValue, -0.92, -1.3725399999999999E-08, , , , 
DataValue, -0.84, -1.3766999999999999E-08, , , , 
DataValue, -0.76, -1.5442999999999998E-08, , , , 
DataValue, -0.68, -1.3480599999999998E-08, , , , 
DataValue, -0.6, -1.4038599999999999E-08, , , , 
DataValue, -0.52, -1.4424599999999998E-08, , , , 
DataValue, -0.44, -1.3539999999999999E-08, , , , 
DataValue, -0.36, -1.50536E-08, , , , 
DataValue, -0.28, -1.3483199999999998E-08, , , , 
DataValue, -0.2, -1.3460799999999998E-08, , , , 
DataValue, -0.12, -1.5107599999999997E-08, , , , 
DataValue, -0.04, -1.3002999999999999E-08, , , , 
DataValue, 0.04, -1.09114E-08, , , , 
DataValue, 0.12, -5.817E-09, , , , 
DataValue, 0.2, -2.397E-09, , , , 
DataValue, 0.28, -7.7794000000000011E-10, , , , 
DataValue, 0.36, -9.3940000000000014E-11, , , , 
DataValue, 0.44, 2.6154E-10, , , , 
DataValue, 0.52, 4.97E-10, , , , 
DataValue, 0.6, 6.789E-10, , , , 
DataValue, 0.68, 8.0471000000000011E-10, , , , 
DataValue, 0.76, 9.0011000000000011E-10, , , , 
DataValue, 0.84, 9.918E-10, , , , 
DataValue, 0.92, 1.0831E-09, , , , 
DataValue, 1, 1.1785E-09, , , , 
DataValue, 1.08, 1.3387E-09, , , , 
DataValue, 1.16, 1.4383E-09, , , , 
DataValue, 1.24, 1.639E-09, , , , 
DataValue, 1.32, 1.832E-09, , , , 
DataValue, 1.4000000000000001, 2.037E-09, , , , 
DataValue, 1.48, 2.3377E-09, , , , 
DataValue, 1.56, 2.6167E-09, , , , 
DataValue, 1.6400000000000001, 3.0222E-09, , , , 
DataValue, 1.72, 3.4887E-09, , , , 
DataValue, 1.8, 3.9817E-09, , , , 
DataValue, 1.8800000000000001, 4.6949E-09, , , , 
DataValue, 1.96, 5.5302E-09, , , , 
DataValue, 2.04, 6.5214E-09, , , , 
DataValue, 2.12, 7.72E-09, , , , 
DataValue, 2.2, 9.143E-09, , , , 
DataValue, 2.2800000000000002, 1.08518E-08, , , , 
DataValue, 2.36, 1.2805199999999999E-08, , , , 
DataValue, 2.44, 1.5374999999999997E-08, , , , 
DataValue, 2.52, 1.83858E-08, , , , 
DataValue, 2.6, 2.2124999999999998E-08, , , , 
DataValue, 2.68, 2.6561999999999997E-08, , , , 
DataValue, 2.7600000000000002, 3.2254E-08, , , , 
DataValue, 2.84, 3.8317799999999995E-08, , , , 
DataValue, 2.92, 4.5788799999999996E-08, , , , 
DataValue, 3, 5.4614199999999993E-08, , , , 
DataValue, 3.08, 6.59724E-08, , , , 
DataValue, 3.16, 8.04566E-08, , , , 
DataValue, 3.24, 9.8802999999999988E-08, , , , 
DataValue, 3.3200000000000003, 1.2048E-07, , , , 
DataValue, 3.4, 1.49E-07, , , , 
DataValue, 3.48, 1.8892E-07, , , , 
DataValue, 3.56, 2.3346E-07, , , , 
DataValue, 3.64, 2.9332E-07, , , , 
DataValue, 3.72, 3.6991999999999997E-07, , , , 
DataValue, 3.8000000000000003, 4.638E-07, , , , 
DataValue, 3.88, 5.907E-07, , , , 
DataValue, 3.96, 7.4968E-07, , , , 
DataValue, 4.04, 9.5516E-07, , , , 
DataValue, 4.12, 1.3004E-06, , , , 
DataValue, 4.2, 1.6567000000000002E-06, , , , 
DataValue, 4.28, 2.1258E-06, , , , 
DataValue, 4.36, 2.7944000000000003E-06, , , , 
DataValue, 4.44, 3.916E-06, , , , 
DataValue, 4.5200000000000005, 5.1674000000000007E-06, , , , 
DataValue, 4.6000000000000005, 6.4445000000000007E-06, , , , 
DataValue, 4.68, 8.1901000000000014E-06, , , , 
DataValue, 4.76, 1.0355000000000002E-05, , , , 
DataValue, 4.84, 1.4106E-05, , , , 
DataValue, 4.92, 1.6646E-05, , , , 
DataValue, 5, 1.9556E-05, , , , 