
SetupTitle, Two Terminal IV Sweep
PrimitiveTest, I/V Sweep
TestParameter, Context.MainFrame, B1500A
TestParameter, Channel.UnitType, SMU, SMU
TestParameter, Channel.Unit, SMU3:MP, SMU4:MP
TestParameter, Channel.IName, I3, I4
TestParameter, Channel.VName, V3, V4
TestParameter, Channel.Mode, V, V
TestParameter, Channel.Func, VAR1, CONST
TestParameter, Channel.Index, 
TestParameter, Channel.Time, 
TestParameter, Measurement.Port.Unit, SMU3:MP, SMU4:MP
TestParameter, Measurement.Port.SeriesResistor, NONE, NONE
TestParameter, Measurement.Port.Filter, ON, ON
TestParameter, Measurement.Port.OutputVoltageComparison, 0, 0
TestParameter, Measurement.Primary.Locus, Single
TestParameter, Measurement.Primary.Scale, LINEAR
TestParameter, Measurement.Primary.Start, -3
TestParameter, Measurement.Primary.Stop, 5
TestParameter, Measurement.Primary.Step, 0.08
TestParameter, Measurement.Primary.Compliance, 0.01
TestParameter, Measurement.Primary.PowerCompliance, 0
TestParameter, Measurement.Aborting.Condition, CONTINUE AT ANY
TestParameter, Measurement.PostOutput.Value, START
TestParameter, Measurement.PostOutput.Retention, OFF
TestParameter, Measurement.Bias.Source, -3, 0
TestParameter, Measurement.Bias.Compliance, 0.01, 0.1
TestParameter, Measurement.Monitor.Unit, SMU3:MP, SMU4:MP
TestParameter, Measurement.Monitor.Adc, HR ADC, HR ADC
TestParameter, Measurement.Monitor.Measurement, Compliance Side, Compliance Side
TestParameter, Measurement.Monitor.RangingMode, LIMITED, LIMITED
TestParameter, Measurement.Monitor.RangeBoundary, 1nA, 1nA
TestParameter, Measurement.Monitor.RangeRating, BY FULL RANGE, BY FULL RANGE
TestParameter, Measurement.Monitor.RangeRatingCoeff, 50, 50
TestParameter, Measurement.Timing.Hold, 0
TestParameter, Measurement.Timing.Delay, 0
TestParameter, Measurement.Adc.HighSpeed.Mode, AUTO
TestParameter, Measurement.Adc.HighSpeed.Coeff, 1
TestParameter, Measurement.Adc.HighResolution.AutoZero, OFF
TestParameter, Measurement.Adc.HighResolution.Mode, AUTO
TestParameter, Measurement.Adc.HighResolution.Coeff, 6
TestParameter, Measurement.WaitTime.Source.Coeff, 1
TestParameter, Measurement.WaitTime.Source.Offset, 0
TestParameter, Measurement.WaitTime.Monitor.Coeff, 1
TestParameter, Measurement.WaitTime.Monitor.Offset, 0
TestParameter, Output.Graph.Enabled, true
TestParameter, Output.Graph.AutoScaling, false
TestParameter, Output.Graph.XAxis.Data, V3
TestParameter, Output.Graph.XAxis.Scale, Linear
TestParameter, Output.Graph.XAxis.Left, -5
TestParameter, Output.Graph.XAxis.Right, 5
TestParameter, Output.Graph.XAxis.RunTimeAutoScale, true
TestParameter, Output.Graph.YAxis.Data, I3
TestParameter, Output.Graph.YAxis.Scale, Linear
TestParameter, Output.Graph.YAxis.Bottom, -0.1
TestParameter, Output.Graph.YAxis.Top, 0.1
TestParameter, Output.Graph.YAxis.Group, 
TestParameter, Output.Graph.YAxis.RunTimeAutoScale, true
TestParameter, Output.List.Data, V1, I1, V2, I2
TestParameter, AutoAnalysis.Interpolation, false
TestParameter, AutoAnalysis.Line1.Enabled, false
TestParameter, AutoAnalysis.Line1.Type, 1
TestParameter, AutoAnalysis.Line1.Fix, True
TestParameter, AutoAnalysis.Line1.YAxis, 0
TestParameter, AutoAnalysis.Line1.Point1.Type, 0
TestParameter, AutoAnalysis.Line1.Point1.XY.X, 
TestParameter, AutoAnalysis.Line1.Point1.XY.Y, 
TestParameter, AutoAnalysis.Line1.Point1.Data.Var, 
TestParameter, AutoAnalysis.Line1.Point1.Data.Condition, 
TestParameter, AutoAnalysis.Line1.Point1.Data.Start, false
TestParameter, AutoAnalysis.Line1.Point1.Data.StartVar, 
TestParameter, AutoAnalysis.Line1.Point1.Data.StartCondition, 
TestParameter, AutoAnalysis.Line1.Point2.Type, 0
TestParameter, AutoAnalysis.Line1.Point2.XY.X, 
TestParameter, AutoAnalysis.Line1.Point2.XY.Y, 
TestParameter, AutoAnalysis.Line1.Point2.Data.Var, 
TestParameter, AutoAnalysis.Line1.Point2.Data.Condition, 
TestParameter, AutoAnalysis.Line1.Point2.Data.Start, false
TestParameter, AutoAnalysis.Line1.Point2.Data.StartVar, 
TestParameter, AutoAnalysis.Line1.Point2.Data.StartCondition, 
TestParameter, AutoAnalysis.Line1.GradientExpr, 0
TestParameter, AutoAnalysis.Line2.Enabled, false
TestParameter, AutoAnalysis.Line2.Type, 1
TestParameter, AutoAnalysis.Line2.Fix, True
TestParameter, AutoAnalysis.Line2.YAxis, 0
TestParameter, AutoAnalysis.Line2.Point1.Type, 0
TestParameter, AutoAnalysis.Line2.Point1.XY.X, 
TestParameter, AutoAnalysis.Line2.Point1.XY.Y, 
TestParameter, AutoAnalysis.Line2.Point1.Data.Var, 
TestParameter, AutoAnalysis.Line2.Point1.Data.Condition, 
TestParameter, AutoAnalysis.Line2.Point1.Data.Start, false
TestParameter, AutoAnalysis.Line2.Point1.Data.StartVar, 
TestParameter, AutoAnalysis.Line2.Point1.Data.StartCondition, 
TestParameter, AutoAnalysis.Line2.Point2.Type, 0
TestParameter, AutoAnalysis.Line2.Point2.XY.X, 
TestParameter, AutoAnalysis.Line2.Point2.XY.Y, 
TestParameter, AutoAnalysis.Line2.Point2.Data.Var, 
TestParameter, AutoAnalysis.Line2.Point2.Data.Condition, 
TestParameter, AutoAnalysis.Line2.Point2.Data.Start, false
TestParameter, AutoAnalysis.Line2.Point2.Data.StartVar, 
TestParameter, AutoAnalysis.Line2.Point2.Data.StartCondition, 
TestParameter, AutoAnalysis.Line2.GradientExpr, 0
TestParameter, AutoAnalysis.Marker.Enabled, false
TestParameter, AutoAnalysis.Marker.Data.Var, 
TestParameter, AutoAnalysis.Marker.Data.Condition, 
TestParameter, AutoAnalysis.Marker.Data.Start, false
TestParameter, AutoAnalysis.Marker.Data.StartVar, 
TestParameter, AutoAnalysis.Marker.Data.StartCondition, 
MetaData, TestRecord.EntryPoint, true
MetaData, TestRecord.RecordTime, 03/06/2023 10:23:13
MetaData, TestRecord.TestTarget, 
MetaData, TestRecord.IterationIndex, 38
MetaData, TestRecord.Preservation, true
MetaData, TestRecord.Flag, 
MetaData, TestRecord.Remarks, 
MetaData, TestRecord.LinkKey, 8b838dea-b86c-44ed-a7d3-529cf5c91220
Dimension1, 101, 101, 101, 101, 101, 101
Dimension2, 1, 1, 1, 1, 1, 1
DataName, V3, I3, V1, I1, V2, I2
DataValue, -3, -4.3208E-07, , , , 
DataValue, -2.92, -4.0156E-07, , , , 
DataValue, -2.84, -3.6582E-07, , , , 
DataValue, -2.7600000000000002, -3.487E-07, , , , 
DataValue, -2.68, -3.3166E-07, , , , 
DataValue, -2.6, -3.1E-07, , , , 
DataValue, -2.52, -2.8256E-07, , , , 
DataValue, -2.44, -2.6904E-07, , , , 
DataValue, -2.36, -2.473E-07, , , , 
DataValue, -2.2800000000000002, -2.243E-07, , , , 
DataValue, -2.2, -2.0678E-07, , , , 
DataValue, -2.12, -1.9666E-07, , , , 
DataValue, -2.04, -1.8354E-07, , , , 
DataValue, -1.96, -1.6556E-07, , , , 
DataValue, -1.8800000000000001, -1.5981999999999999E-07, , , , 
DataValue, -1.8, -1.515E-07, , , , 
DataValue, -1.72, -1.3838E-07, , , , 
DataValue, -1.6400000000000001, -1.409E-07, , , , 
DataValue, -1.56, -1.2965999999999998E-07, , , , 
DataValue, -1.48, -1.22E-07, , , , 
DataValue, -1.4000000000000001, -1.2183999999999999E-07, , , , 
DataValue, -1.32, -1.231E-07, , , , 
DataValue, -1.24, -1.143E-07, , , , 
DataValue, -1.16, -1.0783999999999999E-07, , , , 
DataValue, -1.08, -1.1086E-07, , , , 
DataValue, -1, -1.1388E-07, , , , 
DataValue, -0.92, -1.051E-07, , , , 
DataValue, -0.84, -1.0622E-07, , , , 
DataValue, -0.76, -1.0999999999999999E-07, , , , 
DataValue, -0.68, -1.0133999999999999E-07, , , , 
DataValue, -0.6, -1.0364E-07, , , , 
DataValue, -0.52, -1.0922E-07, , , , 
DataValue, -0.44, -1.0638459999999999E-07, , , , 
DataValue, -0.36, -1.0513799999999999E-07, , , , 
DataValue, -0.28, -1.00502E-07, , , , 
DataValue, -0.2, -9.9471599999999984E-08, , , , 
DataValue, -0.12, -9.09616E-08, , , , 
DataValue, -0.04, -6.51206E-08, , , , 
DataValue, 0.04, -3.50402E-08, , , , 
DataValue, 0.12, -1.4838199999999998E-08, , , , 
DataValue, 0.2, -5.2425E-09, , , , 
DataValue, 0.28, -1.3839E-09, , , , 
DataValue, 0.36, 2.2439000000000001E-10, , , , 
DataValue, 0.44, 1.1834E-09, , , , 
DataValue, 0.52, 1.8535E-09, , , , 
DataValue, 0.6, 2.1872E-09, , , , 
DataValue, 0.68, 2.6039E-09, , , , 
DataValue, 0.76, 2.8924E-09, , , , 
DataValue, 0.84, 3.3324E-09, , , , 
DataValue, 0.92, 3.8249E-09, , , , 
DataValue, 1, 4.2857E-09, , , , 
DataValue, 1.08, 4.9892E-09, , , , 
DataValue, 1.16, 5.6216E-09, , , , 
DataValue, 1.24, 6.4834E-09, , , , 
DataValue, 1.32, 7.4869E-09, , , , 
DataValue, 1.4000000000000001, 8.5765E-09, , , , 
DataValue, 1.48, 1.01042E-08, , , , 
DataValue, 1.56, 1.1796399999999999E-08, , , , 
DataValue, 1.6400000000000001, 1.3854199999999999E-08, , , , 
DataValue, 1.72, 1.6469799999999997E-08, , , , 
DataValue, 1.8, 1.9622599999999998E-08, , , , 
DataValue, 1.8800000000000001, 2.3399999999999998E-08, , , , 
DataValue, 1.96, 2.8123399999999998E-08, , , , 
DataValue, 2.04, 3.39082E-08, , , , 
DataValue, 2.12, 4.08358E-08, , , , 
DataValue, 2.2, 4.9383999999999994E-08, , , , 
DataValue, 2.2800000000000002, 5.97932E-08, , , , 
DataValue, 2.36, 7.23838E-08, , , , 
DataValue, 2.44, 8.7660399999999987E-08, , , , 
DataValue, 2.52, 1.0652759999999999E-07, , , , 
DataValue, 2.6, 1.2816E-07, , , , 
DataValue, 2.68, 1.5628E-07, , , , 
DataValue, 2.7600000000000002, 1.9058E-07, , , , 
DataValue, 2.84, 2.3173999999999998E-07, , , , 
DataValue, 2.92, 2.8714E-07, , , , 
DataValue, 3, 3.5982E-07, , , , 
DataValue, 3.08, 4.4684E-07, , , , 
DataValue, 3.16, 5.505E-07, , , , 
DataValue, 3.24, 7.0122E-07, , , , 
DataValue, 3.3200000000000003, 8.881E-07, , , , 
DataValue, 3.4, 1.12108E-06, , , , 
DataValue, 3.48, 1.3937E-06, , , , 
DataValue, 3.56, 1.7230000000000003E-06, , , , 
DataValue, 3.64, 2.1764E-06, , , , 
DataValue, 3.72, 2.7618000000000004E-06, , , , 
DataValue, 3.8000000000000003, 3.5116000000000004E-06, , , , 
DataValue, 3.88, 4.5639000000000005E-06, , , , 
DataValue, 3.96, 5.8742000000000004E-06, , , , 
DataValue, 4.04, 7.6486000000000016E-06, , , , 
DataValue, 4.12, 9.8953000000000016E-06, , , , 
DataValue, 4.2, 1.4132000000000001E-05, , , , 
DataValue, 4.28, 1.8044000000000002E-05, , , , 
DataValue, 4.36, 2.2760000000000002E-05, , , , 
DataValue, 4.44, 2.8990000000000002E-05, , , , 
DataValue, 4.5200000000000005, 3.6754E-05, , , , 
DataValue, 4.6000000000000005, 4.6822E-05, , , , 
DataValue, 4.68, 6.2074E-05, , , , 
DataValue, 4.76, 7.9584E-05, , , , 
DataValue, 4.84, 0.0001015, , , , 
DataValue, 4.92, 0.00014162000000000002, , , , 
DataValue, 5, 0.00016406, , , , 