
SetupTitle, Two Terminal IV Sweep
PrimitiveTest, I/V Sweep
TestParameter, Context.MainFrame, B1500A
TestParameter, Channel.UnitType, SMU, SMU
TestParameter, Channel.Unit, SMU3:MP, SMU4:MP
TestParameter, Channel.IName, I3, I4
TestParameter, Channel.VName, V3, V4
TestParameter, Channel.Mode, V, V
TestParameter, Channel.Func, VAR1, CONST
TestParameter, Channel.Index, 
TestParameter, Channel.Time, 
TestParameter, Measurement.Port.Unit, SMU3:MP, SMU4:MP
TestParameter, Measurement.Port.SeriesResistor, NONE, NONE
TestParameter, Measurement.Port.Filter, ON, ON
TestParameter, Measurement.Port.OutputVoltageComparison, 0, 0
TestParameter, Measurement.Primary.Locus, Single
TestParameter, Measurement.Primary.Scale, LINEAR
TestParameter, Measurement.Primary.Start, -3
TestParameter, Measurement.Primary.Stop, 5
TestParameter, Measurement.Primary.Step, 0.08
TestParameter, Measurement.Primary.Compliance, 0.01
TestParameter, Measurement.Primary.PowerCompliance, 0
TestParameter, Measurement.Aborting.Condition, CONTINUE AT ANY
TestParameter, Measurement.PostOutput.Value, START
TestParameter, Measurement.PostOutput.Retention, OFF
TestParameter, Measurement.Bias.Source, -3, 0
TestParameter, Measurement.Bias.Compliance, 0.01, 0.1
TestParameter, Measurement.Monitor.Unit, SMU3:MP, SMU4:MP
TestParameter, Measurement.Monitor.Adc, HR ADC, HR ADC
TestParameter, Measurement.Monitor.Measurement, Compliance Side, Compliance Side
TestParameter, Measurement.Monitor.RangingMode, LIMITED, LIMITED
TestParameter, Measurement.Monitor.RangeBoundary, 1nA, 1nA
TestParameter, Measurement.Monitor.RangeRating, BY FULL RANGE, BY FULL RANGE
TestParameter, Measurement.Monitor.RangeRatingCoeff, 50, 50
TestParameter, Measurement.Timing.Hold, 0
TestParameter, Measurement.Timing.Delay, 0
TestParameter, Measurement.Adc.HighSpeed.Mode, AUTO
TestParameter, Measurement.Adc.HighSpeed.Coeff, 1
TestParameter, Measurement.Adc.HighResolution.AutoZero, OFF
TestParameter, Measurement.Adc.HighResolution.Mode, AUTO
TestParameter, Measurement.Adc.HighResolution.Coeff, 6
TestParameter, Measurement.WaitTime.Source.Coeff, 1
TestParameter, Measurement.WaitTime.Source.Offset, 0
TestParameter, Measurement.WaitTime.Monitor.Coeff, 1
TestParameter, Measurement.WaitTime.Monitor.Offset, 0
TestParameter, Output.Graph.Enabled, true
TestParameter, Output.Graph.AutoScaling, false
TestParameter, Output.Graph.XAxis.Data, V3
TestParameter, Output.Graph.XAxis.Scale, Linear
TestParameter, Output.Graph.XAxis.Left, -5
TestParameter, Output.Graph.XAxis.Right, 5
TestParameter, Output.Graph.XAxis.RunTimeAutoScale, true
TestParameter, Output.Graph.YAxis.Data, I3
TestParameter, Output.Graph.YAxis.Scale, Linear
TestParameter, Output.Graph.YAxis.Bottom, -0.1
TestParameter, Output.Graph.YAxis.Top, 0.1
TestParameter, Output.Graph.YAxis.Group, 
TestParameter, Output.Graph.YAxis.RunTimeAutoScale, true
TestParameter, Output.List.Data, V1, I1, V2, I2
TestParameter, AutoAnalysis.Interpolation, false
TestParameter, AutoAnalysis.Line1.Enabled, false
TestParameter, AutoAnalysis.Line1.Type, 1
TestParameter, AutoAnalysis.Line1.Fix, True
TestParameter, AutoAnalysis.Line1.YAxis, 0
TestParameter, AutoAnalysis.Line1.Point1.Type, 0
TestParameter, AutoAnalysis.Line1.Point1.XY.X, 
TestParameter, AutoAnalysis.Line1.Point1.XY.Y, 
TestParameter, AutoAnalysis.Line1.Point1.Data.Var, 
TestParameter, AutoAnalysis.Line1.Point1.Data.Condition, 
TestParameter, AutoAnalysis.Line1.Point1.Data.Start, false
TestParameter, AutoAnalysis.Line1.Point1.Data.StartVar, 
TestParameter, AutoAnalysis.Line1.Point1.Data.StartCondition, 
TestParameter, AutoAnalysis.Line1.Point2.Type, 0
TestParameter, AutoAnalysis.Line1.Point2.XY.X, 
TestParameter, AutoAnalysis.Line1.Point2.XY.Y, 
TestParameter, AutoAnalysis.Line1.Point2.Data.Var, 
TestParameter, AutoAnalysis.Line1.Point2.Data.Condition, 
TestParameter, AutoAnalysis.Line1.Point2.Data.Start, false
TestParameter, AutoAnalysis.Line1.Point2.Data.StartVar, 
TestParameter, AutoAnalysis.Line1.Point2.Data.StartCondition, 
TestParameter, AutoAnalysis.Line1.GradientExpr, 0
TestParameter, AutoAnalysis.Line2.Enabled, false
TestParameter, AutoAnalysis.Line2.Type, 1
TestParameter, AutoAnalysis.Line2.Fix, True
TestParameter, AutoAnalysis.Line2.YAxis, 0
TestParameter, AutoAnalysis.Line2.Point1.Type, 0
TestParameter, AutoAnalysis.Line2.Point1.XY.X, 
TestParameter, AutoAnalysis.Line2.Point1.XY.Y, 
TestParameter, AutoAnalysis.Line2.Point1.Data.Var, 
TestParameter, AutoAnalysis.Line2.Point1.Data.Condition, 
TestParameter, AutoAnalysis.Line2.Point1.Data.Start, false
TestParameter, AutoAnalysis.Line2.Point1.Data.StartVar, 
TestParameter, AutoAnalysis.Line2.Point1.Data.StartCondition, 
TestParameter, AutoAnalysis.Line2.Point2.Type, 0
TestParameter, AutoAnalysis.Line2.Point2.XY.X, 
TestParameter, AutoAnalysis.Line2.Point2.XY.Y, 
TestParameter, AutoAnalysis.Line2.Point2.Data.Var, 
TestParameter, AutoAnalysis.Line2.Point2.Data.Condition, 
TestParameter, AutoAnalysis.Line2.Point2.Data.Start, false
TestParameter, AutoAnalysis.Line2.Point2.Data.StartVar, 
TestParameter, AutoAnalysis.Line2.Point2.Data.StartCondition, 
TestParameter, AutoAnalysis.Line2.GradientExpr, 0
TestParameter, AutoAnalysis.Marker.Enabled, false
TestParameter, AutoAnalysis.Marker.Data.Var, 
TestParameter, AutoAnalysis.Marker.Data.Condition, 
TestParameter, AutoAnalysis.Marker.Data.Start, false
TestParameter, AutoAnalysis.Marker.Data.StartVar, 
TestParameter, AutoAnalysis.Marker.Data.StartCondition, 
MetaData, TestRecord.EntryPoint, true
MetaData, TestRecord.RecordTime, 03/06/2023 10:24:16
MetaData, TestRecord.TestTarget, 
MetaData, TestRecord.IterationIndex, 39
MetaData, TestRecord.Preservation, true
MetaData, TestRecord.Flag, 
MetaData, TestRecord.Remarks, 
MetaData, TestRecord.LinkKey, fade4af3-4f69-4b2e-8e6e-1999c68ac1dc
Dimension1, 101, 101, 101, 101, 101, 101
Dimension2, 1, 1, 1, 1, 1, 1
DataName, V3, I3, V1, I1, V2, I2
DataValue, -3, -6.0815E-09, , , , 
DataValue, -2.92, -4.1494E-09, , , , 
DataValue, -2.84, -1.9366E-09, , , , 
DataValue, -2.7600000000000002, -2.2362E-09, , , , 
DataValue, -2.68, -3.8172E-09, , , , 
DataValue, -2.6, -4.843E-09, , , , 
DataValue, -2.52, -2.8798E-09, , , , 
DataValue, -2.44, -8.378E-10, , , , 
DataValue, -2.36, -1.3417E-09, , , , 
DataValue, -2.2800000000000002, -3.0661E-09, , , , 
DataValue, -2.2, -3.6546E-09, , , , 
DataValue, -2.12, -2.2277E-09, , , , 
DataValue, -2.04, -2.1961E-09, , , , 
DataValue, -1.96, -2.2565E-09, , , , 
DataValue, -1.8800000000000001, -2.1833E-09, , , , 
DataValue, -1.8, -2.0472E-09, , , , 
DataValue, -1.72, -2.2364E-09, , , , 
DataValue, -1.6400000000000001, -2.0982E-09, , , , 
DataValue, -1.56, -1.9948E-09, , , , 
DataValue, -1.48, -1.805E-09, , , , 
DataValue, -1.4000000000000001, -1.6969E-09, , , , 
DataValue, -1.32, -1.6395E-09, , , , 
DataValue, -1.24, -1.6247E-09, , , , 
DataValue, -1.16, -1.9306E-09, , , , 
DataValue, -1.08, -1.7008E-09, , , , 
DataValue, -1, -1.6771E-09, , , , 
DataValue, -0.92, -1.496E-09, , , , 
DataValue, -0.84, -1.334E-09, , , , 
DataValue, -0.76, -1.2225E-09, , , , 
DataValue, -0.68, -1.0751E-09, , , , 
DataValue, -0.6, -9.738E-10, , , , 
DataValue, -0.52, -1.0343E-09, , , , 
DataValue, -0.44, -8.56E-10, , , , 
DataValue, -0.36, -1.24E-11, , , , 
DataValue, -0.28, 5.029E-10, , , , 
DataValue, -0.2, 4.7217E-10, , , , 
DataValue, -0.12, -3.4430000000000004E-11, , , , 
DataValue, -0.04, -3.5245E-10, , , , 
DataValue, 0.04, -4.5275E-10, , , , 
DataValue, 0.12, 9.1490000000000012E-11, , , , 
DataValue, 0.2, 4.0611E-10, , , , 
DataValue, 0.28, 5.5863000000000007E-10, , , , 
DataValue, 0.36, 4.7455000000000008E-10, , , , 
DataValue, 0.44, 2.7080000000000004E-10, , , , 
DataValue, 0.52, 4.4838000000000006E-10, , , , 
DataValue, 0.6, 7.6584E-10, , , , 
DataValue, 0.68, 8.6420000000000008E-10, , , , 
DataValue, 0.76, 9.624E-10, , , , 
DataValue, 0.84, 1.0034E-09, , , , 
DataValue, 0.92, 1.1148E-09, , , , 
DataValue, 1, 1.0658E-09, , , , 
DataValue, 1.08, 1.0933E-09, , , , 
DataValue, 1.16, 1.071E-09, , , , 
DataValue, 1.24, 1.2054E-09, , , , 
DataValue, 1.32, 1.6664E-09, , , , 
DataValue, 1.4000000000000001, 1.9372E-09, , , , 
DataValue, 1.48, 1.9593E-09, , , , 
DataValue, 1.56, 1.9515E-09, , , , 
DataValue, 1.6400000000000001, 2.2482E-09, , , , 
DataValue, 1.72, 2.9829E-09, , , , 
DataValue, 1.8, 3.2687E-09, , , , 
DataValue, 1.8800000000000001, 3.4228E-09, , , , 
DataValue, 1.96, 3.7603E-09, , , , 
DataValue, 2.04, 4.4183E-09, , , , 
DataValue, 2.12, 5.4296E-09, , , , 
DataValue, 2.2, 6.1757E-09, , , , 
DataValue, 2.2800000000000002, 6.8504E-09, , , , 
DataValue, 2.36, 7.796E-09, , , , 
DataValue, 2.44, 9.2173E-09, , , , 
DataValue, 2.52, 1.11019E-08, , , , 
DataValue, 2.6, 1.2927999999999998E-08, , , , 
DataValue, 2.68, 1.50984E-08, , , , 
DataValue, 2.7600000000000002, 1.7747199999999998E-08, , , , 
DataValue, 2.84, 2.1460599999999998E-08, , , , 
DataValue, 2.92, 2.5257999999999997E-08, , , , 
DataValue, 3, 2.9909999999999995E-08, , , , 
DataValue, 3.08, 3.6098599999999996E-08, , , , 
DataValue, 3.16, 4.2719399999999995E-08, , , , 
DataValue, 3.24, 5.1402399999999994E-08, , , , 
DataValue, 3.3200000000000003, 6.153159999999999E-08, , , , 
DataValue, 3.4, 7.35204E-08, , , , 
DataValue, 3.48, 8.88498E-08, , , , 
DataValue, 3.56, 1.0697059999999999E-07, , , , 
DataValue, 3.64, 1.3046E-07, , , , 
DataValue, 3.72, 1.6084E-07, , , , 
DataValue, 3.8000000000000003, 2.015E-07, , , , 
DataValue, 3.88, 2.5608E-07, , , , 
DataValue, 3.96, 3.3191999999999997E-07, , , , 
DataValue, 4.04, 4.5535999999999997E-07, , , , 
DataValue, 4.12, 6.795E-07, , , , 
DataValue, 4.2, 1.06784E-06, , , , 
DataValue, 4.28, 2.6527000000000005E-06, , , , 
DataValue, 4.36, 3.6526000000000004E-06, , , , 
DataValue, 4.44, 5.1595E-06, , , , 
DataValue, 4.5200000000000005, 7.7113E-06, , , , 
DataValue, 4.6000000000000005, 1.4094000000000001E-05, , , , 
DataValue, 4.68, 1.8504E-05, , , , 
DataValue, 4.76, 2.4092000000000002E-05, , , , 
DataValue, 4.84, 3.1778E-05, , , , 
DataValue, 4.92, 4.116E-05, , , , 
DataValue, 5, 5.3614E-05, , , , 