
SetupTitle, Two Terminal IV Sweep
PrimitiveTest, I/V Sweep
TestParameter, Context.MainFrame, B1500A
TestParameter, Channel.UnitType, SMU, SMU
TestParameter, Channel.Unit, SMU3:MP, SMU4:MP
TestParameter, Channel.IName, I3, I4
TestParameter, Channel.VName, V3, V4
TestParameter, Channel.Mode, V, V
TestParameter, Channel.Func, VAR1, CONST
TestParameter, Channel.Index, 
TestParameter, Channel.Time, 
TestParameter, Measurement.Port.Unit, SMU3:MP, SMU4:MP
TestParameter, Measurement.Port.SeriesResistor, NONE, NONE
TestParameter, Measurement.Port.Filter, ON, ON
TestParameter, Measurement.Port.OutputVoltageComparison, 0, 0
TestParameter, Measurement.Primary.Locus, Single
TestParameter, Measurement.Primary.Scale, LINEAR
TestParameter, Measurement.Primary.Start, -3
TestParameter, Measurement.Primary.Stop, 5
TestParameter, Measurement.Primary.Step, 0.08
TestParameter, Measurement.Primary.Compliance, 0.01
TestParameter, Measurement.Primary.PowerCompliance, 0
TestParameter, Measurement.Aborting.Condition, CONTINUE AT ANY
TestParameter, Measurement.PostOutput.Value, START
TestParameter, Measurement.PostOutput.Retention, OFF
TestParameter, Measurement.Bias.Source, -3, 0
TestParameter, Measurement.Bias.Compliance, 0.01, 0.1
TestParameter, Measurement.Monitor.Unit, SMU3:MP, SMU4:MP
TestParameter, Measurement.Monitor.Adc, HR ADC, HR ADC
TestParameter, Measurement.Monitor.Measurement, Compliance Side, Compliance Side
TestParameter, Measurement.Monitor.RangingMode, LIMITED, LIMITED
TestParameter, Measurement.Monitor.RangeBoundary, 1nA, 1nA
TestParameter, Measurement.Monitor.RangeRating, BY FULL RANGE, BY FULL RANGE
TestParameter, Measurement.Monitor.RangeRatingCoeff, 50, 50
TestParameter, Measurement.Timing.Hold, 0
TestParameter, Measurement.Timing.Delay, 0
TestParameter, Measurement.Adc.HighSpeed.Mode, AUTO
TestParameter, Measurement.Adc.HighSpeed.Coeff, 1
TestParameter, Measurement.Adc.HighResolution.AutoZero, OFF
TestParameter, Measurement.Adc.HighResolution.Mode, AUTO
TestParameter, Measurement.Adc.HighResolution.Coeff, 6
TestParameter, Measurement.WaitTime.Source.Coeff, 1
TestParameter, Measurement.WaitTime.Source.Offset, 0
TestParameter, Measurement.WaitTime.Monitor.Coeff, 1
TestParameter, Measurement.WaitTime.Monitor.Offset, 0
TestParameter, Output.Graph.Enabled, true
TestParameter, Output.Graph.AutoScaling, false
TestParameter, Output.Graph.XAxis.Data, V3
TestParameter, Output.Graph.XAxis.Scale, Linear
TestParameter, Output.Graph.XAxis.Left, -5
TestParameter, Output.Graph.XAxis.Right, 5
TestParameter, Output.Graph.XAxis.RunTimeAutoScale, true
TestParameter, Output.Graph.YAxis.Data, I3
TestParameter, Output.Graph.YAxis.Scale, Linear
TestParameter, Output.Graph.YAxis.Bottom, -0.1
TestParameter, Output.Graph.YAxis.Top, 0.1
TestParameter, Output.Graph.YAxis.Group, 
TestParameter, Output.Graph.YAxis.RunTimeAutoScale, true
TestParameter, Output.List.Data, V1, I1, V2, I2
TestParameter, AutoAnalysis.Interpolation, false
TestParameter, AutoAnalysis.Line1.Enabled, false
TestParameter, AutoAnalysis.Line1.Type, 1
TestParameter, AutoAnalysis.Line1.Fix, True
TestParameter, AutoAnalysis.Line1.YAxis, 0
TestParameter, AutoAnalysis.Line1.Point1.Type, 0
TestParameter, AutoAnalysis.Line1.Point1.XY.X, 
TestParameter, AutoAnalysis.Line1.Point1.XY.Y, 
TestParameter, AutoAnalysis.Line1.Point1.Data.Var, 
TestParameter, AutoAnalysis.Line1.Point1.Data.Condition, 
TestParameter, AutoAnalysis.Line1.Point1.Data.Start, false
TestParameter, AutoAnalysis.Line1.Point1.Data.StartVar, 
TestParameter, AutoAnalysis.Line1.Point1.Data.StartCondition, 
TestParameter, AutoAnalysis.Line1.Point2.Type, 0
TestParameter, AutoAnalysis.Line1.Point2.XY.X, 
TestParameter, AutoAnalysis.Line1.Point2.XY.Y, 
TestParameter, AutoAnalysis.Line1.Point2.Data.Var, 
TestParameter, AutoAnalysis.Line1.Point2.Data.Condition, 
TestParameter, AutoAnalysis.Line1.Point2.Data.Start, false
TestParameter, AutoAnalysis.Line1.Point2.Data.StartVar, 
TestParameter, AutoAnalysis.Line1.Point2.Data.StartCondition, 
TestParameter, AutoAnalysis.Line1.GradientExpr, 0
TestParameter, AutoAnalysis.Line2.Enabled, false
TestParameter, AutoAnalysis.Line2.Type, 1
TestParameter, AutoAnalysis.Line2.Fix, True
TestParameter, AutoAnalysis.Line2.YAxis, 0
TestParameter, AutoAnalysis.Line2.Point1.Type, 0
TestParameter, AutoAnalysis.Line2.Point1.XY.X, 
TestParameter, AutoAnalysis.Line2.Point1.XY.Y, 
TestParameter, AutoAnalysis.Line2.Point1.Data.Var, 
TestParameter, AutoAnalysis.Line2.Point1.Data.Condition, 
TestParameter, AutoAnalysis.Line2.Point1.Data.Start, false
TestParameter, AutoAnalysis.Line2.Point1.Data.StartVar, 
TestParameter, AutoAnalysis.Line2.Point1.Data.StartCondition, 
TestParameter, AutoAnalysis.Line2.Point2.Type, 0
TestParameter, AutoAnalysis.Line2.Point2.XY.X, 
TestParameter, AutoAnalysis.Line2.Point2.XY.Y, 
TestParameter, AutoAnalysis.Line2.Point2.Data.Var, 
TestParameter, AutoAnalysis.Line2.Point2.Data.Condition, 
TestParameter, AutoAnalysis.Line2.Point2.Data.Start, false
TestParameter, AutoAnalysis.Line2.Point2.Data.StartVar, 
TestParameter, AutoAnalysis.Line2.Point2.Data.StartCondition, 
TestParameter, AutoAnalysis.Line2.GradientExpr, 0
TestParameter, AutoAnalysis.Marker.Enabled, false
TestParameter, AutoAnalysis.Marker.Data.Var, 
TestParameter, AutoAnalysis.Marker.Data.Condition, 
TestParameter, AutoAnalysis.Marker.Data.Start, false
TestParameter, AutoAnalysis.Marker.Data.StartVar, 
TestParameter, AutoAnalysis.Marker.Data.StartCondition, 
MetaData, TestRecord.EntryPoint, true
MetaData, TestRecord.RecordTime, 03/06/2023 10:21:01
MetaData, TestRecord.TestTarget, 
MetaData, TestRecord.IterationIndex, 37
MetaData, TestRecord.Preservation, true
MetaData, TestRecord.Flag, 
MetaData, TestRecord.Remarks, 
MetaData, TestRecord.LinkKey, 61a2c4f2-eb2f-4239-a9a9-7a50a899198a
Dimension1, 101, 101, 101, 101, 101, 101
Dimension2, 1, 1, 1, 1, 1, 1
DataName, V3, I3, V1, I1, V2, I2
DataValue, -3, -3.1396E-07, , , , 
DataValue, -2.92, -2.7424E-07, , , , 
DataValue, -2.84, -2.5511999999999997E-07, , , , 
DataValue, -2.7600000000000002, -2.2818E-07, , , , 
DataValue, -2.68, -2.1268E-07, , , , 
DataValue, -2.6, -1.9246E-07, , , , 
DataValue, -2.52, -1.7052E-07, , , , 
DataValue, -2.44, -1.538E-07, , , , 
DataValue, -2.36, -1.3494E-07, , , , 
DataValue, -2.2800000000000002, -1.1557999999999999E-07, , , , 
DataValue, -2.2, -1.0248E-07, , , , 
DataValue, -2.12, -8.604699999999999E-08, , , , 
DataValue, -2.04, -7.3552599999999989E-08, , , , 
DataValue, -1.96, -6.01422E-08, , , , 
DataValue, -1.8800000000000001, -5.36864E-08, , , , 
DataValue, -1.8, -4.4451199999999996E-08, , , , 
DataValue, -1.72, -3.82558E-08, , , , 
DataValue, -1.6400000000000001, -3.29506E-08, , , , 
DataValue, -1.56, -2.7297199999999997E-08, , , , 
DataValue, -1.48, -2.3792399999999997E-08, , , , 
DataValue, -1.4000000000000001, -1.9535E-08, , , , 
DataValue, -1.32, -1.61924E-08, , , , 
DataValue, -1.24, -1.3927399999999998E-08, , , , 
DataValue, -1.16, -1.0576399999999998E-08, , , , 
DataValue, -1.08, -8.1202E-09, , , , 
DataValue, -1, -6.9708E-09, , , , 
DataValue, -0.92, -5.6074E-09, , , , 
DataValue, -0.84, -3.8992E-09, , , , 
DataValue, -0.76, -2.8199E-09, , , , 
DataValue, -0.68, -2.5058E-09, , , , 
DataValue, -0.6, -2.186E-09, , , , 
DataValue, -0.52, -1.515E-09, , , , 
DataValue, -0.44, -1.1174E-09, , , , 
DataValue, -0.36, -1.0206E-09, , , , 
DataValue, -0.28, -7.5542000000000007E-10, , , , 
DataValue, -0.2, -3.5959000000000005E-10, , , , 
DataValue, -0.12, -7.11E-11, , , , 
DataValue, -0.04, 5.2320000000000006E-11, , , , 
DataValue, 0.04, 1.0855E-10, , , , 
DataValue, 0.12, 2.6974000000000004E-10, , , , 
DataValue, 0.2, 4.7851E-10, , , , 
DataValue, 0.28, 6.3067000000000006E-10, , , , 
DataValue, 0.36, 7.2759000000000007E-10, , , , 
DataValue, 0.44, 8.4614E-10, , , , 
DataValue, 0.52, 8.9944E-10, , , , 
DataValue, 0.6, 1.076E-09, , , , 
DataValue, 0.68, 1.1709E-09, , , , 
DataValue, 0.76, 1.2797E-09, , , , 
DataValue, 0.84, 1.4382E-09, , , , 
DataValue, 0.92, 1.643E-09, , , , 
DataValue, 1, 1.8522E-09, , , , 
DataValue, 1.08, 2.0327E-09, , , , 
DataValue, 1.16, 2.2266E-09, , , , 
DataValue, 1.24, 2.5368E-09, , , , 
DataValue, 1.32, 2.8828E-09, , , , 
DataValue, 1.4000000000000001, 3.214E-09, , , , 
DataValue, 1.48, 3.5765E-09, , , , 
DataValue, 1.56, 4.0302E-09, , , , 
DataValue, 1.6400000000000001, 4.6416E-09, , , , 
DataValue, 1.72, 5.3069E-09, , , , 
DataValue, 1.8, 6.0195E-09, , , , 
DataValue, 1.8800000000000001, 6.8358E-09, , , , 
DataValue, 1.96, 7.8996E-09, , , , 
DataValue, 2.04, 9.1848E-09, , , , 
DataValue, 2.12, 1.06178E-08, , , , 
DataValue, 2.2, 1.2317999999999998E-08, , , , 
DataValue, 2.2800000000000002, 1.4348799999999999E-08, , , , 
DataValue, 2.36, 1.68994E-08, , , , 
DataValue, 2.44, 2.0027799999999998E-08, , , , 
DataValue, 2.52, 2.3579999999999997E-08, , , , 
DataValue, 2.6, 2.7943399999999996E-08, , , , 
DataValue, 2.68, 3.31324E-08, , , , 
DataValue, 2.7600000000000002, 3.93906E-08, , , , 
DataValue, 2.84, 4.7053199999999995E-08, , , , 
DataValue, 2.92, 5.6300999999999996E-08, , , , 
DataValue, 3, 6.7319E-08, , , , 
DataValue, 3.08, 8.1009199999999992E-08, , , , 
DataValue, 3.16, 9.7760599999999989E-08, , , , 
DataValue, 3.24, 1.1865999999999999E-07, , , , 
DataValue, 3.3200000000000003, 1.491E-07, , , , 
DataValue, 3.4, 1.9702E-07, , , , 
DataValue, 3.48, 2.72E-07, , , , 
DataValue, 3.56, 3.6904E-07, , , , 
DataValue, 3.64, 5.3556E-07, , , , 
DataValue, 3.72, 7.423E-07, , , , 
DataValue, 3.8000000000000003, 1.03862E-06, , , , 
DataValue, 3.88, 1.6986000000000001E-06, , , , 
DataValue, 3.96, 2.1451E-06, , , , 
DataValue, 4.04, 2.9008000000000002E-06, , , , 
DataValue, 4.12, 3.9045000000000005E-06, , , , 
DataValue, 4.2, 5.6735000000000008E-06, , , , 
DataValue, 4.28, 7.9888E-06, , , , 
DataValue, 4.36, 1.38E-05, , , , 
DataValue, 4.44, 1.781E-05, , , , 
DataValue, 4.5200000000000005, 2.4794E-05, , , , 
DataValue, 4.6000000000000005, 3.4466E-05, , , , 
DataValue, 4.68, 4.7728E-05, , , , 
DataValue, 4.76, 6.1238E-05, , , , 
DataValue, 4.84, 7.9238E-05, , , , 
DataValue, 4.92, 0.000106184, , , , 
DataValue, 5, 0.00015746, , , , 