
SetupTitle, Two Terminal IV Sweep
PrimitiveTest, I/V Sweep
TestParameter, Context.MainFrame, B1500A
TestParameter, Channel.UnitType, SMU, SMU
TestParameter, Channel.Unit, SMU3:MP, SMU4:MP
TestParameter, Channel.IName, I3, I4
TestParameter, Channel.VName, V3, V4
TestParameter, Channel.Mode, V, V
TestParameter, Channel.Func, VAR1, CONST
TestParameter, Channel.Index, 
TestParameter, Channel.Time, 
TestParameter, Measurement.Port.Unit, SMU3:MP, SMU4:MP
TestParameter, Measurement.Port.SeriesResistor, NONE, NONE
TestParameter, Measurement.Port.Filter, ON, ON
TestParameter, Measurement.Port.OutputVoltageComparison, 0, 0
TestParameter, Measurement.Primary.Locus, Single
TestParameter, Measurement.Primary.Scale, LINEAR
TestParameter, Measurement.Primary.Start, -10
TestParameter, Measurement.Primary.Stop, 0
TestParameter, Measurement.Primary.Step, 0.1
TestParameter, Measurement.Primary.Compliance, 0.01
TestParameter, Measurement.Primary.PowerCompliance, 0
TestParameter, Measurement.Aborting.Condition, CONTINUE AT ANY
TestParameter, Measurement.PostOutput.Value, START
TestParameter, Measurement.PostOutput.Retention, OFF
TestParameter, Measurement.Bias.Source, -10, 0
TestParameter, Measurement.Bias.Compliance, 0.01, 0.1
TestParameter, Measurement.Monitor.Unit, SMU3:MP, SMU4:MP
TestParameter, Measurement.Monitor.Adc, HR ADC, HR ADC
TestParameter, Measurement.Monitor.Measurement, Compliance Side, Compliance Side
TestParameter, Measurement.Monitor.RangingMode, LIMITED, LIMITED
TestParameter, Measurement.Monitor.RangeBoundary, 1nA, 1nA
TestParameter, Measurement.Monitor.RangeRating, BY FULL RANGE, BY FULL RANGE
TestParameter, Measurement.Monitor.RangeRatingCoeff, 50, 50
TestParameter, Measurement.Timing.Hold, 0
TestParameter, Measurement.Timing.Delay, 0
TestParameter, Measurement.Adc.HighSpeed.Mode, AUTO
TestParameter, Measurement.Adc.HighSpeed.Coeff, 1
TestParameter, Measurement.Adc.HighResolution.AutoZero, OFF
TestParameter, Measurement.Adc.HighResolution.Mode, AUTO
TestParameter, Measurement.Adc.HighResolution.Coeff, 6
TestParameter, Measurement.WaitTime.Source.Coeff, 1
TestParameter, Measurement.WaitTime.Source.Offset, 0
TestParameter, Measurement.WaitTime.Monitor.Coeff, 1
TestParameter, Measurement.WaitTime.Monitor.Offset, 0
TestParameter, Output.Graph.Enabled, true
TestParameter, Output.Graph.AutoScaling, false
TestParameter, Output.Graph.XAxis.Data, V3
TestParameter, Output.Graph.XAxis.Scale, Linear
TestParameter, Output.Graph.XAxis.Left, -5
TestParameter, Output.Graph.XAxis.Right, 5
TestParameter, Output.Graph.XAxis.RunTimeAutoScale, true
TestParameter, Output.Graph.YAxis.Data, I3
TestParameter, Output.Graph.YAxis.Scale, Linear
TestParameter, Output.Graph.YAxis.Bottom, -0.1
TestParameter, Output.Graph.YAxis.Top, 0.1
TestParameter, Output.Graph.YAxis.Group, 
TestParameter, Output.Graph.YAxis.RunTimeAutoScale, true
TestParameter, Output.List.Data, V1, I1, V2, I2
TestParameter, AutoAnalysis.Interpolation, false
TestParameter, AutoAnalysis.Line1.Enabled, false
TestParameter, AutoAnalysis.Line1.Type, 1
TestParameter, AutoAnalysis.Line1.Fix, True
TestParameter, AutoAnalysis.Line1.YAxis, 0
TestParameter, AutoAnalysis.Line1.Point1.Type, 0
TestParameter, AutoAnalysis.Line1.Point1.XY.X, 
TestParameter, AutoAnalysis.Line1.Point1.XY.Y, 
TestParameter, AutoAnalysis.Line1.Point1.Data.Var, 
TestParameter, AutoAnalysis.Line1.Point1.Data.Condition, 
TestParameter, AutoAnalysis.Line1.Point1.Data.Start, false
TestParameter, AutoAnalysis.Line1.Point1.Data.StartVar, 
TestParameter, AutoAnalysis.Line1.Point1.Data.StartCondition, 
TestParameter, AutoAnalysis.Line1.Point2.Type, 0
TestParameter, AutoAnalysis.Line1.Point2.XY.X, 
TestParameter, AutoAnalysis.Line1.Point2.XY.Y, 
TestParameter, AutoAnalysis.Line1.Point2.Data.Var, 
TestParameter, AutoAnalysis.Line1.Point2.Data.Condition, 
TestParameter, AutoAnalysis.Line1.Point2.Data.Start, false
TestParameter, AutoAnalysis.Line1.Point2.Data.StartVar, 
TestParameter, AutoAnalysis.Line1.Point2.Data.StartCondition, 
TestParameter, AutoAnalysis.Line1.GradientExpr, 0
TestParameter, AutoAnalysis.Line2.Enabled, false
TestParameter, AutoAnalysis.Line2.Type, 1
TestParameter, AutoAnalysis.Line2.Fix, True
TestParameter, AutoAnalysis.Line2.YAxis, 0
TestParameter, AutoAnalysis.Line2.Point1.Type, 0
TestParameter, AutoAnalysis.Line2.Point1.XY.X, 
TestParameter, AutoAnalysis.Line2.Point1.XY.Y, 
TestParameter, AutoAnalysis.Line2.Point1.Data.Var, 
TestParameter, AutoAnalysis.Line2.Point1.Data.Condition, 
TestParameter, AutoAnalysis.Line2.Point1.Data.Start, false
TestParameter, AutoAnalysis.Line2.Point1.Data.StartVar, 
TestParameter, AutoAnalysis.Line2.Point1.Data.StartCondition, 
TestParameter, AutoAnalysis.Line2.Point2.Type, 0
TestParameter, AutoAnalysis.Line2.Point2.XY.X, 
TestParameter, AutoAnalysis.Line2.Point2.XY.Y, 
TestParameter, AutoAnalysis.Line2.Point2.Data.Var, 
TestParameter, AutoAnalysis.Line2.Point2.Data.Condition, 
TestParameter, AutoAnalysis.Line2.Point2.Data.Start, false
TestParameter, AutoAnalysis.Line2.Point2.Data.StartVar, 
TestParameter, AutoAnalysis.Line2.Point2.Data.StartCondition, 
TestParameter, AutoAnalysis.Line2.GradientExpr, 0
TestParameter, AutoAnalysis.Marker.Enabled, false
TestParameter, AutoAnalysis.Marker.Data.Var, 
TestParameter, AutoAnalysis.Marker.Data.Condition, 
TestParameter, AutoAnalysis.Marker.Data.Start, false
TestParameter, AutoAnalysis.Marker.Data.StartVar, 
TestParameter, AutoAnalysis.Marker.Data.StartCondition, 
MetaData, TestRecord.EntryPoint, true
MetaData, TestRecord.RecordTime, 03/06/2023 10:26:58
MetaData, TestRecord.TestTarget, 
MetaData, TestRecord.IterationIndex, 43
MetaData, TestRecord.Preservation, true
MetaData, TestRecord.Flag, 
MetaData, TestRecord.Remarks, 
MetaData, TestRecord.LinkKey, 5a51595e-d140-48da-b4b8-891f8431c9d4
Dimension1, 101, 101, 101, 101, 101, 101
Dimension2, 1, 1, 1, 1, 1, 1
DataName, V3, I3, V1, I1, V2, I2
DataValue, -10, -8.0982E-05, , , , 
DataValue, -9.9, -6.4982000000000009E-05, , , , 
DataValue, -9.8, -5.1542E-05, , , , 
DataValue, -9.7000000000000011, -4.0458000000000005E-05, , , , 
DataValue, -9.6, -3.1214E-05, , , , 
DataValue, -9.5, -2.3424E-05, , , , 
DataValue, -9.4, -1.7226E-05, , , , 
DataValue, -9.3, -1.2232E-05, , , , 
DataValue, -9.2000000000000011, -8.5254000000000014E-06, , , , 
DataValue, -9.1, -6.0824E-06, , , , 
DataValue, -9, -4.8732E-06, , , , 
DataValue, -8.9, -3.7811000000000005E-06, , , , 
DataValue, -8.8, -3.2811000000000002E-06, , , , 
DataValue, -8.7000000000000011, -2.8233E-06, , , , 
DataValue, -8.6, -2.5230000000000002E-06, , , , 
DataValue, -8.5, -2.2207E-06, , , , 
DataValue, -8.4, -1.9878000000000003E-06, , , , 
DataValue, -8.3, -1.7966E-06, , , , 
DataValue, -8.2, -1.6448000000000001E-06, , , , 
DataValue, -8.1, -1.5299000000000002E-06, , , , 
DataValue, -8, -1.3827000000000001E-06, , , , 
DataValue, -7.9, -1.2793000000000002E-06, , , , 
DataValue, -7.8, -1.1716000000000001E-06, , , , 
DataValue, -7.7, -1.0875000000000002E-06, , , , 
DataValue, -7.6000000000000005, -1.0226000000000002E-06, , , , 
DataValue, -7.5, -9.6974E-07, , , , 
DataValue, -7.4, -9.1092E-07, , , , 
DataValue, -7.3, -8.4199999999999994E-07, , , , 
DataValue, -7.2, -7.8692E-07, , , , 
DataValue, -7.1000000000000005, -7.6691999999999993E-07, , , , 
DataValue, -7, -7.3542E-07, , , , 
DataValue, -6.9, -6.8564E-07, , , , 
DataValue, -6.8, -6.4356E-07, , , , 
DataValue, -6.7, -6.079E-07, , , , 
DataValue, -6.6000000000000005, -5.7956E-07, , , , 
DataValue, -6.5, -5.521E-07, , , , 
DataValue, -6.4, -5.3077999999999994E-07, , , , 
DataValue, -6.3, -5.1593999999999995E-07, , , , 
DataValue, -6.2, -4.8004E-07, , , , 
DataValue, -6.1000000000000005, -4.6378E-07, , , , 
DataValue, -6, -4.3146E-07, , , , 
DataValue, -5.9, -4.1847999999999997E-07, , , , 
DataValue, -5.8, -4.067E-07, , , , 
DataValue, -5.7, -3.8326E-07, , , , 
DataValue, -5.6000000000000005, -3.6588E-07, , , , 
DataValue, -5.5, -3.5338E-07, , , , 
DataValue, -5.4, -3.3504E-07, , , , 
DataValue, -5.3, -3.1725999999999997E-07, , , , 
DataValue, -5.2, -3.089E-07, , , , 
DataValue, -5.1000000000000005, -2.9101999999999997E-07, , , , 
DataValue, -5, -2.7946E-07, , , , 
DataValue, -4.9, -2.6294E-07, , , , 
DataValue, -4.8, -2.4718E-07, , , , 
DataValue, -4.7, -2.3145999999999998E-07, , , , 
DataValue, -4.6000000000000005, -2.1392E-07, , , , 
DataValue, -4.5, -2.0566E-07, , , , 
DataValue, -4.4, -1.9142E-07, , , , 
DataValue, -4.3, -1.7573999999999998E-07, , , , 
DataValue, -4.2, -1.6396E-07, , , , 
DataValue, -4.1, -1.5589999999999999E-07, , , , 
DataValue, -4, -1.4324E-07, , , , 
DataValue, -3.9, -1.3346E-07, , , , 
DataValue, -3.8000000000000003, -1.238E-07, , , , 
DataValue, -3.7, -1.156E-07, , , , 
DataValue, -3.6, -1.0475999999999999E-07, , , , 
DataValue, -3.5, -9.805799999999999E-08, , , , 
DataValue, -3.4, -9.03189E-08, , , , 
DataValue, -3.3000000000000003, -8.3283899999999988E-08, , , , 
DataValue, -3.2, -7.9028299999999988E-08, , , , 
DataValue, -3.1, -7.08007E-08, , , , 
DataValue, -3, -6.38718E-08, , , , 
DataValue, -2.9, -5.8909199999999993E-08, , , , 
DataValue, -2.8000000000000003, -5.3489699999999995E-08, , , , 
DataValue, -2.7, -4.86258E-08, , , , 
DataValue, -2.6, -4.16923E-08, , , , 
DataValue, -2.5, -3.7887599999999993E-08, , , , 
DataValue, -2.4, -3.4653999999999994E-08, , , , 
DataValue, -2.3000000000000003, -3.1173099999999996E-08, , , , 
DataValue, -2.2, -2.8307599999999996E-08, , , , 
DataValue, -2.1, -2.6158199999999996E-08, , , , 
DataValue, -2, -2.3278899999999997E-08, , , , 
DataValue, -1.9000000000000001, -2.0592299999999996E-08, , , , 
DataValue, -1.8, -1.82846E-08, , , , 
DataValue, -1.7, -1.67337E-08, , , , 
DataValue, -1.6, -1.53043E-08, , , , 
DataValue, -1.5, -1.3233299999999998E-08, , , , 
DataValue, -1.4000000000000001, -1.1425899999999999E-08, , , , 
DataValue, -1.3, -1.0214599999999999E-08, , , , 
DataValue, -1.2, -8.7846E-09, , , , 
DataValue, -1.1, -7.5133E-09, , , , 
DataValue, -1, -5.4747E-09, , , , 
DataValue, -0.9, -4.0474E-09, , , , 
DataValue, -0.8, -3.252E-09, , , , 
DataValue, -0.70000000000000007, -2.7724E-09, , , , 
DataValue, -0.6, -2.0024E-09, , , , 
DataValue, -0.5, -1.2748E-09, , , , 
DataValue, -0.4, -1.2686E-09, , , , 
DataValue, -0.3, -3.481E-10, , , , 
DataValue, -0.2, -1.3711E-10, , , , 
DataValue, -0.1, -3.4980000000000005E-11, , , , 
DataValue, 0, 4.275E-11, , , , 