
SetupTitle, Two Terminal IV Sweep
PrimitiveTest, I/V Sweep
TestParameter, Context.MainFrame, B1500A
TestParameter, Channel.UnitType, SMU, SMU
TestParameter, Channel.Unit, SMU3:MP, SMU4:MP
TestParameter, Channel.IName, I3, I4
TestParameter, Channel.VName, V3, V4
TestParameter, Channel.Mode, V, V
TestParameter, Channel.Func, VAR1, CONST
TestParameter, Channel.Index, 
TestParameter, Channel.Time, 
TestParameter, Measurement.Port.Unit, SMU3:MP, SMU4:MP
TestParameter, Measurement.Port.SeriesResistor, NONE, NONE
TestParameter, Measurement.Port.Filter, ON, ON
TestParameter, Measurement.Port.OutputVoltageComparison, 0, 0
TestParameter, Measurement.Primary.Locus, Single
TestParameter, Measurement.Primary.Scale, LINEAR
TestParameter, Measurement.Primary.Start, -3
TestParameter, Measurement.Primary.Stop, 5
TestParameter, Measurement.Primary.Step, 0.08
TestParameter, Measurement.Primary.Compliance, 0.01
TestParameter, Measurement.Primary.PowerCompliance, 0
TestParameter, Measurement.Aborting.Condition, CONTINUE AT ANY
TestParameter, Measurement.PostOutput.Value, START
TestParameter, Measurement.PostOutput.Retention, OFF
TestParameter, Measurement.Bias.Source, -3, 0
TestParameter, Measurement.Bias.Compliance, 0.01, 0.1
TestParameter, Measurement.Monitor.Unit, SMU3:MP, SMU4:MP
TestParameter, Measurement.Monitor.Adc, HR ADC, HR ADC
TestParameter, Measurement.Monitor.Measurement, Compliance Side, Compliance Side
TestParameter, Measurement.Monitor.RangingMode, LIMITED, LIMITED
TestParameter, Measurement.Monitor.RangeBoundary, 1nA, 1nA
TestParameter, Measurement.Monitor.RangeRating, BY FULL RANGE, BY FULL RANGE
TestParameter, Measurement.Monitor.RangeRatingCoeff, 50, 50
TestParameter, Measurement.Timing.Hold, 0
TestParameter, Measurement.Timing.Delay, 0
TestParameter, Measurement.Adc.HighSpeed.Mode, AUTO
TestParameter, Measurement.Adc.HighSpeed.Coeff, 1
TestParameter, Measurement.Adc.HighResolution.AutoZero, OFF
TestParameter, Measurement.Adc.HighResolution.Mode, AUTO
TestParameter, Measurement.Adc.HighResolution.Coeff, 6
TestParameter, Measurement.WaitTime.Source.Coeff, 1
TestParameter, Measurement.WaitTime.Source.Offset, 0
TestParameter, Measurement.WaitTime.Monitor.Coeff, 1
TestParameter, Measurement.WaitTime.Monitor.Offset, 0
TestParameter, Output.Graph.Enabled, true
TestParameter, Output.Graph.AutoScaling, false
TestParameter, Output.Graph.XAxis.Data, V3
TestParameter, Output.Graph.XAxis.Scale, Linear
TestParameter, Output.Graph.XAxis.Left, -5
TestParameter, Output.Graph.XAxis.Right, 5
TestParameter, Output.Graph.XAxis.RunTimeAutoScale, true
TestParameter, Output.Graph.YAxis.Data, I3
TestParameter, Output.Graph.YAxis.Scale, Linear
TestParameter, Output.Graph.YAxis.Bottom, -0.1
TestParameter, Output.Graph.YAxis.Top, 0.1
TestParameter, Output.Graph.YAxis.Group, 
TestParameter, Output.Graph.YAxis.RunTimeAutoScale, true
TestParameter, Output.List.Data, V1, I1, V2, I2
TestParameter, AutoAnalysis.Interpolation, false
TestParameter, AutoAnalysis.Line1.Enabled, false
TestParameter, AutoAnalysis.Line1.Type, 1
TestParameter, AutoAnalysis.Line1.Fix, True
TestParameter, AutoAnalysis.Line1.YAxis, 0
TestParameter, AutoAnalysis.Line1.Point1.Type, 0
TestParameter, AutoAnalysis.Line1.Point1.XY.X, 
TestParameter, AutoAnalysis.Line1.Point1.XY.Y, 
TestParameter, AutoAnalysis.Line1.Point1.Data.Var, 
TestParameter, AutoAnalysis.Line1.Point1.Data.Condition, 
TestParameter, AutoAnalysis.Line1.Point1.Data.Start, false
TestParameter, AutoAnalysis.Line1.Point1.Data.StartVar, 
TestParameter, AutoAnalysis.Line1.Point1.Data.StartCondition, 
TestParameter, AutoAnalysis.Line1.Point2.Type, 0
TestParameter, AutoAnalysis.Line1.Point2.XY.X, 
TestParameter, AutoAnalysis.Line1.Point2.XY.Y, 
TestParameter, AutoAnalysis.Line1.Point2.Data.Var, 
TestParameter, AutoAnalysis.Line1.Point2.Data.Condition, 
TestParameter, AutoAnalysis.Line1.Point2.Data.Start, false
TestParameter, AutoAnalysis.Line1.Point2.Data.StartVar, 
TestParameter, AutoAnalysis.Line1.Point2.Data.StartCondition, 
TestParameter, AutoAnalysis.Line1.GradientExpr, 0
TestParameter, AutoAnalysis.Line2.Enabled, false
TestParameter, AutoAnalysis.Line2.Type, 1
TestParameter, AutoAnalysis.Line2.Fix, True
TestParameter, AutoAnalysis.Line2.YAxis, 0
TestParameter, AutoAnalysis.Line2.Point1.Type, 0
TestParameter, AutoAnalysis.Line2.Point1.XY.X, 
TestParameter, AutoAnalysis.Line2.Point1.XY.Y, 
TestParameter, AutoAnalysis.Line2.Point1.Data.Var, 
TestParameter, AutoAnalysis.Line2.Point1.Data.Condition, 
TestParameter, AutoAnalysis.Line2.Point1.Data.Start, false
TestParameter, AutoAnalysis.Line2.Point1.Data.StartVar, 
TestParameter, AutoAnalysis.Line2.Point1.Data.StartCondition, 
TestParameter, AutoAnalysis.Line2.Point2.Type, 0
TestParameter, AutoAnalysis.Line2.Point2.XY.X, 
TestParameter, AutoAnalysis.Line2.Point2.XY.Y, 
TestParameter, AutoAnalysis.Line2.Point2.Data.Var, 
TestParameter, AutoAnalysis.Line2.Point2.Data.Condition, 
TestParameter, AutoAnalysis.Line2.Point2.Data.Start, false
TestParameter, AutoAnalysis.Line2.Point2.Data.StartVar, 
TestParameter, AutoAnalysis.Line2.Point2.Data.StartCondition, 
TestParameter, AutoAnalysis.Line2.GradientExpr, 0
TestParameter, AutoAnalysis.Marker.Enabled, false
TestParameter, AutoAnalysis.Marker.Data.Var, 
TestParameter, AutoAnalysis.Marker.Data.Condition, 
TestParameter, AutoAnalysis.Marker.Data.Start, false
TestParameter, AutoAnalysis.Marker.Data.StartVar, 
TestParameter, AutoAnalysis.Marker.Data.StartCondition, 
MetaData, TestRecord.EntryPoint, true
MetaData, TestRecord.RecordTime, 03/06/2023 10:28:21
MetaData, TestRecord.TestTarget, 
MetaData, TestRecord.IterationIndex, 44
MetaData, TestRecord.Preservation, true
MetaData, TestRecord.Flag, 
MetaData, TestRecord.Remarks, 
MetaData, TestRecord.LinkKey, c9248e9d-55d5-45bf-9b38-31ec823d8fff
Dimension1, 101, 101, 101, 101, 101, 101
Dimension2, 1, 1, 1, 1, 1, 1
DataName, V3, I3, V1, I1, V2, I2
DataValue, -3, -3.3348E-10, , , , 
DataValue, -2.92, -1.4242E-10, , , , 
DataValue, -2.84, 7.994000000000001E-11, , , , 
DataValue, -2.7600000000000002, 2.2588000000000003E-10, , , , 
DataValue, -2.68, 6.576E-11, , , , 
DataValue, -2.6, -2.6549000000000003E-10, , , , 
DataValue, -2.52, -2.0394000000000002E-10, , , , 
DataValue, -2.44, 6.129E-11, , , , 
DataValue, -2.36, 2.4176E-10, , , , 
DataValue, -2.2800000000000002, 1.7937000000000002E-10, , , , 
DataValue, -2.2, -1.3204000000000002E-10, , , , 
DataValue, -2.12, -2.1336000000000003E-10, , , , 
DataValue, -2.04, 1.6070000000000002E-11, , , , 
DataValue, -1.96, 1.9295000000000002E-10, , , , 
DataValue, -1.8800000000000001, 2.6445E-10, , , , 
DataValue, -1.8, -4.7940000000000005E-11, , , , 
DataValue, -1.72, -2.0718000000000003E-10, , , , 
DataValue, -1.6400000000000001, 5.423E-11, , , , 
DataValue, -1.56, 2.4194E-10, , , , 
DataValue, -1.48, 1.4415000000000001E-10, , , , 
DataValue, -1.4000000000000001, -1.3683E-10, , , , 
DataValue, -1.32, -2.0546E-10, , , , 
DataValue, -1.24, 2.154E-11, , , , 
DataValue, -1.16, 2.0250000000000002E-10, , , , 
DataValue, -1.08, 2.4661000000000004E-10, , , , 
DataValue, -1, -5.6330000000000007E-11, , , , 
DataValue, -0.92, -1.8577000000000002E-10, , , , 
DataValue, -0.84, 1.209E-11, , , , 
DataValue, -0.76, 1.7777000000000002E-10, , , , 
DataValue, -0.68, 2.6610000000000004E-10, , , , 
DataValue, -0.6, -5.3000000000000006E-13, , , , 
DataValue, -0.52, -2.3408000000000003E-10, , , , 
DataValue, -0.44, -5.255E-11, , , , 
DataValue, -0.36, 1.0373000000000001E-10, , , , 
DataValue, -0.28, 2.4498E-10, , , , 
DataValue, -0.2, 5.801E-11, , , , 
DataValue, -0.12, -2.0657000000000002E-10, , , , 
DataValue, -0.04, -1.4763E-10, , , , 
DataValue, 0.04, 5.404E-11, , , , 
DataValue, 0.12, 2.2851000000000002E-10, , , , 
DataValue, 0.2, 1.4625E-10, , , , 
DataValue, 0.28, -3.011E-11, , , , 
DataValue, 0.36, -6.2020000000000009E-11, , , , 
DataValue, 0.44, 1.641E-11, , , , 
DataValue, 0.52, 1.619E-10, , , , 
DataValue, 0.6, 3.3765E-10, , , , 
DataValue, 0.68, 2.8597000000000005E-10, , , , 
DataValue, 0.76, 2.3260000000000003E-10, , , , 
DataValue, 0.84, 1.7048000000000002E-10, , , , 
DataValue, 0.92, 3.0846000000000004E-10, , , , 
DataValue, 1, 4.8543E-10, , , , 
DataValue, 1.08, 4.5582000000000003E-10, , , , 
DataValue, 1.16, 4.4529E-10, , , , 
DataValue, 1.24, 4.2498E-10, , , , 
DataValue, 1.32, 4.8204E-10, , , , 
DataValue, 1.4000000000000001, 6.9699000000000009E-10, , , , 
DataValue, 1.48, 8.3169E-10, , , , 
DataValue, 1.56, 8.2459E-10, , , , 
DataValue, 1.6400000000000001, 8.4649E-10, , , , 
DataValue, 1.72, 1.0683E-09, , , , 
DataValue, 1.8, 1.1473E-09, , , , 
DataValue, 1.8800000000000001, 1.2494E-09, , , , 
DataValue, 1.96, 1.4247E-09, , , , 
DataValue, 2.04, 1.697E-09, , , , 
DataValue, 2.12, 1.9512E-09, , , , 
DataValue, 2.2, 2.2049E-09, , , , 
DataValue, 2.2800000000000002, 2.5072E-09, , , , 
DataValue, 2.36, 2.952E-09, , , , 
DataValue, 2.44, 3.5017E-09, , , , 
DataValue, 2.52, 4.0975E-09, , , , 
DataValue, 2.6, 4.7404E-09, , , , 
DataValue, 2.68, 5.5526E-09, , , , 
DataValue, 2.7600000000000002, 6.6169E-09, , , , 
DataValue, 2.84, 7.8314E-09, , , , 
DataValue, 2.92, 9.1767E-09, , , , 
DataValue, 3, 1.0816E-08, , , , 
DataValue, 3.08, 1.2825399999999999E-08, , , , 
DataValue, 3.16, 1.5348199999999997E-08, , , , 
DataValue, 3.24, 1.83754E-08, , , , 
DataValue, 3.3200000000000003, 2.1872599999999998E-08, , , , 
DataValue, 3.4, 2.6342199999999996E-08, , , , 
DataValue, 3.48, 3.14446E-08, , , , 
DataValue, 3.56, 3.7850399999999993E-08, , , , 
DataValue, 3.64, 4.56136E-08, , , , 
DataValue, 3.72, 5.5440799999999996E-08, , , , 
DataValue, 3.8000000000000003, 7.28268E-08, , , , 
DataValue, 3.88, 1.019774E-07, , , , 
DataValue, 3.96, 1.5882E-07, , , , 
DataValue, 4.04, 2.289E-07, , , , 
DataValue, 4.12, 3.1942E-07, , , , 
DataValue, 4.2, 4.6464E-07, , , , 
DataValue, 4.28, 7.029E-07, , , , 
DataValue, 4.36, 9.973E-07, , , , 
DataValue, 4.44, 1.9761E-06, , , , 
DataValue, 4.5200000000000005, 2.577E-06, , , , 
DataValue, 4.6000000000000005, 3.3007000000000004E-06, , , , 
DataValue, 4.68, 4.1914E-06, , , , 
DataValue, 4.76, 6.311E-06, , , , 
DataValue, 4.84, 8.749E-06, , , , 
DataValue, 4.92, 1.558E-05, , , , 
DataValue, 5, 1.8204E-05, , , , 