
SetupTitle, Two Terminal IV Sweep
PrimitiveTest, I/V Sweep
TestParameter, Context.MainFrame, B1500A
TestParameter, Channel.UnitType, SMU, SMU
TestParameter, Channel.Unit, SMU3:MP, SMU4:MP
TestParameter, Channel.IName, I3, I4
TestParameter, Channel.VName, V3, V4
TestParameter, Channel.Mode, V, V
TestParameter, Channel.Func, VAR1, CONST
TestParameter, Channel.Index, 
TestParameter, Channel.Time, 
TestParameter, Measurement.Port.Unit, SMU3:MP, SMU4:MP
TestParameter, Measurement.Port.SeriesResistor, NONE, NONE
TestParameter, Measurement.Port.Filter, ON, ON
TestParameter, Measurement.Port.OutputVoltageComparison, 0, 0
TestParameter, Measurement.Primary.Locus, Single
TestParameter, Measurement.Primary.Scale, LINEAR
TestParameter, Measurement.Primary.Start, -3
TestParameter, Measurement.Primary.Stop, 5
TestParameter, Measurement.Primary.Step, 0.08
TestParameter, Measurement.Primary.Compliance, 0.01
TestParameter, Measurement.Primary.PowerCompliance, 0
TestParameter, Measurement.Aborting.Condition, CONTINUE AT ANY
TestParameter, Measurement.PostOutput.Value, START
TestParameter, Measurement.PostOutput.Retention, OFF
TestParameter, Measurement.Bias.Source, -3, 0
TestParameter, Measurement.Bias.Compliance, 0.01, 0.1
TestParameter, Measurement.Monitor.Unit, SMU3:MP, SMU4:MP
TestParameter, Measurement.Monitor.Adc, HR ADC, HR ADC
TestParameter, Measurement.Monitor.Measurement, Compliance Side, Compliance Side
TestParameter, Measurement.Monitor.RangingMode, LIMITED, LIMITED
TestParameter, Measurement.Monitor.RangeBoundary, 1nA, 1nA
TestParameter, Measurement.Monitor.RangeRating, BY FULL RANGE, BY FULL RANGE
TestParameter, Measurement.Monitor.RangeRatingCoeff, 50, 50
TestParameter, Measurement.Timing.Hold, 0
TestParameter, Measurement.Timing.Delay, 0
TestParameter, Measurement.Adc.HighSpeed.Mode, AUTO
TestParameter, Measurement.Adc.HighSpeed.Coeff, 1
TestParameter, Measurement.Adc.HighResolution.AutoZero, OFF
TestParameter, Measurement.Adc.HighResolution.Mode, AUTO
TestParameter, Measurement.Adc.HighResolution.Coeff, 6
TestParameter, Measurement.WaitTime.Source.Coeff, 1
TestParameter, Measurement.WaitTime.Source.Offset, 0
TestParameter, Measurement.WaitTime.Monitor.Coeff, 1
TestParameter, Measurement.WaitTime.Monitor.Offset, 0
TestParameter, Output.Graph.Enabled, true
TestParameter, Output.Graph.AutoScaling, false
TestParameter, Output.Graph.XAxis.Data, V3
TestParameter, Output.Graph.XAxis.Scale, Linear
TestParameter, Output.Graph.XAxis.Left, -5
TestParameter, Output.Graph.XAxis.Right, 5
TestParameter, Output.Graph.XAxis.RunTimeAutoScale, true
TestParameter, Output.Graph.YAxis.Data, I3
TestParameter, Output.Graph.YAxis.Scale, Linear
TestParameter, Output.Graph.YAxis.Bottom, -0.1
TestParameter, Output.Graph.YAxis.Top, 0.1
TestParameter, Output.Graph.YAxis.Group, 
TestParameter, Output.Graph.YAxis.RunTimeAutoScale, true
TestParameter, Output.List.Data, V1, I1, V2, I2
TestParameter, AutoAnalysis.Interpolation, false
TestParameter, AutoAnalysis.Line1.Enabled, false
TestParameter, AutoAnalysis.Line1.Type, 1
TestParameter, AutoAnalysis.Line1.Fix, True
TestParameter, AutoAnalysis.Line1.YAxis, 0
TestParameter, AutoAnalysis.Line1.Point1.Type, 0
TestParameter, AutoAnalysis.Line1.Point1.XY.X, 
TestParameter, AutoAnalysis.Line1.Point1.XY.Y, 
TestParameter, AutoAnalysis.Line1.Point1.Data.Var, 
TestParameter, AutoAnalysis.Line1.Point1.Data.Condition, 
TestParameter, AutoAnalysis.Line1.Point1.Data.Start, false
TestParameter, AutoAnalysis.Line1.Point1.Data.StartVar, 
TestParameter, AutoAnalysis.Line1.Point1.Data.StartCondition, 
TestParameter, AutoAnalysis.Line1.Point2.Type, 0
TestParameter, AutoAnalysis.Line1.Point2.XY.X, 
TestParameter, AutoAnalysis.Line1.Point2.XY.Y, 
TestParameter, AutoAnalysis.Line1.Point2.Data.Var, 
TestParameter, AutoAnalysis.Line1.Point2.Data.Condition, 
TestParameter, AutoAnalysis.Line1.Point2.Data.Start, false
TestParameter, AutoAnalysis.Line1.Point2.Data.StartVar, 
TestParameter, AutoAnalysis.Line1.Point2.Data.StartCondition, 
TestParameter, AutoAnalysis.Line1.GradientExpr, 0
TestParameter, AutoAnalysis.Line2.Enabled, false
TestParameter, AutoAnalysis.Line2.Type, 1
TestParameter, AutoAnalysis.Line2.Fix, True
TestParameter, AutoAnalysis.Line2.YAxis, 0
TestParameter, AutoAnalysis.Line2.Point1.Type, 0
TestParameter, AutoAnalysis.Line2.Point1.XY.X, 
TestParameter, AutoAnalysis.Line2.Point1.XY.Y, 
TestParameter, AutoAnalysis.Line2.Point1.Data.Var, 
TestParameter, AutoAnalysis.Line2.Point1.Data.Condition, 
TestParameter, AutoAnalysis.Line2.Point1.Data.Start, false
TestParameter, AutoAnalysis.Line2.Point1.Data.StartVar, 
TestParameter, AutoAnalysis.Line2.Point1.Data.StartCondition, 
TestParameter, AutoAnalysis.Line2.Point2.Type, 0
TestParameter, AutoAnalysis.Line2.Point2.XY.X, 
TestParameter, AutoAnalysis.Line2.Point2.XY.Y, 
TestParameter, AutoAnalysis.Line2.Point2.Data.Var, 
TestParameter, AutoAnalysis.Line2.Point2.Data.Condition, 
TestParameter, AutoAnalysis.Line2.Point2.Data.Start, false
TestParameter, AutoAnalysis.Line2.Point2.Data.StartVar, 
TestParameter, AutoAnalysis.Line2.Point2.Data.StartCondition, 
TestParameter, AutoAnalysis.Line2.GradientExpr, 0
TestParameter, AutoAnalysis.Marker.Enabled, false
TestParameter, AutoAnalysis.Marker.Data.Var, 
TestParameter, AutoAnalysis.Marker.Data.Condition, 
TestParameter, AutoAnalysis.Marker.Data.Start, false
TestParameter, AutoAnalysis.Marker.Data.StartVar, 
TestParameter, AutoAnalysis.Marker.Data.StartCondition, 
MetaData, TestRecord.EntryPoint, true
MetaData, TestRecord.RecordTime, 03/06/2023 10:24:50
MetaData, TestRecord.TestTarget, 
MetaData, TestRecord.IterationIndex, 40
MetaData, TestRecord.Preservation, true
MetaData, TestRecord.Flag, 
MetaData, TestRecord.Remarks, 
MetaData, TestRecord.LinkKey, 3ef60a64-80c2-4960-9351-2f649df24c03
Dimension1, 101, 101, 101, 101, 101, 101
Dimension2, 1, 1, 1, 1, 1, 1
DataName, V3, I3, V1, I1, V2, I2
DataValue, -3, -6.4078599999999993E-08, , , , 
DataValue, -2.92, -5.8465599999999994E-08, , , , 
DataValue, -2.84, -5.9251599999999992E-08, , , , 
DataValue, -2.7600000000000002, -6.2018399999999988E-08, , , , 
DataValue, -2.68, -5.61986E-08, , , , 
DataValue, -2.6, -5.69248E-08, , , , 
DataValue, -2.52, -5.9136599999999994E-08, , , , 
DataValue, -2.44, -5.45542E-08, , , , 
DataValue, -2.36, -5.5509199999999995E-08, , , , 
DataValue, -2.2800000000000002, -5.8390599999999995E-08, , , , 
DataValue, -2.2, -5.3131399999999996E-08, , , , 
DataValue, -2.12, -5.4250799999999996E-08, , , , 
DataValue, -2.04, -5.7276599999999996E-08, , , , 
DataValue, -1.96, -5.2202599999999993E-08, , , , 
DataValue, -1.8800000000000001, -5.3261599999999996E-08, , , , 
DataValue, -1.8, -5.4788599999999993E-08, , , , 
DataValue, -1.72, -5.2651399999999995E-08, , , , 
DataValue, -1.6400000000000001, -5.3286199999999996E-08, , , , 
DataValue, -1.56, -5.3353399999999997E-08, , , , 
DataValue, -1.48, -5.2589799999999992E-08, , , , 
DataValue, -1.4000000000000001, -5.4857999999999994E-08, , , , 
DataValue, -1.32, -5.0415399999999994E-08, , , , 
DataValue, -1.24, -5.1763799999999995E-08, , , , 
DataValue, -1.16, -5.4648199999999992E-08, , , , 
DataValue, -1.08, -5.01028E-08, , , , 
DataValue, -1, -5.1404199999999993E-08, , , , 
DataValue, -0.92, -5.2562999999999992E-08, , , , 
DataValue, -0.84, -5.0935399999999994E-08, , , , 
DataValue, -0.76, -5.1661199999999993E-08, , , , 
DataValue, -0.68, -5.1433199999999992E-08, , , , 
DataValue, -0.6, -5.08526E-08, , , , 
DataValue, -0.52, -5.2019999999999992E-08, , , , 
DataValue, -0.44, -4.9948799999999995E-08, , , , 
DataValue, -0.36, -5.0429599999999994E-08, , , , 
DataValue, -0.28, -5.2099999999999997E-08, , , , 
DataValue, -0.2, -4.8402199999999996E-08, , , , 
DataValue, -0.12, -4.7452399999999995E-08, , , , 
DataValue, -0.04, -4.2374999999999994E-08, , , , 
DataValue, 0.04, -2.45286E-08, , , , 
DataValue, 0.12, -1.0839799999999999E-08, , , , 
DataValue, 0.2, -4.0494E-09, , , , 
DataValue, 0.28, -1.3257E-09, , , , 
DataValue, 0.36, -9.348000000000001E-11, , , , 
DataValue, 0.44, 5.9026000000000009E-10, , , , 
DataValue, 0.52, 1.1358E-09, , , , 
DataValue, 0.6, 1.3541E-09, , , , 
DataValue, 0.68, 1.6088E-09, , , , 
DataValue, 0.76, 1.7588E-09, , , , 
DataValue, 0.84, 2.0221E-09, , , , 
DataValue, 0.92, 2.2081E-09, , , , 
DataValue, 1, 2.3142E-09, , , , 
DataValue, 1.08, 2.643E-09, , , , 
DataValue, 1.16, 2.8934E-09, , , , 
DataValue, 1.24, 3.306E-09, , , , 
DataValue, 1.32, 3.6485E-09, , , , 
DataValue, 1.4000000000000001, 3.9935E-09, , , , 
DataValue, 1.48, 4.5851E-09, , , , 
DataValue, 1.56, 5.1811E-09, , , , 
DataValue, 1.6400000000000001, 6.0115E-09, , , , 
DataValue, 1.72, 6.8581E-09, , , , 
DataValue, 1.8, 7.8257E-09, , , , 
DataValue, 1.8800000000000001, 9.1838E-09, , , , 
DataValue, 1.96, 1.06865E-08, , , , 
DataValue, 2.04, 1.2568399999999999E-08, , , , 
DataValue, 2.12, 1.4999799999999998E-08, , , , 
DataValue, 2.2, 1.76798E-08, , , , 
DataValue, 2.2800000000000002, 2.1237999999999998E-08, , , , 
DataValue, 2.36, 2.54818E-08, , , , 
DataValue, 2.44, 3.03224E-08, , , , 
DataValue, 2.52, 3.65698E-08, , , , 
DataValue, 2.6, 4.3957599999999994E-08, , , , 
DataValue, 2.68, 5.28032E-08, , , , 
DataValue, 2.7600000000000002, 6.36814E-08, , , , 
DataValue, 2.84, 7.5300399999999988E-08, , , , 
DataValue, 2.92, 9.0874799999999987E-08, , , , 
DataValue, 3, 1.0919459999999998E-07, , , , 
DataValue, 3.08, 1.3026E-07, , , , 
DataValue, 3.16, 1.5644E-07, , , , 
DataValue, 3.24, 1.9036E-07, , , , 
DataValue, 3.3200000000000003, 2.3255999999999999E-07, , , , 
DataValue, 3.4, 2.8376E-07, , , , 
DataValue, 3.48, 3.4881999999999997E-07, , , , 
DataValue, 3.56, 4.4226E-07, , , , 
DataValue, 3.64, 5.6044E-07, , , , 
DataValue, 3.72, 7.172E-07, , , , 
DataValue, 3.8000000000000003, 9.4749999999999993E-07, , , , 
DataValue, 3.88, 1.3029E-06, , , , 
DataValue, 3.96, 1.7126000000000001E-06, , , , 
DataValue, 4.04, 2.2876000000000003E-06, , , , 
DataValue, 4.12, 3.103E-06, , , , 
DataValue, 4.2, 4.2384000000000008E-06, , , , 
DataValue, 4.28, 5.7642000000000006E-06, , , , 
DataValue, 4.36, 7.773E-06, , , , 
DataValue, 4.44, 1.0256100000000002E-05, , , , 
DataValue, 4.5200000000000005, 1.5754000000000002E-05, , , , 
DataValue, 4.6000000000000005, 1.9428E-05, , , , 
DataValue, 4.68, 2.4378E-05, , , , 
DataValue, 4.76, 2.9932E-05, , , , 
DataValue, 4.84, 3.8526000000000003E-05, , , , 
DataValue, 4.92, 4.6474E-05, , , , 
DataValue, 5, 5.9302E-05, , , , 