
SetupTitle, Two Terminal IV Sweep
PrimitiveTest, I/V Sweep
TestParameter, Context.MainFrame, B1500A
TestParameter, Channel.UnitType, SMU, SMU
TestParameter, Channel.Unit, SMU3:MP, SMU4:MP
TestParameter, Channel.IName, I3, I4
TestParameter, Channel.VName, V3, V4
TestParameter, Channel.Mode, V, V
TestParameter, Channel.Func, VAR1, CONST
TestParameter, Channel.Index, 
TestParameter, Channel.Time, 
TestParameter, Measurement.Port.Unit, SMU3:MP, SMU4:MP
TestParameter, Measurement.Port.SeriesResistor, NONE, NONE
TestParameter, Measurement.Port.Filter, ON, ON
TestParameter, Measurement.Port.OutputVoltageComparison, 0, 0
TestParameter, Measurement.Primary.Locus, Single
TestParameter, Measurement.Primary.Scale, LINEAR
TestParameter, Measurement.Primary.Start, -3
TestParameter, Measurement.Primary.Stop, 5
TestParameter, Measurement.Primary.Step, 0.08
TestParameter, Measurement.Primary.Compliance, 0.01
TestParameter, Measurement.Primary.PowerCompliance, 0
TestParameter, Measurement.Aborting.Condition, CONTINUE AT ANY
TestParameter, Measurement.PostOutput.Value, START
TestParameter, Measurement.PostOutput.Retention, OFF
TestParameter, Measurement.Bias.Source, -3, 0
TestParameter, Measurement.Bias.Compliance, 0.01, 0.1
TestParameter, Measurement.Monitor.Unit, SMU3:MP, SMU4:MP
TestParameter, Measurement.Monitor.Adc, HR ADC, HR ADC
TestParameter, Measurement.Monitor.Measurement, Compliance Side, Compliance Side
TestParameter, Measurement.Monitor.RangingMode, LIMITED, LIMITED
TestParameter, Measurement.Monitor.RangeBoundary, 1nA, 1nA
TestParameter, Measurement.Monitor.RangeRating, BY FULL RANGE, BY FULL RANGE
TestParameter, Measurement.Monitor.RangeRatingCoeff, 50, 50
TestParameter, Measurement.Timing.Hold, 0
TestParameter, Measurement.Timing.Delay, 0
TestParameter, Measurement.Adc.HighSpeed.Mode, AUTO
TestParameter, Measurement.Adc.HighSpeed.Coeff, 1
TestParameter, Measurement.Adc.HighResolution.AutoZero, OFF
TestParameter, Measurement.Adc.HighResolution.Mode, AUTO
TestParameter, Measurement.Adc.HighResolution.Coeff, 6
TestParameter, Measurement.WaitTime.Source.Coeff, 1
TestParameter, Measurement.WaitTime.Source.Offset, 0
TestParameter, Measurement.WaitTime.Monitor.Coeff, 1
TestParameter, Measurement.WaitTime.Monitor.Offset, 0
TestParameter, Output.Graph.Enabled, true
TestParameter, Output.Graph.AutoScaling, false
TestParameter, Output.Graph.XAxis.Data, V3
TestParameter, Output.Graph.XAxis.Scale, Linear
TestParameter, Output.Graph.XAxis.Left, -5
TestParameter, Output.Graph.XAxis.Right, 5
TestParameter, Output.Graph.XAxis.RunTimeAutoScale, true
TestParameter, Output.Graph.YAxis.Data, I3
TestParameter, Output.Graph.YAxis.Scale, Linear
TestParameter, Output.Graph.YAxis.Bottom, -0.1
TestParameter, Output.Graph.YAxis.Top, 0.1
TestParameter, Output.Graph.YAxis.Group, 
TestParameter, Output.Graph.YAxis.RunTimeAutoScale, true
TestParameter, Output.List.Data, V1, I1, V2, I2
TestParameter, AutoAnalysis.Interpolation, false
TestParameter, AutoAnalysis.Line1.Enabled, false
TestParameter, AutoAnalysis.Line1.Type, 1
TestParameter, AutoAnalysis.Line1.Fix, True
TestParameter, AutoAnalysis.Line1.YAxis, 0
TestParameter, AutoAnalysis.Line1.Point1.Type, 0
TestParameter, AutoAnalysis.Line1.Point1.XY.X, 
TestParameter, AutoAnalysis.Line1.Point1.XY.Y, 
TestParameter, AutoAnalysis.Line1.Point1.Data.Var, 
TestParameter, AutoAnalysis.Line1.Point1.Data.Condition, 
TestParameter, AutoAnalysis.Line1.Point1.Data.Start, false
TestParameter, AutoAnalysis.Line1.Point1.Data.StartVar, 
TestParameter, AutoAnalysis.Line1.Point1.Data.StartCondition, 
TestParameter, AutoAnalysis.Line1.Point2.Type, 0
TestParameter, AutoAnalysis.Line1.Point2.XY.X, 
TestParameter, AutoAnalysis.Line1.Point2.XY.Y, 
TestParameter, AutoAnalysis.Line1.Point2.Data.Var, 
TestParameter, AutoAnalysis.Line1.Point2.Data.Condition, 
TestParameter, AutoAnalysis.Line1.Point2.Data.Start, false
TestParameter, AutoAnalysis.Line1.Point2.Data.StartVar, 
TestParameter, AutoAnalysis.Line1.Point2.Data.StartCondition, 
TestParameter, AutoAnalysis.Line1.GradientExpr, 0
TestParameter, AutoAnalysis.Line2.Enabled, false
TestParameter, AutoAnalysis.Line2.Type, 1
TestParameter, AutoAnalysis.Line2.Fix, True
TestParameter, AutoAnalysis.Line2.YAxis, 0
TestParameter, AutoAnalysis.Line2.Point1.Type, 0
TestParameter, AutoAnalysis.Line2.Point1.XY.X, 
TestParameter, AutoAnalysis.Line2.Point1.XY.Y, 
TestParameter, AutoAnalysis.Line2.Point1.Data.Var, 
TestParameter, AutoAnalysis.Line2.Point1.Data.Condition, 
TestParameter, AutoAnalysis.Line2.Point1.Data.Start, false
TestParameter, AutoAnalysis.Line2.Point1.Data.StartVar, 
TestParameter, AutoAnalysis.Line2.Point1.Data.StartCondition, 
TestParameter, AutoAnalysis.Line2.Point2.Type, 0
TestParameter, AutoAnalysis.Line2.Point2.XY.X, 
TestParameter, AutoAnalysis.Line2.Point2.XY.Y, 
TestParameter, AutoAnalysis.Line2.Point2.Data.Var, 
TestParameter, AutoAnalysis.Line2.Point2.Data.Condition, 
TestParameter, AutoAnalysis.Line2.Point2.Data.Start, false
TestParameter, AutoAnalysis.Line2.Point2.Data.StartVar, 
TestParameter, AutoAnalysis.Line2.Point2.Data.StartCondition, 
TestParameter, AutoAnalysis.Line2.GradientExpr, 0
TestParameter, AutoAnalysis.Marker.Enabled, false
TestParameter, AutoAnalysis.Marker.Data.Var, 
TestParameter, AutoAnalysis.Marker.Data.Condition, 
TestParameter, AutoAnalysis.Marker.Data.Start, false
TestParameter, AutoAnalysis.Marker.Data.StartVar, 
TestParameter, AutoAnalysis.Marker.Data.StartCondition, 
MetaData, TestRecord.EntryPoint, true
MetaData, TestRecord.RecordTime, 03/06/2023 10:26:11
MetaData, TestRecord.TestTarget, 
MetaData, TestRecord.IterationIndex, 42
MetaData, TestRecord.Preservation, true
MetaData, TestRecord.Flag, 
MetaData, TestRecord.Remarks, 
MetaData, TestRecord.LinkKey, 424d903d-c63b-4e6c-82aa-fff62b5e6489
Dimension1, 101, 101, 101, 101, 101, 101
Dimension2, 1, 1, 1, 1, 1, 1
DataName, V3, I3, V1, I1, V2, I2
DataValue, -3, -9.065799999999999E-08, , , , 
DataValue, -2.92, -8.4831999999999988E-08, , , , 
DataValue, -2.84, -8.17374E-08, , , , 
DataValue, -2.7600000000000002, -7.7631799999999992E-08, , , , 
DataValue, -2.68, -7.5608599999999991E-08, , , , 
DataValue, -2.6, -7.10288E-08, , , , 
DataValue, -2.52, -6.7144399999999991E-08, , , , 
DataValue, -2.44, -6.6524399999999989E-08, , , , 
DataValue, -2.36, -6.2476599999999989E-08, , , , 
DataValue, -2.2800000000000002, -5.9597399999999996E-08, , , , 
DataValue, -2.2, -5.6075199999999995E-08, , , , 
DataValue, -2.12, -5.46002E-08, , , , 
DataValue, -2.04, -5.3653399999999993E-08, , , , 
DataValue, -1.96, -4.9767E-08, , , , 
DataValue, -1.8800000000000001, -4.7381799999999996E-08, , , , 
DataValue, -1.8, -4.7324399999999996E-08, , , , 
DataValue, -1.72, -4.4559799999999992E-08, , , , 
DataValue, -1.6400000000000001, -4.26498E-08, , , , 
DataValue, -1.56, -4.0580799999999994E-08, , , , 
DataValue, -1.48, -3.9327E-08, , , , 
DataValue, -1.4000000000000001, -3.94048E-08, , , , 
DataValue, -1.32, -3.6923399999999994E-08, , , , 
DataValue, -1.24, -3.50808E-08, , , , 
DataValue, -1.16, -3.5213199999999997E-08, , , , 
DataValue, -1.08, -3.34692E-08, , , , 
DataValue, -1, -3.23728E-08, , , , 
DataValue, -0.92, -3.0503199999999996E-08, , , , 
DataValue, -0.84, -2.98622E-08, , , , 
DataValue, -0.76, -2.8977599999999998E-08, , , , 
DataValue, -0.68, -2.8710799999999997E-08, , , , 
DataValue, -0.6, -2.83626E-08, , , , 
DataValue, -0.52, -2.8828E-08, , , , 
DataValue, -0.44, -2.7150599999999998E-08, , , , 
DataValue, -0.36, -2.7071399999999996E-08, , , , 
DataValue, -0.28, -2.7910799999999997E-08, , , , 
DataValue, -0.2, -2.46358E-08, , , , 
DataValue, -0.12, -2.0494799999999998E-08, , , , 
DataValue, -0.04, -1.4715199999999999E-08, , , , 
DataValue, 0.04, -7.7063E-09, , , , 
DataValue, 0.12, -2.9741E-09, , , , 
DataValue, 0.2, -9.985E-10, , , , 
DataValue, 0.28, -1.0690000000000001E-10, , , , 
DataValue, 0.36, 3.4773000000000005E-10, , , , 
DataValue, 0.44, 7.2287E-10, , , , 
DataValue, 0.52, 9.5329000000000013E-10, , , , 
DataValue, 0.6, 1.0988E-09, , , , 
DataValue, 0.68, 1.2578E-09, , , , 
DataValue, 0.76, 1.3534E-09, , , , 
DataValue, 0.84, 1.533E-09, , , , 
DataValue, 0.92, 1.7002E-09, , , , 
DataValue, 1, 1.8582E-09, , , , 
DataValue, 1.08, 2.102E-09, , , , 
DataValue, 1.16, 2.3198E-09, , , , 
DataValue, 1.24, 2.6456E-09, , , , 
DataValue, 1.32, 2.9881E-09, , , , 
DataValue, 1.4000000000000001, 3.4167E-09, , , , 
DataValue, 1.48, 3.9513E-09, , , , 
DataValue, 1.56, 4.5485E-09, , , , 
DataValue, 1.6400000000000001, 5.3572E-09, , , , 
DataValue, 1.72, 6.2781E-09, , , , 
DataValue, 1.8, 7.3269E-09, , , , 
DataValue, 1.8800000000000001, 8.7047E-09, , , , 
DataValue, 1.96, 1.03899E-08, , , , 
DataValue, 2.04, 1.2139999999999998E-08, , , , 
DataValue, 2.12, 1.4753799999999998E-08, , , , 
DataValue, 2.2, 1.7488599999999997E-08, , , , 
DataValue, 2.2800000000000002, 2.11116E-08, , , , 
DataValue, 2.36, 2.5320799999999998E-08, , , , 
DataValue, 2.44, 3.0455199999999995E-08, , , , 
DataValue, 2.52, 3.7273399999999994E-08, , , , 
DataValue, 2.6, 4.4554799999999993E-08, , , , 
DataValue, 2.68, 5.21574E-08, , , , 
DataValue, 2.7600000000000002, 6.1365E-08, , , , 
DataValue, 2.84, 7.2023599999999989E-08, , , , 
DataValue, 2.92, 8.9954999999999987E-08, , , , 
DataValue, 3, 1.0302559999999999E-07, , , , 
DataValue, 3.08, 1.2442E-07, , , , 
DataValue, 3.16, 1.4924E-07, , , , 
DataValue, 3.24, 1.8382E-07, , , , 
DataValue, 3.3200000000000003, 2.2475999999999998E-07, , , , 
DataValue, 3.4, 2.7856E-07, , , , 
DataValue, 3.48, 3.4545999999999997E-07, , , , 
DataValue, 3.56, 4.2771999999999997E-07, , , , 
DataValue, 3.64, 5.3632E-07, , , , 
DataValue, 3.72, 6.5948E-07, , , , 
DataValue, 3.8000000000000003, 8.3052E-07, , , , 
DataValue, 3.88, 1.05112E-06, , , , 
DataValue, 3.96, 1.3541E-06, , , , 
DataValue, 4.04, 1.7273000000000002E-06, , , , 
DataValue, 4.12, 2.2185E-06, , , , 
DataValue, 4.2, 2.7124E-06, , , , 
DataValue, 4.28, 3.5434000000000002E-06, , , , 
DataValue, 4.36, 4.5758E-06, , , , 
DataValue, 4.44, 5.8639000000000007E-06, , , , 
DataValue, 4.5200000000000005, 7.6461000000000012E-06, , , , 
DataValue, 4.6000000000000005, 9.8202000000000013E-06, , , , 
DataValue, 4.68, 1.3996000000000001E-05, , , , 
DataValue, 4.76, 1.6704E-05, , , , 
DataValue, 4.84, 2.1108000000000002E-05, , , , 
DataValue, 4.92, 2.6518000000000003E-05, , , , 
DataValue, 5, 3.395E-05, , , , 