
SetupTitle, Two Terminal IV Sweep
PrimitiveTest, I/V Sweep
TestParameter, Context.MainFrame, B1500A
TestParameter, Channel.UnitType, SMU, SMU
TestParameter, Channel.Unit, SMU3:MP, SMU4:MP
TestParameter, Channel.IName, I3, I4
TestParameter, Channel.VName, V3, V4
TestParameter, Channel.Mode, V, V
TestParameter, Channel.Func, VAR1, CONST
TestParameter, Channel.Index, 
TestParameter, Channel.Time, 
TestParameter, Measurement.Port.Unit, SMU3:MP, SMU4:MP
TestParameter, Measurement.Port.SeriesResistor, NONE, NONE
TestParameter, Measurement.Port.Filter, ON, ON
TestParameter, Measurement.Port.OutputVoltageComparison, 0, 0
TestParameter, Measurement.Primary.Locus, Single
TestParameter, Measurement.Primary.Scale, LINEAR
TestParameter, Measurement.Primary.Start, -3
TestParameter, Measurement.Primary.Stop, 5
TestParameter, Measurement.Primary.Step, 0.08
TestParameter, Measurement.Primary.Compliance, 0.01
TestParameter, Measurement.Primary.PowerCompliance, 0
TestParameter, Measurement.Aborting.Condition, CONTINUE AT ANY
TestParameter, Measurement.PostOutput.Value, START
TestParameter, Measurement.PostOutput.Retention, OFF
TestParameter, Measurement.Bias.Source, -3, 0
TestParameter, Measurement.Bias.Compliance, 0.01, 0.1
TestParameter, Measurement.Monitor.Unit, SMU3:MP, SMU4:MP
TestParameter, Measurement.Monitor.Adc, HR ADC, HR ADC
TestParameter, Measurement.Monitor.Measurement, Compliance Side, Compliance Side
TestParameter, Measurement.Monitor.RangingMode, LIMITED, LIMITED
TestParameter, Measurement.Monitor.RangeBoundary, 1nA, 1nA
TestParameter, Measurement.Monitor.RangeRating, BY FULL RANGE, BY FULL RANGE
TestParameter, Measurement.Monitor.RangeRatingCoeff, 50, 50
TestParameter, Measurement.Timing.Hold, 0
TestParameter, Measurement.Timing.Delay, 0
TestParameter, Measurement.Adc.HighSpeed.Mode, AUTO
TestParameter, Measurement.Adc.HighSpeed.Coeff, 1
TestParameter, Measurement.Adc.HighResolution.AutoZero, OFF
TestParameter, Measurement.Adc.HighResolution.Mode, AUTO
TestParameter, Measurement.Adc.HighResolution.Coeff, 6
TestParameter, Measurement.WaitTime.Source.Coeff, 1
TestParameter, Measurement.WaitTime.Source.Offset, 0
TestParameter, Measurement.WaitTime.Monitor.Coeff, 1
TestParameter, Measurement.WaitTime.Monitor.Offset, 0
TestParameter, Output.Graph.Enabled, true
TestParameter, Output.Graph.AutoScaling, false
TestParameter, Output.Graph.XAxis.Data, V3
TestParameter, Output.Graph.XAxis.Scale, Linear
TestParameter, Output.Graph.XAxis.Left, -5
TestParameter, Output.Graph.XAxis.Right, 5
TestParameter, Output.Graph.XAxis.RunTimeAutoScale, true
TestParameter, Output.Graph.YAxis.Data, I3
TestParameter, Output.Graph.YAxis.Scale, Linear
TestParameter, Output.Graph.YAxis.Bottom, -0.1
TestParameter, Output.Graph.YAxis.Top, 0.1
TestParameter, Output.Graph.YAxis.Group, 
TestParameter, Output.Graph.YAxis.RunTimeAutoScale, true
TestParameter, Output.List.Data, V1, I1, V2, I2
TestParameter, AutoAnalysis.Interpolation, false
TestParameter, AutoAnalysis.Line1.Enabled, false
TestParameter, AutoAnalysis.Line1.Type, 1
TestParameter, AutoAnalysis.Line1.Fix, True
TestParameter, AutoAnalysis.Line1.YAxis, 0
TestParameter, AutoAnalysis.Line1.Point1.Type, 0
TestParameter, AutoAnalysis.Line1.Point1.XY.X, 
TestParameter, AutoAnalysis.Line1.Point1.XY.Y, 
TestParameter, AutoAnalysis.Line1.Point1.Data.Var, 
TestParameter, AutoAnalysis.Line1.Point1.Data.Condition, 
TestParameter, AutoAnalysis.Line1.Point1.Data.Start, false
TestParameter, AutoAnalysis.Line1.Point1.Data.StartVar, 
TestParameter, AutoAnalysis.Line1.Point1.Data.StartCondition, 
TestParameter, AutoAnalysis.Line1.Point2.Type, 0
TestParameter, AutoAnalysis.Line1.Point2.XY.X, 
TestParameter, AutoAnalysis.Line1.Point2.XY.Y, 
TestParameter, AutoAnalysis.Line1.Point2.Data.Var, 
TestParameter, AutoAnalysis.Line1.Point2.Data.Condition, 
TestParameter, AutoAnalysis.Line1.Point2.Data.Start, false
TestParameter, AutoAnalysis.Line1.Point2.Data.StartVar, 
TestParameter, AutoAnalysis.Line1.Point2.Data.StartCondition, 
TestParameter, AutoAnalysis.Line1.GradientExpr, 0
TestParameter, AutoAnalysis.Line2.Enabled, false
TestParameter, AutoAnalysis.Line2.Type, 1
TestParameter, AutoAnalysis.Line2.Fix, True
TestParameter, AutoAnalysis.Line2.YAxis, 0
TestParameter, AutoAnalysis.Line2.Point1.Type, 0
TestParameter, AutoAnalysis.Line2.Point1.XY.X, 
TestParameter, AutoAnalysis.Line2.Point1.XY.Y, 
TestParameter, AutoAnalysis.Line2.Point1.Data.Var, 
TestParameter, AutoAnalysis.Line2.Point1.Data.Condition, 
TestParameter, AutoAnalysis.Line2.Point1.Data.Start, false
TestParameter, AutoAnalysis.Line2.Point1.Data.StartVar, 
TestParameter, AutoAnalysis.Line2.Point1.Data.StartCondition, 
TestParameter, AutoAnalysis.Line2.Point2.Type, 0
TestParameter, AutoAnalysis.Line2.Point2.XY.X, 
TestParameter, AutoAnalysis.Line2.Point2.XY.Y, 
TestParameter, AutoAnalysis.Line2.Point2.Data.Var, 
TestParameter, AutoAnalysis.Line2.Point2.Data.Condition, 
TestParameter, AutoAnalysis.Line2.Point2.Data.Start, false
TestParameter, AutoAnalysis.Line2.Point2.Data.StartVar, 
TestParameter, AutoAnalysis.Line2.Point2.Data.StartCondition, 
TestParameter, AutoAnalysis.Line2.GradientExpr, 0
TestParameter, AutoAnalysis.Marker.Enabled, false
TestParameter, AutoAnalysis.Marker.Data.Var, 
TestParameter, AutoAnalysis.Marker.Data.Condition, 
TestParameter, AutoAnalysis.Marker.Data.Start, false
TestParameter, AutoAnalysis.Marker.Data.StartVar, 
TestParameter, AutoAnalysis.Marker.Data.StartCondition, 
MetaData, TestRecord.EntryPoint, true
MetaData, TestRecord.RecordTime, 03/06/2023 10:25:32
MetaData, TestRecord.TestTarget, 
MetaData, TestRecord.IterationIndex, 41
MetaData, TestRecord.Preservation, true
MetaData, TestRecord.Flag, 
MetaData, TestRecord.Remarks, 
MetaData, TestRecord.LinkKey, 6af76f51-5f7c-4557-8d8a-b5dd8a635723
Dimension1, 101, 101, 101, 101, 101, 101
Dimension2, 1, 1, 1, 1, 1, 1
DataName, V3, I3, V1, I1, V2, I2
DataValue, -3, -6.2513599999999991E-08, , , , 
DataValue, -2.92, -5.9186399999999993E-08, , , , 
DataValue, -2.84, -5.4048999999999996E-08, , , , 
DataValue, -2.7600000000000002, -5.0640799999999992E-08, , , , 
DataValue, -2.68, -4.6819E-08, , , , 
DataValue, -2.6, -4.33448E-08, , , , 
DataValue, -2.52, -4.0979799999999996E-08, , , , 
DataValue, -2.44, -3.6677199999999996E-08, , , , 
DataValue, -2.36, -3.5109399999999995E-08, , , , 
DataValue, -2.2800000000000002, -3.0154999999999994E-08, , , , 
DataValue, -2.2, -2.7309599999999996E-08, , , , 
DataValue, -2.12, -2.49256E-08, , , , 
DataValue, -2.04, -2.3796599999999996E-08, , , , 
DataValue, -1.96, -2.0981799999999998E-08, , , , 
DataValue, -1.8800000000000001, -1.9876E-08, , , , 
DataValue, -1.8, -1.77394E-08, , , , 
DataValue, -1.72, -1.6025199999999997E-08, , , , 
DataValue, -1.6400000000000001, -1.4998399999999998E-08, , , , 
DataValue, -1.56, -1.2934999999999998E-08, , , , 
DataValue, -1.48, -1.2136799999999999E-08, , , , 
DataValue, -1.4000000000000001, -1.08764E-08, , , , 
DataValue, -1.32, -9.9471999999999989E-09, , , , 
DataValue, -1.24, -8.7592E-09, , , , 
DataValue, -1.16, -7.4369E-09, , , , 
DataValue, -1.08, -6.0952E-09, , , , 
DataValue, -1, -5.053E-09, , , , 
DataValue, -0.92, -4.5451E-09, , , , 
DataValue, -0.84, -4.23E-09, , , , 
DataValue, -0.76, -2.9702E-09, , , , 
DataValue, -0.68, -1.9503E-09, , , , 
DataValue, -0.6, -1.5245E-09, , , , 
DataValue, -0.52, -1.6493E-09, , , , 
DataValue, -0.44, -1.1348E-09, , , , 
DataValue, -0.36, -9.85E-10, , , , 
DataValue, -0.28, -4.0053E-10, , , , 
DataValue, -0.2, -5.4519000000000006E-10, , , , 
DataValue, -0.12, -3.5731000000000003E-10, , , , 
DataValue, -0.04, -1.857E-11, , , , 
DataValue, 0.04, 1.6339000000000002E-10, , , , 
DataValue, 0.12, 2.1824000000000001E-10, , , , 
DataValue, 0.2, 2.3358000000000004E-10, , , , 
DataValue, 0.28, 2.1052000000000001E-10, , , , 
DataValue, 0.36, 2.7060000000000003E-10, , , , 
DataValue, 0.44, 3.9281E-10, , , , 
DataValue, 0.52, 4.7475E-10, , , , 
DataValue, 0.6, 4.8173000000000005E-10, , , , 
DataValue, 0.68, 4.3301000000000004E-10, , , , 
DataValue, 0.76, 5.1459000000000008E-10, , , , 
DataValue, 0.84, 6.612900000000001E-10, , , , 
DataValue, 0.92, 7.8432E-10, , , , 
DataValue, 1, 7.3231E-10, , , , 
DataValue, 1.08, 9.0432E-10, , , , 
DataValue, 1.16, 9.519E-10, , , , 
DataValue, 1.24, 1.0409E-09, , , , 
DataValue, 1.32, 1.2188E-09, , , , 
DataValue, 1.4000000000000001, 1.429E-09, , , , 
DataValue, 1.48, 1.5563E-09, , , , 
DataValue, 1.56, 1.7139E-09, , , , 
DataValue, 1.6400000000000001, 1.9108E-09, , , , 
DataValue, 1.72, 2.2237E-09, , , , 
DataValue, 1.8, 2.6128E-09, , , , 
DataValue, 1.8800000000000001, 2.9152E-09, , , , 
DataValue, 1.96, 3.2962E-09, , , , 
DataValue, 2.04, 3.7437E-09, , , , 
DataValue, 2.12, 4.3871E-09, , , , 
DataValue, 2.2, 5.1729E-09, , , , 
DataValue, 2.2800000000000002, 5.9054E-09, , , , 
DataValue, 2.36, 6.777E-09, , , , 
DataValue, 2.44, 7.8939E-09, , , , 
DataValue, 2.52, 9.3094E-09, , , , 
DataValue, 2.6, 1.1015E-08, , , , 
DataValue, 2.68, 1.28564E-08, , , , 
DataValue, 2.7600000000000002, 1.5074199999999997E-08, , , , 
DataValue, 2.84, 1.7746599999999998E-08, , , , 
DataValue, 2.92, 2.1140999999999997E-08, , , , 
DataValue, 3, 2.4866999999999997E-08, , , , 
DataValue, 3.08, 2.9531999999999996E-08, , , , 
DataValue, 3.16, 3.49872E-08, , , , 
DataValue, 3.24, 4.1373199999999994E-08, , , , 
DataValue, 3.3200000000000003, 4.9238599999999993E-08, , , , 
DataValue, 3.4, 5.8810599999999995E-08, , , , 
DataValue, 3.48, 7.0844199999999993E-08, , , , 
DataValue, 3.56, 8.5969399999999989E-08, , , , 
DataValue, 3.64, 1.100096E-07, , , , 
DataValue, 3.72, 1.3266E-07, , , , 
DataValue, 3.8000000000000003, 1.8346E-07, , , , 
DataValue, 3.88, 2.5492E-07, , , , 
DataValue, 3.96, 3.7236E-07, , , , 
DataValue, 4.04, 5.1138E-07, , , , 
DataValue, 4.12, 7.122E-07, , , , 
DataValue, 4.2, 9.973E-07, , , , 
DataValue, 4.28, 1.3754000000000002E-06, , , , 
DataValue, 4.36, 2.2165000000000003E-06, , , , 
DataValue, 4.44, 2.8812000000000005E-06, , , , 
DataValue, 4.5200000000000005, 4.7460000000000008E-06, , , , 
DataValue, 4.6000000000000005, 6.2527E-06, , , , 
DataValue, 4.68, 8.8346E-06, , , , 
DataValue, 4.76, 1.6034E-05, , , , 
DataValue, 4.84, 1.9966E-05, , , , 
DataValue, 4.92, 2.4978E-05, , , , 
DataValue, 5, 3.0968E-05, , , , 