
SetupTitle, R-V
ApplicationTest, R-V, Public
TestParameter, Name, Port1, Port2, V1Start, V1Stop, V1Step, V2, I1Limit, IntegTime, HoldTime, DelayTime, Port1MinRng
TestParameter, Value, SMU1:MP	MPSMU, SMU2:MP	MPSMU, 0, 1, 0.05, 0, 0.01, MEDIUM, 0, 0, 1nA
DutParameter, Name, L, W, Temp
DutParameter, Value, 1E-05, 1E-06, 25
MetaData, TestRecord.EntryPoint, true
MetaData, TestRecord.RecordTime, 03/04/2023 18:12:15
MetaData, TestRecord.TestTarget, 
MetaData, TestRecord.IterationIndex, 201
MetaData, TestRecord.Preservation, true
MetaData, TestRecord.Flag, 
MetaData, TestRecord.Remarks, 
MetaData, TestRecord.LinkKey, 88463bc2-45cb-4040-8a28-a63ea8d16e76
Dimension1, 21, 21, 21, 21
Dimension2, 1, 1, 1, 1
DataName, V1, I1, R, Rsheet
DataValue, 0, 2.0200000000000002E-13, 0, 0
DataValue, 0.05, 9.26E-13, 53995680345.57235, 5399568034.5572348
DataValue, 0.1, 1.2290000000000001E-12, 81366965012.205048, 8136696501.2205029
DataValue, 0.15, 1.4300000000000002E-12, 104895104895.10487, 10489510489.510487
DataValue, 0.2, 1.621E-12, 123380629241.20914, 12338062924.120913
DataValue, 0.25, 1.8870000000000003E-12, 132485426603.07364, 13248542660.307362
DataValue, 0.3, 1.8610000000000002E-12, 161203653949.4895, 16120365394.948948
DataValue, 0.35000000000000003, 2.0540000000000003E-12, 170399221032.13242, 17039922103.213238
DataValue, 0.4, 2.0830000000000003E-12, 192030724915.98654, 19203072491.598652
DataValue, 0.45, 2.2080000000000003E-12, 203804347826.08695, 20380434782.608692
DataValue, 0.5, 2.368E-12, 211148648648.64865, 21114864864.864861
DataValue, 0.55, 2.594E-12, 212027756360.8327, 21202775636.083267
DataValue, 0.6, 2.636E-12, 227617602427.92108, 22761760242.792107
DataValue, 0.65, 2.7000000000000002E-12, 240740740740.74072, 24074074074.07407
DataValue, 0.70000000000000007, 2.949E-12, 237368599525.26282, 23736859952.526279
DataValue, 0.75, 3.0930000000000003E-12, 242483026188.16681, 24248302618.816681
DataValue, 0.8, 3.204E-12, 249687890137.32834, 24968789013.73283
DataValue, 0.85000000000000009, 3.4120000000000004E-12, 249120750293.08322, 24912075029.308319
DataValue, 0.9, 3.5570000000000003E-12, 253022209727.29828, 25302220972.729824
DataValue, 0.95000000000000007, 3.6400000000000006E-12, 260989010989.01096, 26098901098.901093
DataValue, 1, 3.902E-12, 256278831368.52896, 25627883136.852894
SetupTitle, R-V
PrimitiveTest, I/V Sweep
TestParameter, Context.MainFrame, B1500A
TestParameter, Channel.UnitType, SMU, SMU
TestParameter, Channel.Unit, Port1, Port2
TestParameter, Channel.IName, I1, I2
TestParameter, Channel.VName, V1, V2
TestParameter, Channel.Mode, V, V
TestParameter, Channel.Func, VAR1, CONST
TestParameter, Channel.Index, 
TestParameter, Channel.Time, 
TestParameter, Measurement.Port.Unit, Port1, Port2
TestParameter, Measurement.Port.SeriesResistor, NONE, NONE
TestParameter, Measurement.Port.Filter, OFF, OFF
TestParameter, Measurement.Port.OutputVoltageComparison, 0, 0
TestParameter, Measurement.Primary.Locus, Single
TestParameter, Measurement.Primary.Scale, LINEAR
TestParameter, Measurement.Primary.Start, V1Start
TestParameter, Measurement.Primary.Stop, V1Stop
TestParameter, Measurement.Primary.Step, V1Step
TestParameter, Measurement.Primary.Compliance, I1Limit
TestParameter, Measurement.Primary.PowerCompliance, 0
TestParameter, Measurement.Aborting.Condition, CONTINUE AT ANY
TestParameter, Measurement.PostOutput.Value, START
TestParameter, Measurement.PostOutput.Retention, OFF
TestParameter, Measurement.Bias.Source, 0, V2
TestParameter, Measurement.Bias.Compliance, 0.01, I1Limit
TestParameter, Measurement.Monitor.Unit, SMU:=Port1, SMU:=Port2
TestParameter, Measurement.Monitor.Adc, HR ADC, HR ADC
TestParameter, Measurement.Monitor.Measurement, Compliance Side, Compliance Side
TestParameter, Measurement.Monitor.RangingMode, LIMITED, LIMITED
TestParameter, Measurement.Monitor.RangeBoundary, Port1MinRng, 1nA
TestParameter, Measurement.Monitor.RangeRating, BY FULL RANGE, BY FULL RANGE
TestParameter, Measurement.Monitor.RangeRatingCoeff, 50, 50
TestParameter, Measurement.Timing.Hold, HoldTime
TestParameter, Measurement.Timing.Delay, DelayTime
TestParameter, Measurement.Adc.HighSpeed.Mode, AUTO
TestParameter, Measurement.Adc.HighSpeed.Coeff, 1
TestParameter, Measurement.Adc.HighResolution.AutoZero, ON
TestParameter, Measurement.Adc.HighResolution.Mode, IntegMode
TestParameter, Measurement.Adc.HighResolution.Coeff, AdcFactor
TestParameter, Measurement.WaitTime.Source.Coeff, 1
TestParameter, Measurement.WaitTime.Source.Offset, 0
TestParameter, Measurement.WaitTime.Monitor.Coeff, 1
TestParameter, Measurement.WaitTime.Monitor.Offset, 0
TestParameter, Function.User.Name, R, Rsheet
TestParameter, Function.User.Unit, ohm, ohm/sheet
TestParameter, Function.User.Definition, V1/I1, R*W/L
TestParameter, Output.Graph.Enabled, true
TestParameter, Output.Graph.AutoScaling, false
TestParameter, Output.Graph.XAxis.Data, V1
TestParameter, Output.Graph.XAxis.Scale, Linear
TestParameter, Output.Graph.XAxis.Left, V1Start
TestParameter, Output.Graph.XAxis.Right, V1Stop
TestParameter, Output.Graph.XAxis.RunTimeAutoScale, false
TestParameter, Output.Graph.YAxis.Data, R, I1
TestParameter, Output.Graph.YAxis.Scale, Linear, Linear
TestParameter, Output.Graph.YAxis.Bottom, 0, 0
TestParameter, Output.Graph.YAxis.Top, V1Stop/I1Limit, I1Limit
TestParameter, Output.Graph.YAxis.Group, , 
TestParameter, Output.Graph.YAxis.RunTimeAutoScale, false, false
TestParameter, Output.List.Data, V1, I1, R, Rsheet
TestParameter, AutoAnalysis.Interpolation, false
TestParameter, AutoAnalysis.Line1.Enabled, false
TestParameter, AutoAnalysis.Line1.Type, 1
TestParameter, AutoAnalysis.Line1.Fix, False
TestParameter, AutoAnalysis.Line1.YAxis, 0
TestParameter, AutoAnalysis.Line1.Point1.Type, 0
TestParameter, AutoAnalysis.Line1.Point1.XY.X, 
TestParameter, AutoAnalysis.Line1.Point1.XY.Y, 
TestParameter, AutoAnalysis.Line1.Point1.Data.Var, 
TestParameter, AutoAnalysis.Line1.Point1.Data.Condition, 
TestParameter, AutoAnalysis.Line1.Point1.Data.Start, false
TestParameter, AutoAnalysis.Line1.Point1.Data.StartVar, 
TestParameter, AutoAnalysis.Line1.Point1.Data.StartCondition, 
TestParameter, AutoAnalysis.Line1.Point2.Type, 0
TestParameter, AutoAnalysis.Line1.Point2.XY.X, 
TestParameter, AutoAnalysis.Line1.Point2.XY.Y, 
TestParameter, AutoAnalysis.Line1.Point2.Data.Var, 
TestParameter, AutoAnalysis.Line1.Point2.Data.Condition, 
TestParameter, AutoAnalysis.Line1.Point2.Data.Start, false
TestParameter, AutoAnalysis.Line1.Point2.Data.StartVar, 
TestParameter, AutoAnalysis.Line1.Point2.Data.StartCondition, 
TestParameter, AutoAnalysis.Line1.GradientExpr, 0
TestParameter, AutoAnalysis.Line2.Enabled, false
TestParameter, AutoAnalysis.Line2.Type, 1
TestParameter, AutoAnalysis.Line2.Fix, False
TestParameter, AutoAnalysis.Line2.YAxis, 0
TestParameter, AutoAnalysis.Line2.Point1.Type, 0
TestParameter, AutoAnalysis.Line2.Point1.XY.X, 
TestParameter, AutoAnalysis.Line2.Point1.XY.Y, 
TestParameter, AutoAnalysis.Line2.Point1.Data.Var, 
TestParameter, AutoAnalysis.Line2.Point1.Data.Condition, 
TestParameter, AutoAnalysis.Line2.Point1.Data.Start, false
TestParameter, AutoAnalysis.Line2.Point1.Data.StartVar, 
TestParameter, AutoAnalysis.Line2.Point1.Data.StartCondition, 
TestParameter, AutoAnalysis.Line2.Point2.Type, 0
TestParameter, AutoAnalysis.Line2.Point2.XY.X, 
TestParameter, AutoAnalysis.Line2.Point2.XY.Y, 
TestParameter, AutoAnalysis.Line2.Point2.Data.Var, 
TestParameter, AutoAnalysis.Line2.Point2.Data.Condition, 
TestParameter, AutoAnalysis.Line2.Point2.Data.Start, false
TestParameter, AutoAnalysis.Line2.Point2.Data.StartVar, 
TestParameter, AutoAnalysis.Line2.Point2.Data.StartCondition, 
TestParameter, AutoAnalysis.Line2.GradientExpr, 0
TestParameter, AutoAnalysis.Marker.Enabled, false
TestParameter, AutoAnalysis.Marker.Data.Var, 
TestParameter, AutoAnalysis.Marker.Data.Condition, 
TestParameter, AutoAnalysis.Marker.Data.Start, false
TestParameter, AutoAnalysis.Marker.Data.StartVar, 
TestParameter, AutoAnalysis.Marker.Data.StartCondition, 
MetaData, TestRecord.EntryPoint, false
MetaData, TestRecord.RecordTime, 03/04/2023 18:12:15
MetaData, TestRecord.TestTarget, 
MetaData, TestRecord.IterationIndex, 201
MetaData, TestRecord.Preservation, true
MetaData, TestRecord.Flag, 
MetaData, TestRecord.Remarks, 
MetaData, TestRecord.LinkKey, 88463bc2-45cb-4040-8a28-a63ea8d16e76
Dimension1, 21, 21, 21, 21
Dimension2, 1, 1, 1, 1
DataName, V1, I1, R, Rsheet
DataValue, 0, 2.0200000000000002E-13, 0, 0
DataValue, 0.05, 9.26E-13, 53995680345.57235, 5399568034.5572348
DataValue, 0.1, 1.2290000000000001E-12, 81366965012.205048, 8136696501.2205029
DataValue, 0.15, 1.4300000000000002E-12, 104895104895.10487, 10489510489.510487
DataValue, 0.2, 1.621E-12, 123380629241.20914, 12338062924.120913
DataValue, 0.25, 1.8870000000000003E-12, 132485426603.07364, 13248542660.307362
DataValue, 0.3, 1.8610000000000002E-12, 161203653949.4895, 16120365394.948948
DataValue, 0.35000000000000003, 2.0540000000000003E-12, 170399221032.13242, 17039922103.213238
DataValue, 0.4, 2.0830000000000003E-12, 192030724915.98654, 19203072491.598652
DataValue, 0.45, 2.2080000000000003E-12, 203804347826.08695, 20380434782.608692
DataValue, 0.5, 2.368E-12, 211148648648.64865, 21114864864.864861
DataValue, 0.55, 2.594E-12, 212027756360.8327, 21202775636.083267
DataValue, 0.6, 2.636E-12, 227617602427.92108, 22761760242.792107
DataValue, 0.65, 2.7000000000000002E-12, 240740740740.74072, 24074074074.07407
DataValue, 0.70000000000000007, 2.949E-12, 237368599525.26282, 23736859952.526279
DataValue, 0.75, 3.0930000000000003E-12, 242483026188.16681, 24248302618.816681
DataValue, 0.8, 3.204E-12, 249687890137.32834, 24968789013.73283
DataValue, 0.85000000000000009, 3.4120000000000004E-12, 249120750293.08322, 24912075029.308319
DataValue, 0.9, 3.5570000000000003E-12, 253022209727.29828, 25302220972.729824
DataValue, 0.95000000000000007, 3.6400000000000006E-12, 260989010989.01096, 26098901098.901093
DataValue, 1, 3.902E-12, 256278831368.52896, 25627883136.852894