
SetupTitle, R-V
ApplicationTest, R-V, Public
TestParameter, Name, Port1, Port2, V1Start, V1Stop, V1Step, V2, I1Limit, IntegTime, HoldTime, DelayTime, Port1MinRng
TestParameter, Value, SMU1:MP	MPSMU, SMU2:MP	MPSMU, 0, 1, 0.02, 0, 0.01, MEDIUM, 0, 0, 1nA
DutParameter, Name, L, W, Temp
DutParameter, Value, 1E-05, 1E-06, 25
MetaData, TestRecord.EntryPoint, true
MetaData, TestRecord.RecordTime, 03/03/2023 16:15:26
MetaData, TestRecord.TestTarget, 
MetaData, TestRecord.IterationIndex, 6
MetaData, TestRecord.Preservation, true
MetaData, TestRecord.Flag, 
MetaData, TestRecord.Remarks, 
MetaData, TestRecord.LinkKey, f695ffc6-5dd7-4890-b932-7f19bdac8331
Dimension1, 51, 51, 51, 51
Dimension2, 1, 1, 1, 1
DataName, V1, I1, R, Rsheet
DataValue, 0, -3.6306E-11, -0, -0
DataValue, 0.02, 8.2655699999999993E-08, 241967.58360282474, 24196.758360282471
DataValue, 0.04, 1.65321E-07, 241953.53282402115, 24195.353282402113
DataValue, 0.060000000000000005, 2.48003E-07, 241932.55726745245, 24193.255726745243
DataValue, 0.08, 3.30659E-07, 241941.09339228633, 24194.109339228628
DataValue, 0.1, 4.13337E-07, 241933.33768813344, 24193.333768813343
DataValue, 0.12000000000000001, 4.96004E-07, 241933.5327940904, 24193.353279409035
DataValue, 0.14, 5.78685E-07, 241927.81910711358, 24192.781910711354
DataValue, 0.16, 6.61294E-07, 241949.87403484684, 24194.98740348468
DataValue, 0.18000000000000002, 7.43974E-07, 241943.93890109065, 24194.393890109062
DataValue, 0.2, 8.2662E-07, 241949.14229029059, 24194.914229029055
DataValue, 0.22, 9.09295E-07, 241945.68319412292, 24194.56831941229
DataValue, 0.24000000000000002, 9.91918E-07, 241955.48422349428, 24195.548422349424
DataValue, 0.26, 1.0745859999999999E-06, 241953.64540390443, 24195.364540390441
DataValue, 0.28, 1.1573400000000002E-06, 241934.09024141566, 24193.409024141565
DataValue, 0.3, 1.2399700000000002E-06, 241941.33729041828, 24194.133729041823
DataValue, 0.32, 1.3228200000000002E-06, 241907.44016570656, 24190.744016570654
DataValue, 0.34, 1.4053000000000001E-06, 241941.22251476554, 24194.12225147655
DataValue, 0.36000000000000004, 1.48785E-06, 241959.87498739793, 24195.987498739789
DataValue, 0.38, 1.5706500000000002E-06, 241938.05112533027, 24193.805112533024
DataValue, 0.4, 1.6531500000000002E-06, 241962.31436953694, 24196.231436953691
DataValue, 0.42000000000000004, 1.7356500000000003E-06, 241984.27102238353, 24198.427102238351
DataValue, 0.44, 1.8184800000000001E-06, 241960.31850776472, 24196.031850776468
DataValue, 0.46, 1.9008700000000001E-06, 241994.45517052719, 24199.445517052714
DataValue, 0.48000000000000004, 1.9833400000000004E-06, 242015.99322355216, 24201.59932235521
DataValue, 0.5, 2.0661100000000003E-06, 242000.66792184344, 24200.066792184341
DataValue, 0.52, 2.14859E-06, 242019.18467460055, 24201.918467460051
DataValue, 0.54, 2.23104E-06, 242039.586919105, 24203.958691910495
DataValue, 0.56, 2.3138800000000003E-06, 242017.736442685, 24201.773644268498
DataValue, 0.58000000000000007, 2.39631E-06, 242038.80132370189, 24203.880132370185
DataValue, 0.6, 2.47875E-06, 242057.48865355519, 24205.748865355516
DataValue, 0.62, 2.5612700000000004E-06, 242067.41186989265, 24206.74118698926
DataValue, 0.64, 2.6438100000000003E-06, 242074.8843525064, 24207.488435250638
DataValue, 0.66, 2.7263100000000003E-06, 242085.45616602659, 24208.545616602656
DataValue, 0.68, 2.80917E-06, 242064.38200607296, 24206.438200607292
DataValue, 0.70000000000000007, 2.8916400000000002E-06, 242077.160365744, 24207.716036574395
DataValue, 0.72000000000000008, 2.9741700000000003E-06, 242084.3462209625, 24208.434622096247
DataValue, 0.74, 3.0567000000000003E-06, 242091.14404423069, 24209.114404423068
DataValue, 0.76, 3.1392300000000004E-06, 242097.58443949628, 24209.758443949624
DataValue, 0.78, 3.2216800000000003E-06, 242109.70673685777, 24210.970673685773
DataValue, 0.8, 3.30422E-06, 242114.62917118109, 24211.462917118104
DataValue, 0.82000000000000006, 3.3867000000000005E-06, 242123.601145658, 24212.360114565796
DataValue, 0.84000000000000008, 3.4692600000000006E-06, 242126.56301343802, 24212.6563013438
DataValue, 0.86, 3.5516600000000004E-06, 242140.29496066624, 24214.029496066622
DataValue, 0.88, 3.6342000000000003E-06, 242144.07572505638, 24214.407572505635
DataValue, 0.9, 3.7167300000000003E-06, 242148.34007312878, 24214.834007312875
DataValue, 0.92, 3.7992500000000005E-06, 242153.056524314, 24215.305652431398
DataValue, 0.94000000000000006, 3.8816E-06, 242168.1780708986, 24216.817807089858
DataValue, 0.96000000000000008, 3.9642300000000005E-06, 242165.56557011072, 24216.55655701107
DataValue, 0.98000000000000009, 4.04662E-06, 242177.42214490118, 24217.742214490117
DataValue, 1, 4.1289900000000008E-06, 242189.97866306282, 24218.997866306279
SetupTitle, R-V
PrimitiveTest, I/V Sweep
TestParameter, Context.MainFrame, B1500A
TestParameter, Channel.UnitType, SMU, SMU
TestParameter, Channel.Unit, Port1, Port2
TestParameter, Channel.IName, I1, I2
TestParameter, Channel.VName, V1, V2
TestParameter, Channel.Mode, V, V
TestParameter, Channel.Func, VAR1, CONST
TestParameter, Channel.Index, 
TestParameter, Channel.Time, 
TestParameter, Measurement.Port.Unit, Port1, Port2
TestParameter, Measurement.Port.SeriesResistor, NONE, NONE
TestParameter, Measurement.Port.Filter, OFF, OFF
TestParameter, Measurement.Port.OutputVoltageComparison, 0, 0
TestParameter, Measurement.Primary.Locus, Single
TestParameter, Measurement.Primary.Scale, LINEAR
TestParameter, Measurement.Primary.Start, V1Start
TestParameter, Measurement.Primary.Stop, V1Stop
TestParameter, Measurement.Primary.Step, V1Step
TestParameter, Measurement.Primary.Compliance, I1Limit
TestParameter, Measurement.Primary.PowerCompliance, 0
TestParameter, Measurement.Aborting.Condition, CONTINUE AT ANY
TestParameter, Measurement.PostOutput.Value, START
TestParameter, Measurement.PostOutput.Retention, OFF
TestParameter, Measurement.Bias.Source, 0, V2
TestParameter, Measurement.Bias.Compliance, 0.01, I1Limit
TestParameter, Measurement.Monitor.Unit, SMU:=Port1, SMU:=Port2
TestParameter, Measurement.Monitor.Adc, HR ADC, HR ADC
TestParameter, Measurement.Monitor.Measurement, Compliance Side, Compliance Side
TestParameter, Measurement.Monitor.RangingMode, LIMITED, LIMITED
TestParameter, Measurement.Monitor.RangeBoundary, Port1MinRng, 1nA
TestParameter, Measurement.Monitor.RangeRating, BY FULL RANGE, BY FULL RANGE
TestParameter, Measurement.Monitor.RangeRatingCoeff, 50, 50
TestParameter, Measurement.Timing.Hold, HoldTime
TestParameter, Measurement.Timing.Delay, DelayTime
TestParameter, Measurement.Adc.HighSpeed.Mode, AUTO
TestParameter, Measurement.Adc.HighSpeed.Coeff, 1
TestParameter, Measurement.Adc.HighResolution.AutoZero, ON
TestParameter, Measurement.Adc.HighResolution.Mode, IntegMode
TestParameter, Measurement.Adc.HighResolution.Coeff, AdcFactor
TestParameter, Measurement.WaitTime.Source.Coeff, 1
TestParameter, Measurement.WaitTime.Source.Offset, 0
TestParameter, Measurement.WaitTime.Monitor.Coeff, 1
TestParameter, Measurement.WaitTime.Monitor.Offset, 0
TestParameter, Function.User.Name, R, Rsheet
TestParameter, Function.User.Unit, ohm, ohm/sheet
TestParameter, Function.User.Definition, V1/I1, R*W/L
TestParameter, Output.Graph.Enabled, true
TestParameter, Output.Graph.AutoScaling, false
TestParameter, Output.Graph.XAxis.Data, V1
TestParameter, Output.Graph.XAxis.Scale, Linear
TestParameter, Output.Graph.XAxis.Left, V1Start
TestParameter, Output.Graph.XAxis.Right, V1Stop
TestParameter, Output.Graph.XAxis.RunTimeAutoScale, false
TestParameter, Output.Graph.YAxis.Data, R, I1
TestParameter, Output.Graph.YAxis.Scale, Linear, Linear
TestParameter, Output.Graph.YAxis.Bottom, 0, 0
TestParameter, Output.Graph.YAxis.Top, V1Stop/I1Limit, I1Limit
TestParameter, Output.Graph.YAxis.Group, , 
TestParameter, Output.Graph.YAxis.RunTimeAutoScale, false, false
TestParameter, Output.List.Data, V1, I1, R, Rsheet
TestParameter, AutoAnalysis.Interpolation, false
TestParameter, AutoAnalysis.Line1.Enabled, false
TestParameter, AutoAnalysis.Line1.Type, 1
TestParameter, AutoAnalysis.Line1.Fix, False
TestParameter, AutoAnalysis.Line1.YAxis, 0
TestParameter, AutoAnalysis.Line1.Point1.Type, 0
TestParameter, AutoAnalysis.Line1.Point1.XY.X, 
TestParameter, AutoAnalysis.Line1.Point1.XY.Y, 
TestParameter, AutoAnalysis.Line1.Point1.Data.Var, 
TestParameter, AutoAnalysis.Line1.Point1.Data.Condition, 
TestParameter, AutoAnalysis.Line1.Point1.Data.Start, false
TestParameter, AutoAnalysis.Line1.Point1.Data.StartVar, 
TestParameter, AutoAnalysis.Line1.Point1.Data.StartCondition, 
TestParameter, AutoAnalysis.Line1.Point2.Type, 0
TestParameter, AutoAnalysis.Line1.Point2.XY.X, 
TestParameter, AutoAnalysis.Line1.Point2.XY.Y, 
TestParameter, AutoAnalysis.Line1.Point2.Data.Var, 
TestParameter, AutoAnalysis.Line1.Point2.Data.Condition, 
TestParameter, AutoAnalysis.Line1.Point2.Data.Start, false
TestParameter, AutoAnalysis.Line1.Point2.Data.StartVar, 
TestParameter, AutoAnalysis.Line1.Point2.Data.StartCondition, 
TestParameter, AutoAnalysis.Line1.GradientExpr, 0
TestParameter, AutoAnalysis.Line2.Enabled, false
TestParameter, AutoAnalysis.Line2.Type, 1
TestParameter, AutoAnalysis.Line2.Fix, False
TestParameter, AutoAnalysis.Line2.YAxis, 0
TestParameter, AutoAnalysis.Line2.Point1.Type, 0
TestParameter, AutoAnalysis.Line2.Point1.XY.X, 
TestParameter, AutoAnalysis.Line2.Point1.XY.Y, 
TestParameter, AutoAnalysis.Line2.Point1.Data.Var, 
TestParameter, AutoAnalysis.Line2.Point1.Data.Condition, 
TestParameter, AutoAnalysis.Line2.Point1.Data.Start, false
TestParameter, AutoAnalysis.Line2.Point1.Data.StartVar, 
TestParameter, AutoAnalysis.Line2.Point1.Data.StartCondition, 
TestParameter, AutoAnalysis.Line2.Point2.Type, 0
TestParameter, AutoAnalysis.Line2.Point2.XY.X, 
TestParameter, AutoAnalysis.Line2.Point2.XY.Y, 
TestParameter, AutoAnalysis.Line2.Point2.Data.Var, 
TestParameter, AutoAnalysis.Line2.Point2.Data.Condition, 
TestParameter, AutoAnalysis.Line2.Point2.Data.Start, false
TestParameter, AutoAnalysis.Line2.Point2.Data.StartVar, 
TestParameter, AutoAnalysis.Line2.Point2.Data.StartCondition, 
TestParameter, AutoAnalysis.Line2.GradientExpr, 0
TestParameter, AutoAnalysis.Marker.Enabled, false
TestParameter, AutoAnalysis.Marker.Data.Var, 
TestParameter, AutoAnalysis.Marker.Data.Condition, 
TestParameter, AutoAnalysis.Marker.Data.Start, false
TestParameter, AutoAnalysis.Marker.Data.StartVar, 
TestParameter, AutoAnalysis.Marker.Data.StartCondition, 
MetaData, TestRecord.EntryPoint, false
MetaData, TestRecord.RecordTime, 03/03/2023 16:15:26
MetaData, TestRecord.TestTarget, 
MetaData, TestRecord.IterationIndex, 6
MetaData, TestRecord.Preservation, true
MetaData, TestRecord.Flag, 
MetaData, TestRecord.Remarks, 
MetaData, TestRecord.LinkKey, f695ffc6-5dd7-4890-b932-7f19bdac8331
Dimension1, 51, 51, 51, 51
Dimension2, 1, 1, 1, 1
DataName, V1, I1, R, Rsheet
DataValue, 0, -3.6306E-11, -0, -0
DataValue, 0.02, 8.2655699999999993E-08, 241967.58360282474, 24196.758360282471
DataValue, 0.04, 1.65321E-07, 241953.53282402115, 24195.353282402113
DataValue, 0.060000000000000005, 2.48003E-07, 241932.55726745245, 24193.255726745243
DataValue, 0.08, 3.30659E-07, 241941.09339228633, 24194.109339228628
DataValue, 0.1, 4.13337E-07, 241933.33768813344, 24193.333768813343
DataValue, 0.12000000000000001, 4.96004E-07, 241933.5327940904, 24193.353279409035
DataValue, 0.14, 5.78685E-07, 241927.81910711358, 24192.781910711354
DataValue, 0.16, 6.61294E-07, 241949.87403484684, 24194.98740348468
DataValue, 0.18000000000000002, 7.43974E-07, 241943.93890109065, 24194.393890109062
DataValue, 0.2, 8.2662E-07, 241949.14229029059, 24194.914229029055
DataValue, 0.22, 9.09295E-07, 241945.68319412292, 24194.56831941229
DataValue, 0.24000000000000002, 9.91918E-07, 241955.48422349428, 24195.548422349424
DataValue, 0.26, 1.0745859999999999E-06, 241953.64540390443, 24195.364540390441
DataValue, 0.28, 1.1573400000000002E-06, 241934.09024141566, 24193.409024141565
DataValue, 0.3, 1.2399700000000002E-06, 241941.33729041828, 24194.133729041823
DataValue, 0.32, 1.3228200000000002E-06, 241907.44016570656, 24190.744016570654
DataValue, 0.34, 1.4053000000000001E-06, 241941.22251476554, 24194.12225147655
DataValue, 0.36000000000000004, 1.48785E-06, 241959.87498739793, 24195.987498739789
DataValue, 0.38, 1.5706500000000002E-06, 241938.05112533027, 24193.805112533024
DataValue, 0.4, 1.6531500000000002E-06, 241962.31436953694, 24196.231436953691
DataValue, 0.42000000000000004, 1.7356500000000003E-06, 241984.27102238353, 24198.427102238351
DataValue, 0.44, 1.8184800000000001E-06, 241960.31850776472, 24196.031850776468
DataValue, 0.46, 1.9008700000000001E-06, 241994.45517052719, 24199.445517052714
DataValue, 0.48000000000000004, 1.9833400000000004E-06, 242015.99322355216, 24201.59932235521
DataValue, 0.5, 2.0661100000000003E-06, 242000.66792184344, 24200.066792184341
DataValue, 0.52, 2.14859E-06, 242019.18467460055, 24201.918467460051
DataValue, 0.54, 2.23104E-06, 242039.586919105, 24203.958691910495
DataValue, 0.56, 2.3138800000000003E-06, 242017.736442685, 24201.773644268498
DataValue, 0.58000000000000007, 2.39631E-06, 242038.80132370189, 24203.880132370185
DataValue, 0.6, 2.47875E-06, 242057.48865355519, 24205.748865355516
DataValue, 0.62, 2.5612700000000004E-06, 242067.41186989265, 24206.74118698926
DataValue, 0.64, 2.6438100000000003E-06, 242074.8843525064, 24207.488435250638
DataValue, 0.66, 2.7263100000000003E-06, 242085.45616602659, 24208.545616602656
DataValue, 0.68, 2.80917E-06, 242064.38200607296, 24206.438200607292
DataValue, 0.70000000000000007, 2.8916400000000002E-06, 242077.160365744, 24207.716036574395
DataValue, 0.72000000000000008, 2.9741700000000003E-06, 242084.3462209625, 24208.434622096247
DataValue, 0.74, 3.0567000000000003E-06, 242091.14404423069, 24209.114404423068
DataValue, 0.76, 3.1392300000000004E-06, 242097.58443949628, 24209.758443949624
DataValue, 0.78, 3.2216800000000003E-06, 242109.70673685777, 24210.970673685773
DataValue, 0.8, 3.30422E-06, 242114.62917118109, 24211.462917118104
DataValue, 0.82000000000000006, 3.3867000000000005E-06, 242123.601145658, 24212.360114565796
DataValue, 0.84000000000000008, 3.4692600000000006E-06, 242126.56301343802, 24212.6563013438
DataValue, 0.86, 3.5516600000000004E-06, 242140.29496066624, 24214.029496066622
DataValue, 0.88, 3.6342000000000003E-06, 242144.07572505638, 24214.407572505635
DataValue, 0.9, 3.7167300000000003E-06, 242148.34007312878, 24214.834007312875
DataValue, 0.92, 3.7992500000000005E-06, 242153.056524314, 24215.305652431398
DataValue, 0.94000000000000006, 3.8816E-06, 242168.1780708986, 24216.817807089858
DataValue, 0.96000000000000008, 3.9642300000000005E-06, 242165.56557011072, 24216.55655701107
DataValue, 0.98000000000000009, 4.04662E-06, 242177.42214490118, 24217.742214490117
DataValue, 1, 4.1289900000000008E-06, 242189.97866306282, 24218.997866306279