
SetupTitle, R-V
ApplicationTest, R-V, Public
TestParameter, Name, Port1, Port2, V1Start, V1Stop, V1Step, V2, I1Limit, IntegTime, HoldTime, DelayTime, Port1MinRng
TestParameter, Value, SMU1:MP	MPSMU, SMU2:MP	MPSMU, 0, 1, 0.001, 0, 0.01, MEDIUM, 0, 0, 1nA
DutParameter, Name, L, W, Temp
DutParameter, Value, 1E-05, 1E-06, 25
MetaData, TestRecord.EntryPoint, true
MetaData, TestRecord.RecordTime, 03/03/2023 16:14:05
MetaData, TestRecord.TestTarget, 
MetaData, TestRecord.IterationIndex, 5
MetaData, TestRecord.Preservation, true
MetaData, TestRecord.Flag, 
MetaData, TestRecord.Remarks, 
MetaData, TestRecord.LinkKey, 38b637bf-5431-4613-bb7d-98ae381d5f44
Dimension1, 1001, 1001, 1001, 1001
Dimension2, 1, 1, 1, 1
DataName, V1, I1, R, Rsheet
DataValue, 0, -3.5888E-11, -0, -0
DataValue, 0.001, 4.41991E-09, 226248.9507704908, 22624.895077049077
DataValue, 0.002, 9.22125E-09, 216890.33482445439, 21689.033482445437
DataValue, 0.003, 1.3731999999999999E-08, 218467.81240897178, 21846.781240897173
DataValue, 0.004, 1.8175E-08, 220082.53094910595, 22008.253094910593
DataValue, 0.005, 2.29786E-08, 217593.76115168029, 21759.376115168026
DataValue, 0.006, 2.7442599999999998E-08, 218638.17568306212, 21863.817568306207
DataValue, 0.007, 3.2282E-08, 216839.10538380523, 21683.910538380518
DataValue, 0.008, 3.67344E-08, 217779.5200139379, 21777.952001393787
DataValue, 0.0090000000000000011, 4.11972E-08, 218461.44883632872, 21846.144883632867
DataValue, 0.01, 4.5991699999999996E-08, 217430.53637939022, 21743.053637939021
DataValue, 0.011000000000000001, 5.0448199999999994E-08, 218045.44066983563, 21804.544066983559
DataValue, 0.012, 5.4912199999999993E-08, 218530.67260098853, 21853.067260098851
DataValue, 0.013000000000000001, 5.9722099999999989E-08, 217674.86407879167, 21767.486407879165
DataValue, 0.014, 6.41906E-08, 218100.46953915371, 21810.046953915371
DataValue, 0.015000000000000001, 6.8641599999999992E-08, 218526.374676581, 21852.6374676581
DataValue, 0.016, 7.34612E-08, 217802.05060630647, 21780.205060630644
DataValue, 0.017, 7.7934799999999992E-08, 218131.05313672457, 21813.105313672455
DataValue, 0.018000000000000002, 8.240109999999999E-08, 218443.6858245825, 21844.368582458246
DataValue, 0.019, 8.720519999999999E-08, 217876.91559677635, 21787.691559677631
DataValue, 0.02, 9.1657299999999988E-08, 218204.11467499047, 21820.411467499045
DataValue, 0.021, 9.6122999999999993E-08, 218470.08520333326, 21847.008520333322
DataValue, 0.022000000000000002, 1.009269E-07, 217979.54757354088, 21797.954757354088
DataValue, 0.023, 1.0538819999999999E-07, 218240.75181092383, 21824.075181092379
DataValue, 0.024, 1.0984759999999998E-07, 218484.51855115636, 21848.451855115632
DataValue, 0.025, 1.1464889999999999E-07, 218057.04197772508, 21805.704197772506
DataValue, 0.026000000000000002, 1.19125E-07, 218258.13221406087, 21825.813221406082
DataValue, 0.027, 1.23955E-07, 217820.98342140293, 21782.098342140289
DataValue, 0.028, 1.28413E-07, 218046.45947061435, 21804.645947061432
DataValue, 0.029, 1.32863E-07, 218269.94723888519, 21826.994723888518
DataValue, 0.030000000000000002, 1.3767E-07, 217912.39921551541, 21791.239921551536
DataValue, 0.031, 1.42132E-07, 218107.11169898405, 21810.7111698984
DataValue, 0.032, 1.46606E-07, 218272.10346097703, 21827.2103460977
DataValue, 0.033, 1.5141799999999999E-07, 217939.74296318804, 21793.9742963188
DataValue, 0.034, 1.5587499999999999E-07, 218123.49639133926, 21812.349639133921
DataValue, 0.035, 1.60339E-07, 218287.50335227241, 21828.75033522724
DataValue, 0.036000000000000004, 1.65148E-07, 217986.29108436074, 21798.629108436071
DataValue, 0.037000000000000005, 1.69597E-07, 218164.236395691, 21816.423639569097
DataValue, 0.038, 1.74052E-07, 218325.55787925446, 21832.555787925445
DataValue, 0.039, 1.78864E-07, 218042.75874407371, 21804.275874407369
DataValue, 0.04, 1.83319E-07, 218198.87736677594, 21819.887736677592
DataValue, 0.041, 1.87794E-07, 218324.33411078097, 21832.433411078095
DataValue, 0.042, 1.9259299999999998E-07, 218076.46176133092, 21807.64617613309
DataValue, 0.043000000000000003, 1.97047E-07, 218222.04854679341, 21822.204854679338
DataValue, 0.044000000000000004, 2.01857E-07, 217976.09198591084, 21797.609198591083
DataValue, 0.045000000000000005, 2.06335E-07, 218091.93786803016, 21809.193786803015
DataValue, 0.046, 2.10819E-07, 218196.65210441183, 21819.665210441177
DataValue, 0.047, 2.15616E-07, 217980.11279311369, 21798.011279311366
DataValue, 0.048, 2.20075E-07, 218107.46336476202, 21810.746336476197
DataValue, 0.049, 2.24517E-07, 218246.27979173069, 21824.627979173067
DataValue, 0.05, 2.2933799999999999E-07, 218018.8193844893, 21801.881938448925
DataValue, 0.051000000000000004, 2.3379499999999998E-07, 218139.82334951565, 21813.982334951565
DataValue, 0.052000000000000005, 2.3825499999999999E-07, 218253.55186669747, 21825.355186669745
DataValue, 0.053000000000000005, 2.43068E-07, 218045.97890302303, 21804.5978903023
DataValue, 0.054, 2.4753499999999997E-07, 218150.96854990206, 21815.096854990203
DataValue, 0.055, 2.52014E-07, 218241.84370709563, 21824.184370709561
DataValue, 0.056, 2.56828E-07, 218044.76147460556, 21804.476147460555
DataValue, 0.057, 2.61264E-07, 218170.1267683263, 21817.012676832626
DataValue, 0.058, 2.65733E-07, 218264.19752157241, 21826.419752157239
DataValue, 0.059000000000000004, 2.70537E-07, 218084.77213837663, 21808.477213837661
DataValue, 0.060000000000000005, 2.75012E-07, 218172.29793609009, 21817.229793609007
DataValue, 0.061000000000000006, 2.79458E-07, 218279.66993251225, 21827.966993251222
DataValue, 0.062, 2.84266E-07, 218105.57717067818, 21810.557717067815
DataValue, 0.063, 2.88723E-07, 218202.22150642658, 21820.222150642654
DataValue, 0.064, 2.93532E-07, 218034.1495986809, 21803.414959868089
DataValue, 0.065, 2.9802E-07, 218106.16737131737, 21810.616737131735
DataValue, 0.066, 3.02491E-07, 218188.30973483512, 21818.830973483509
DataValue, 0.067, 3.07287E-07, 218037.20951423261, 21803.72095142326
DataValue, 0.068, 3.11749E-07, 218124.19606799062, 21812.41960679906
DataValue, 0.069, 3.1621099999999997E-07, 218208.72771661964, 21820.872771661961
DataValue, 0.07, 3.21018E-07, 218056.30836900114, 21805.630836900113
DataValue, 0.071000000000000008, 3.25497E-07, 218127.97045748503, 21812.797045748503
DataValue, 0.072000000000000008, 3.29954E-07, 218212.23564496869, 21821.223564496868
DataValue, 0.073000000000000009, 3.34761E-07, 218066.02322253792, 21806.602322253788
DataValue, 0.07400000000000001, 3.39222E-07, 218146.22872337294, 21814.622872337291
DataValue, 0.075, 3.43688E-07, 218221.17734689603, 21822.1177346896
DataValue, 0.076, 3.4849599999999997E-07, 218079.97796244433, 21807.997796244432
DataValue, 0.077, 3.52944E-07, 218164.9213472959, 21816.492134729589
DataValue, 0.078, 3.57398E-07, 218244.08642465822, 21824.40864246582
DataValue, 0.079, 3.62206E-07, 218107.92753295085, 21810.792753295082
DataValue, 0.08, 3.66657E-07, 218187.57039958326, 21818.757039958324
DataValue, 0.081, 3.71118E-07, 218259.42153169613, 21825.94215316961
DataValue, 0.082, 3.7592099999999997E-07, 218130.93708518549, 21813.093708518547
DataValue, 0.083, 3.80389E-07, 218197.68710451669, 21819.768710451666
DataValue, 0.084, 3.85228E-07, 218052.68568224533, 21805.268568224528
DataValue, 0.085, 3.89682E-07, 218126.57500218129, 21812.657500218127
DataValue, 0.086000000000000007, 3.9412E-07, 218207.65249162694, 21820.76524916269
DataValue, 0.087000000000000008, 3.9893699999999997E-07, 218079.54639454355, 21807.954639454354
DataValue, 0.088000000000000009, 4.03404E-07, 218143.59798118018, 21814.359798118014
DataValue, 0.08900000000000001, 4.07861E-07, 218211.5965978606, 21821.159659786055
DataValue, 0.090000000000000011, 4.12672E-07, 218090.88089330026, 21809.088089330024
DataValue, 0.091, 4.17123E-07, 218161.06999614023, 21816.106999614018
DataValue, 0.092, 4.21593E-07, 218219.9419819589, 21821.994198195887
DataValue, 0.093, 4.26409E-07, 218100.46223226996, 21810.046223226993
DataValue, 0.094, 4.30897E-07, 218149.5809903527, 21814.95809903527
DataValue, 0.095, 4.35349E-07, 218215.73036804952, 21821.573036804948
DataValue, 0.096, 4.4015E-07, 218107.46336476202, 21810.746336476197
DataValue, 0.097, 4.44603E-07, 218172.16707939445, 21817.216707939442
DataValue, 0.098, 4.4907699999999997E-07, 218225.38228410721, 21822.538228410718
DataValue, 0.099, 4.53867E-07, 218125.57423209885, 21812.557423209881
DataValue, 0.1, 4.58328E-07, 218184.35705433664, 21818.435705433658
DataValue, 0.101, 4.6313499999999997E-07, 218078.96185777368, 21807.896185777365
DataValue, 0.10200000000000001, 4.67598E-07, 218136.09125787538, 21813.609125787534
DataValue, 0.10300000000000001, 4.72084E-07, 218181.51007024176, 21818.151007024175
DataValue, 0.10400000000000001, 4.76879E-07, 218084.67137366085, 21808.467137366082
DataValue, 0.10500000000000001, 4.81351E-07, 218136.03794320571, 21813.60379432057
DataValue, 0.10600000000000001, 4.85811E-07, 218191.84827021213, 21819.18482702121
DataValue, 0.10700000000000001, 4.9060499999999994E-07, 218098.06259618231, 21809.806259618228
DataValue, 0.108, 4.95084E-07, 218144.79967035897, 21814.479967035895
DataValue, 0.109, 4.99554E-07, 218194.62960961179, 21819.462960961177
DataValue, 0.11, 5.04342E-07, 218105.96777583467, 21810.596777583465
DataValue, 0.111, 5.08808E-07, 218156.94721781105, 21815.694721781103
DataValue, 0.112, 5.13285E-07, 218202.36320952297, 21820.236320952296
DataValue, 0.113, 5.18094E-07, 218107.13885897154, 21810.713885897152
DataValue, 0.114, 5.22543E-07, 218163.86402650116, 21816.386402650114
DataValue, 0.115, 5.27011E-07, 218211.76408082567, 21821.176408082563
DataValue, 0.116, 5.318E-07, 218127.11545693869, 21812.711545693866
DataValue, 0.117, 5.36264E-07, 218176.12220846448, 21817.612220846444
DataValue, 0.11800000000000001, 5.40725E-07, 218225.530537704, 21822.553053770396
DataValue, 0.11900000000000001, 5.45529E-07, 218136.89098104779, 21813.689098104776
DataValue, 0.12000000000000001, 5.4999699999999995E-07, 218183.00827095425, 21818.300827095423
DataValue, 0.12100000000000001, 5.54804E-07, 218095.03896871692, 21809.503896871687
DataValue, 0.12200000000000001, 5.59299E-07, 218130.19511924751, 21813.019511924747
DataValue, 0.12300000000000001, 5.63751E-07, 218181.43116375848, 21818.143116375843
DataValue, 0.124, 5.68556E-07, 218096.37045427362, 21809.63704542736
DataValue, 0.125, 5.73016E-07, 218143.99597916988, 21814.399597916985
DataValue, 0.126, 5.77488E-07, 218186.35192419586, 21818.635192419584
DataValue, 0.127, 5.82284E-07, 218106.62838065275, 21810.662838065273
DataValue, 0.128, 5.86741E-07, 218154.17705597531, 21815.417705597527
DataValue, 0.129, 5.91205E-07, 218198.42525012477, 21819.842525012475
DataValue, 0.13, 5.96017E-07, 218114.58397998713, 21811.458397998711
DataValue, 0.131, 6.00481E-07, 218158.44298154314, 21815.844298154312
DataValue, 0.132, 6.04974E-07, 218191.19499350389, 21819.119499350385
DataValue, 0.133, 6.09764E-07, 218117.1732014353, 21811.717320143525
DataValue, 0.134, 6.14219E-07, 218163.22842504061, 21816.322842504058
DataValue, 0.135, 6.1866699999999994E-07, 218211.08932592173, 21821.108932592168
DataValue, 0.136, 6.23485E-07, 218128.74407563938, 21812.874407563933
DataValue, 0.137, 6.27946E-07, 218171.62622263702, 21817.1626222637
DataValue, 0.138, 6.32409E-07, 218213.21328444095, 21821.32132844409
DataValue, 0.139, 6.37219E-07, 218135.36633402333, 21813.536633402331
DataValue, 0.14, 6.4167E-07, 218180.68477566354, 21818.06847756635
DataValue, 0.14100000000000001, 6.46482E-07, 218103.52028362741, 21810.352028362737
DataValue, 0.14200000000000002, 6.5097499999999994E-07, 218134.33695610435, 21813.433695610434
DataValue, 0.14300000000000002, 6.55431E-07, 218177.04685924226, 21817.704685924222
DataValue, 0.14400000000000002, 6.60233E-07, 218104.82057091969, 21810.482057091966
DataValue, 0.14500000000000002, 6.647E-07, 218143.52339401239, 21814.352339401237
DataValue, 0.14600000000000002, 6.69166E-07, 218182.03554872784, 21818.203554872784
DataValue, 0.14700000000000002, 6.73957E-07, 218114.8055439739, 21811.480554397385
DataValue, 0.14800000000000002, 6.78437E-07, 218148.47951983754, 21814.847951983749
DataValue, 0.149, 6.82896E-07, 218188.42107729436, 21818.842107729433
DataValue, 0.15, 6.87704E-07, 218117.09689052266, 21811.709689052263
DataValue, 0.151, 6.92098E-07, 218177.19455915203, 21817.7194559152
DataValue, 0.152, 6.96541E-07, 218221.18152413139, 21822.118152413139
DataValue, 0.153, 7.01355E-07, 218149.15413734841, 21814.915413734838
DataValue, 0.154, 7.0580999999999994E-07, 218189.03104234854, 21818.903104234851
DataValue, 0.155, 7.10282E-07, 218223.18459428789, 21822.318459428785
DataValue, 0.156, 7.15072E-07, 218159.84963751902, 21815.984963751896
DataValue, 0.157, 7.19533E-07, 218197.0806064489, 21819.708060644887
DataValue, 0.158, 7.2433999999999993E-07, 218129.6076428197, 21812.960764281968
DataValue, 0.159, 7.2880899999999995E-07, 218164.15549204251, 21816.415549204248
DataValue, 0.16, 7.33273E-07, 218199.77007199227, 21819.977007199224
DataValue, 0.161, 7.38096E-07, 218128.80709284431, 21812.880709284429
DataValue, 0.162, 7.4255E-07, 218167.12679280859, 21816.712679280856
DataValue, 0.163, 7.47007E-07, 218204.11321446789, 21820.411321446783
DataValue, 0.164, 7.51799E-07, 218143.413332553, 21814.3413332553
DataValue, 0.165, 7.56267E-07, 218176.91370904722, 21817.691370904718
DataValue, 0.166, 7.6073699999999994E-07, 218209.44689163275, 21820.944689163272
DataValue, 0.167, 7.65531E-07, 218149.23236289583, 21814.923236289582
DataValue, 0.168, 7.69983E-07, 218186.63528935055, 21818.663528935052
DataValue, 0.169, 7.7446E-07, 218216.56379929243, 21821.656379929238
DataValue, 0.17, 7.79314E-07, 218140.56978316829, 21814.056978316828
DataValue, 0.171, 7.83753E-07, 218180.9830392994, 21818.098303929939
DataValue, 0.17200000000000001, 7.8821199999999994E-07, 218215.40397761011, 21821.540397761008
DataValue, 0.17300000000000002, 7.9301E-07, 218156.13926684405, 21815.613926684404
DataValue, 0.17400000000000002, 7.97473E-07, 218189.20515177317, 21818.920515177317
DataValue, 0.17500000000000002, 8.0193599999999994E-07, 218221.90299475275, 21822.190299475275
DataValue, 0.17600000000000002, 8.06733E-07, 218163.8782595977, 21816.387825959766
DataValue, 0.17700000000000002, 8.11199E-07, 218195.5352509064, 21819.553525090636
DataValue, 0.17800000000000002, 8.1599399999999994E-07, 218138.85886415836, 21813.885886415832
DataValue, 0.17900000000000002, 8.20462E-07, 218169.762889689, 21816.976288968897
DataValue, 0.18000000000000002, 8.2495399999999994E-07, 218193.9841494193, 21819.398414941927
DataValue, 0.18100000000000002, 8.29755E-07, 218136.67889919315, 21813.66788991931
DataValue, 0.182, 8.34227E-07, 218166.03874005517, 21816.603874005516
DataValue, 0.183, 8.38667E-07, 218203.41088894638, 21820.341088894635
DataValue, 0.184, 8.43478E-07, 218144.3973642466, 21814.439736424658
DataValue, 0.185, 8.47934E-07, 218177.35814344042, 21817.73581434404
DataValue, 0.186, 8.52388E-07, 218210.48630435905, 21821.048630435904
DataValue, 0.187, 8.57201E-07, 218151.86869824, 21815.186869823996
DataValue, 0.188, 8.61655E-07, 218184.77232767176, 21818.477232767174
DataValue, 0.189, 8.66117E-07, 218215.32194842037, 21821.532194842035
DataValue, 0.19, 8.70926E-07, 218158.60360122446, 21815.860360122442
DataValue, 0.191, 8.75377E-07, 218191.70483117559, 21819.170483117556
DataValue, 0.192, 8.7984299999999995E-07, 218220.75074757656, 21822.075074757653
DataValue, 0.193, 8.84632E-07, 218169.81524520932, 21816.981524520928
DataValue, 0.194, 8.89114E-07, 218194.74218154253, 21819.47421815425
DataValue, 0.195, 8.9355899999999993E-07, 218228.45497611241, 21822.845497611237
DataValue, 0.196, 8.98362E-07, 218174.85601572643, 21817.48560157264
DataValue, 0.197, 9.0282E-07, 218205.17932699763, 21820.51793269976
DataValue, 0.198, 9.07611E-07, 218155.13474384951, 21815.513474384948
DataValue, 0.199, 9.12111E-07, 218175.20016752349, 21817.520016752347
DataValue, 0.2, 9.1656199999999995E-07, 218206.73342338, 21820.673342337996
DataValue, 0.201, 9.21373E-07, 218152.69168946781, 21815.269168946779
DataValue, 0.202, 9.2582899999999995E-07, 218182.8393796263, 21818.283937962628
DataValue, 0.203, 9.30291E-07, 218211.29087565077, 21821.129087565074
DataValue, 0.20400000000000002, 9.35099E-07, 218158.71902333337, 21815.871902333336
DataValue, 0.20500000000000002, 9.39566E-07, 218185.84325103293, 21818.584325103289
DataValue, 0.20600000000000002, 9.44009E-07, 218218.25851236589, 21821.825851236586
DataValue, 0.20700000000000002, 9.48819E-07, 218165.95156715877, 21816.595156715874
DataValue, 0.20800000000000002, 9.53279E-07, 218194.25372844678, 21819.425372844675
DataValue, 0.20900000000000002, 9.5777399999999988E-07, 218214.317782692, 21821.431778269198
DataValue, 0.21000000000000002, 9.62578E-07, 218164.1383867074, 21816.413838670738
DataValue, 0.21100000000000002, 9.67029E-07, 218194.07690979281, 21819.407690979278
DataValue, 0.21200000000000002, 9.71489E-07, 218221.71944304055, 21822.171944304053
DataValue, 0.21300000000000002, 9.7631E-07, 218168.40962399243, 21816.840962399241
DataValue, 0.21400000000000002, 9.80757E-07, 218198.79949875455, 21819.879949875452
DataValue, 0.215, 9.85584E-07, 218144.77507751749, 21814.477507751744
DataValue, 0.216, 9.90038E-07, 218173.44384760989, 21817.344384760985
DataValue, 0.217, 9.94495E-07, 218201.19759274807, 21820.119759274803
DataValue, 0.218, 9.99327E-07, 218146.81280501778, 21814.681280501776
DataValue, 0.219, 1.003796E-06, 218171.81977214495, 21817.181977214492
DataValue, 0.22, 1.008247E-06, 218200.50047260246, 21820.050047260243
DataValue, 0.221, 1.013051E-06, 218152.88667599164, 21815.288667599161
DataValue, 0.222, 1.017512E-06, 218179.24506050054, 21817.924506050051
DataValue, 0.223, 1.0219679999999999E-06, 218206.44090617323, 21820.644090617319
DataValue, 0.224, 1.026776E-06, 218158.58570905434, 21815.858570905431
DataValue, 0.225, 1.031234E-06, 218185.20335830664, 21818.520335830661
DataValue, 0.226, 1.035699E-06, 218210.11703207204, 21821.0117032072
DataValue, 0.227, 1.040512E-06, 218161.82802312711, 21816.182802312705
DataValue, 0.228, 1.044974E-06, 218187.24676403432, 21818.724676403428
DataValue, 0.229, 1.04942E-06, 218215.77633359379, 21821.577633359379
DataValue, 0.23, 1.054212E-06, 218172.43590473267, 21817.243590473267
DataValue, 0.231, 1.058679E-06, 218196.4504821575, 21819.645048215749
DataValue, 0.232, 1.063136E-06, 218222.31586551486, 21822.231586551483
DataValue, 0.233, 1.0679349999999999E-06, 218178.07263550689, 21817.807263550687
DataValue, 0.234, 1.072402E-06, 218201.75643089067, 21820.175643089064
DataValue, 0.23500000000000001, 1.077189E-06, 218160.41567450098, 21816.041567450095
DataValue, 0.23600000000000002, 1.081653E-06, 218184.57490526079, 21818.457490526074
DataValue, 0.23700000000000002, 1.086136E-06, 218204.71837780904, 21820.4718377809
DataValue, 0.23800000000000002, 1.09095E-06, 218158.48572345206, 21815.848572345203
DataValue, 0.23900000000000002, 1.09541E-06, 218183.14603664383, 21818.314603664381
DataValue, 0.24000000000000002, 1.099864E-06, 218208.79672395863, 21820.879672395862
DataValue, 0.24100000000000002, 1.10467E-06, 218164.70077036583, 21816.470077036578
DataValue, 0.24200000000000002, 1.109127E-06, 218189.62120658864, 21818.962120658864
DataValue, 0.24300000000000002, 1.113585E-06, 218214.14620347798, 21821.414620347798
DataValue, 0.24400000000000002, 1.118399E-06, 218169.00766184522, 21816.900766184521
DataValue, 0.24500000000000002, 1.122849E-06, 218194.96655382874, 21819.496655382871
DataValue, 0.24600000000000002, 1.127314E-06, 218217.81686380194, 21821.781686380193
DataValue, 0.24700000000000003, 1.132147E-06, 218169.54865401756, 21816.954865401753
