
SetupTitle, R-V
ApplicationTest, R-V, Public
TestParameter, Name, Port1, Port2, V1Start, V1Stop, V1Step, V2, I1Limit, IntegTime, HoldTime, DelayTime, Port1MinRng
TestParameter, Value, SMU1:MP	MPSMU, SMU2:MP	MPSMU, 0, 1, 0.02, 0, 0.01, MEDIUM, 0, 0, 1nA
DutParameter, Name, L, W, Temp
DutParameter, Value, 1E-05, 1E-06, 25
MetaData, TestRecord.EntryPoint, true
MetaData, TestRecord.RecordTime, 03/03/2023 16:18:55
MetaData, TestRecord.TestTarget, 
MetaData, TestRecord.IterationIndex, 11
MetaData, TestRecord.Preservation, true
MetaData, TestRecord.Flag, 
MetaData, TestRecord.Remarks, 
MetaData, TestRecord.LinkKey, 36d06167-e9ba-4481-b6a9-e985b91482fa
Dimension1, 51, 51, 51, 51
Dimension2, 1, 1, 1, 1
DataName, V1, I1, R, Rsheet
DataValue, 0, 2.7E-13, 0, 0
DataValue, 0.02, 3.5E-14, 571428571428.57141, 57142857142.857132
DataValue, 0.04, 8E-15, 5000000000000, 499999999999.99994
DataValue, 0.060000000000000005, 3.6000000000000004E-14, 1666666666666.6665, 166666666666.66663
DataValue, 0.08, 2.5100000000000004E-13, 318725099601.59357, 31872509960.159355
DataValue, 0.1, 2.7800000000000003E-13, 359712230215.82733, 35971223021.582726
DataValue, 0.12000000000000001, 1.1500000000000002E-13, 1043478260869.5652, 104347826086.95651
DataValue, 0.14, 3.51E-13, 398860398860.39886, 39886039886.039879
DataValue, 0.16, 3.4E-13, 470588235294.11761, 47058823529.411758
DataValue, 0.18000000000000002, 3.8300000000000003E-13, 469973890339.4256, 46997389033.942558
DataValue, 0.2, 3.7300000000000003E-13, 536193029490.61664, 53619302949.061661
DataValue, 0.22, 1.1100000000000001E-13, 1981981981981.9819, 198198198198.19815
DataValue, 0.24000000000000002, 2.6200000000000004E-13, 916030534351.1449, 91603053435.114471
DataValue, 0.26, -8E-15, -32500000000000, -3249999999999.9995
DataValue, 0.28, 3.29E-13, 851063829787.23413, 85106382978.7234
DataValue, 0.3, 3.27E-13, 917431192660.55042, 91743119266.055023
DataValue, 0.32, 2.61E-13, 1226053639846.7434, 122605363984.67432
DataValue, 0.34, 1.8600000000000002E-13, 1827956989247.3118, 182795698924.73114
DataValue, 0.36000000000000004, 2.3550000000000004E-12, 152866242038.21655, 15286624203.821655
DataValue, 0.38, 4.36E-13, 871559633027.523, 87155963302.752289
DataValue, 0.4, 4.99E-13, 801603206412.82568, 80160320641.282562
DataValue, 0.42000000000000004, 4.23E-13, 992907801418.43982, 99290780141.843964
DataValue, 0.44, -4.8300000000000006E-13, -910973084886.1283, -91097308488.612808
DataValue, 0.46, 7.77E-13, 592020592020.592, 59202059202.059204
DataValue, 0.48000000000000004, 2.006E-12, 239282153539.38187, 23928215353.938183
DataValue, 0.5, -1.29E-13, -3875968992248.062, -387596899224.80615
DataValue, 0.52, 5.7900000000000006E-13, 898100172711.57166, 89810017271.15715
DataValue, 0.54, 9.0900000000000006E-13, 594059405940.59412, 59405940594.0594
DataValue, 0.56, 3.38E-13, 1656804733727.8108, 165680473372.78107
DataValue, 0.58000000000000007, 2.46E-13, 2357723577235.7725, 235772357723.57721
DataValue, 0.6, 3.03E-13, 1980198019801.98, 198019801980.19797
DataValue, 0.62, 1.7200000000000002E-13, 3604651162790.6973, 360465116279.0697
DataValue, 0.64, 5.2700000000000008E-13, 1214421252371.9163, 121442125237.19162
DataValue, 0.66, 5.5000000000000005E-14, 12000000000000, 1200000000000
DataValue, 0.68, 1.06E-13, 6415094339622.6416, 641509433962.264
DataValue, 0.70000000000000007, -4.2000000000000004E-14, -16666666666666.666, -1666666666666.6665
DataValue, 0.72000000000000008, 3.2400000000000003E-13, 2222222222222.2222, 222222222222.2222
DataValue, 0.74, 8.91E-13, 830527497194.16382, 83052749719.416367
DataValue, 0.76, 1.2480000000000001E-12, 608974358974.35889, 60897435897.435883
DataValue, 0.78, 1.665E-12, 468468468468.46844, 46846846846.84684
DataValue, 0.8, 2.181E-12, 366804218248.50989, 36680421824.850983
DataValue, 0.82000000000000006, 1.084E-12, 756457564575.64575, 75645756457.56456
DataValue, 0.84000000000000008, 4.7800000000000008E-13, 1757322175732.2175, 175732217573.22174
DataValue, 0.86, 8.1200000000000007E-13, 1059113300492.6107, 105911330049.26106
DataValue, 0.88, 3.113E-12, 282685512367.49115, 28268551236.749111
DataValue, 0.9, 7.597E-12, 118467816243.25392, 11846781624.32539
DataValue, 0.92, -8E-15, -115000000000000, -11500000000000
DataValue, 0.94000000000000006, -8.67E-13, -1084198385236.4475, -108419838523.64473
DataValue, 0.96000000000000008, -4.2500000000000006E-13, -2258823529411.7646, -225882352941.17642
DataValue, 0.98000000000000009, -4.3900000000000005E-13, -2232346241457.8589, -223234624145.78583
DataValue, 1, 5.84E-13, 1712328767123.2876, 171232876712.32874
SetupTitle, R-V
PrimitiveTest, I/V Sweep
TestParameter, Context.MainFrame, B1500A
TestParameter, Channel.UnitType, SMU, SMU
TestParameter, Channel.Unit, Port1, Port2
TestParameter, Channel.IName, I1, I2
TestParameter, Channel.VName, V1, V2
TestParameter, Channel.Mode, V, V
TestParameter, Channel.Func, VAR1, CONST
TestParameter, Channel.Index, 
TestParameter, Channel.Time, 
TestParameter, Measurement.Port.Unit, Port1, Port2
TestParameter, Measurement.Port.SeriesResistor, NONE, NONE
TestParameter, Measurement.Port.Filter, OFF, OFF
TestParameter, Measurement.Port.OutputVoltageComparison, 0, 0
TestParameter, Measurement.Primary.Locus, Single
TestParameter, Measurement.Primary.Scale, LINEAR
TestParameter, Measurement.Primary.Start, V1Start
TestParameter, Measurement.Primary.Stop, V1Stop
TestParameter, Measurement.Primary.Step, V1Step
TestParameter, Measurement.Primary.Compliance, I1Limit
TestParameter, Measurement.Primary.PowerCompliance, 0
TestParameter, Measurement.Aborting.Condition, CONTINUE AT ANY
TestParameter, Measurement.PostOutput.Value, START
TestParameter, Measurement.PostOutput.Retention, OFF
TestParameter, Measurement.Bias.Source, 0, V2
TestParameter, Measurement.Bias.Compliance, 0.01, I1Limit
TestParameter, Measurement.Monitor.Unit, SMU:=Port1, SMU:=Port2
TestParameter, Measurement.Monitor.Adc, HR ADC, HR ADC
TestParameter, Measurement.Monitor.Measurement, Compliance Side, Compliance Side
TestParameter, Measurement.Monitor.RangingMode, LIMITED, LIMITED
TestParameter, Measurement.Monitor.RangeBoundary, Port1MinRng, 1nA
TestParameter, Measurement.Monitor.RangeRating, BY FULL RANGE, BY FULL RANGE
TestParameter, Measurement.Monitor.RangeRatingCoeff, 50, 50
TestParameter, Measurement.Timing.Hold, HoldTime
TestParameter, Measurement.Timing.Delay, DelayTime
TestParameter, Measurement.Adc.HighSpeed.Mode, AUTO
TestParameter, Measurement.Adc.HighSpeed.Coeff, 1
TestParameter, Measurement.Adc.HighResolution.AutoZero, ON
TestParameter, Measurement.Adc.HighResolution.Mode, IntegMode
TestParameter, Measurement.Adc.HighResolution.Coeff, AdcFactor
TestParameter, Measurement.WaitTime.Source.Coeff, 1
TestParameter, Measurement.WaitTime.Source.Offset, 0
TestParameter, Measurement.WaitTime.Monitor.Coeff, 1
TestParameter, Measurement.WaitTime.Monitor.Offset, 0
TestParameter, Function.User.Name, R, Rsheet
TestParameter, Function.User.Unit, ohm, ohm/sheet
TestParameter, Function.User.Definition, V1/I1, R*W/L
TestParameter, Output.Graph.Enabled, true
TestParameter, Output.Graph.AutoScaling, false
TestParameter, Output.Graph.XAxis.Data, V1
TestParameter, Output.Graph.XAxis.Scale, Linear
TestParameter, Output.Graph.XAxis.Left, V1Start
TestParameter, Output.Graph.XAxis.Right, V1Stop
TestParameter, Output.Graph.XAxis.RunTimeAutoScale, false
TestParameter, Output.Graph.YAxis.Data, R, I1
TestParameter, Output.Graph.YAxis.Scale, Linear, Linear
TestParameter, Output.Graph.YAxis.Bottom, 0, 0
TestParameter, Output.Graph.YAxis.Top, V1Stop/I1Limit, I1Limit
TestParameter, Output.Graph.YAxis.Group, , 
TestParameter, Output.Graph.YAxis.RunTimeAutoScale, false, false
TestParameter, Output.List.Data, V1, I1, R, Rsheet
TestParameter, AutoAnalysis.Interpolation, false
TestParameter, AutoAnalysis.Line1.Enabled, false
TestParameter, AutoAnalysis.Line1.Type, 1
TestParameter, AutoAnalysis.Line1.Fix, False
TestParameter, AutoAnalysis.Line1.YAxis, 0
TestParameter, AutoAnalysis.Line1.Point1.Type, 0
TestParameter, AutoAnalysis.Line1.Point1.XY.X, 
TestParameter, AutoAnalysis.Line1.Point1.XY.Y, 
TestParameter, AutoAnalysis.Line1.Point1.Data.Var, 
TestParameter, AutoAnalysis.Line1.Point1.Data.Condition, 
TestParameter, AutoAnalysis.Line1.Point1.Data.Start, false
TestParameter, AutoAnalysis.Line1.Point1.Data.StartVar, 
TestParameter, AutoAnalysis.Line1.Point1.Data.StartCondition, 
TestParameter, AutoAnalysis.Line1.Point2.Type, 0
TestParameter, AutoAnalysis.Line1.Point2.XY.X, 
TestParameter, AutoAnalysis.Line1.Point2.XY.Y, 
TestParameter, AutoAnalysis.Line1.Point2.Data.Var, 
TestParameter, AutoAnalysis.Line1.Point2.Data.Condition, 
TestParameter, AutoAnalysis.Line1.Point2.Data.Start, false
TestParameter, AutoAnalysis.Line1.Point2.Data.StartVar, 
TestParameter, AutoAnalysis.Line1.Point2.Data.StartCondition, 
TestParameter, AutoAnalysis.Line1.GradientExpr, 0
TestParameter, AutoAnalysis.Line2.Enabled, false
TestParameter, AutoAnalysis.Line2.Type, 1
TestParameter, AutoAnalysis.Line2.Fix, False
TestParameter, AutoAnalysis.Line2.YAxis, 0
TestParameter, AutoAnalysis.Line2.Point1.Type, 0
TestParameter, AutoAnalysis.Line2.Point1.XY.X, 
TestParameter, AutoAnalysis.Line2.Point1.XY.Y, 
TestParameter, AutoAnalysis.Line2.Point1.Data.Var, 
TestParameter, AutoAnalysis.Line2.Point1.Data.Condition, 
TestParameter, AutoAnalysis.Line2.Point1.Data.Start, false
TestParameter, AutoAnalysis.Line2.Point1.Data.StartVar, 
TestParameter, AutoAnalysis.Line2.Point1.Data.StartCondition, 
TestParameter, AutoAnalysis.Line2.Point2.Type, 0
TestParameter, AutoAnalysis.Line2.Point2.XY.X, 
TestParameter, AutoAnalysis.Line2.Point2.XY.Y, 
TestParameter, AutoAnalysis.Line2.Point2.Data.Var, 
TestParameter, AutoAnalysis.Line2.Point2.Data.Condition, 
TestParameter, AutoAnalysis.Line2.Point2.Data.Start, false
TestParameter, AutoAnalysis.Line2.Point2.Data.StartVar, 
TestParameter, AutoAnalysis.Line2.Point2.Data.StartCondition, 
TestParameter, AutoAnalysis.Line2.GradientExpr, 0
TestParameter, AutoAnalysis.Marker.Enabled, false
TestParameter, AutoAnalysis.Marker.Data.Var, 
TestParameter, AutoAnalysis.Marker.Data.Condition, 
TestParameter, AutoAnalysis.Marker.Data.Start, false
TestParameter, AutoAnalysis.Marker.Data.StartVar, 
TestParameter, AutoAnalysis.Marker.Data.StartCondition, 
MetaData, TestRecord.EntryPoint, false
MetaData, TestRecord.RecordTime, 03/03/2023 16:18:55
MetaData, TestRecord.TestTarget, 
MetaData, TestRecord.IterationIndex, 11
MetaData, TestRecord.Preservation, true
MetaData, TestRecord.Flag, 
MetaData, TestRecord.Remarks, 
MetaData, TestRecord.LinkKey, 36d06167-e9ba-4481-b6a9-e985b91482fa
Dimension1, 51, 51, 51, 51
Dimension2, 1, 1, 1, 1
DataName, V1, I1, R, Rsheet
DataValue, 0, 2.7E-13, 0, 0
DataValue, 0.02, 3.5E-14, 571428571428.57141, 57142857142.857132
DataValue, 0.04, 8E-15, 5000000000000, 499999999999.99994
DataValue, 0.060000000000000005, 3.6000000000000004E-14, 1666666666666.6665, 166666666666.66663
DataValue, 0.08, 2.5100000000000004E-13, 318725099601.59357, 31872509960.159355
DataValue, 0.1, 2.7800000000000003E-13, 359712230215.82733, 35971223021.582726
DataValue, 0.12000000000000001, 1.1500000000000002E-13, 1043478260869.5652, 104347826086.95651
DataValue, 0.14, 3.51E-13, 398860398860.39886, 39886039886.039879
DataValue, 0.16, 3.4E-13, 470588235294.11761, 47058823529.411758
DataValue, 0.18000000000000002, 3.8300000000000003E-13, 469973890339.4256, 46997389033.942558
DataValue, 0.2, 3.7300000000000003E-13, 536193029490.61664, 53619302949.061661
DataValue, 0.22, 1.1100000000000001E-13, 1981981981981.9819, 198198198198.19815
DataValue, 0.24000000000000002, 2.6200000000000004E-13, 916030534351.1449, 91603053435.114471
DataValue, 0.26, -8E-15, -32500000000000, -3249999999999.9995
DataValue, 0.28, 3.29E-13, 851063829787.23413, 85106382978.7234
DataValue, 0.3, 3.27E-13, 917431192660.55042, 91743119266.055023
DataValue, 0.32, 2.61E-13, 1226053639846.7434, 122605363984.67432
DataValue, 0.34, 1.8600000000000002E-13, 1827956989247.3118, 182795698924.73114
DataValue, 0.36000000000000004, 2.3550000000000004E-12, 152866242038.21655, 15286624203.821655
DataValue, 0.38, 4.36E-13, 871559633027.523, 87155963302.752289
DataValue, 0.4, 4.99E-13, 801603206412.82568, 80160320641.282562
DataValue, 0.42000000000000004, 4.23E-13, 992907801418.43982, 99290780141.843964
DataValue, 0.44, -4.8300000000000006E-13, -910973084886.1283, -91097308488.612808
DataValue, 0.46, 7.77E-13, 592020592020.592, 59202059202.059204
DataValue, 0.48000000000000004, 2.006E-12, 239282153539.38187, 23928215353.938183
DataValue, 0.5, -1.29E-13, -3875968992248.062, -387596899224.80615
DataValue, 0.52, 5.7900000000000006E-13, 898100172711.57166, 89810017271.15715
DataValue, 0.54, 9.0900000000000006E-13, 594059405940.59412, 59405940594.0594
DataValue, 0.56, 3.38E-13, 1656804733727.8108, 165680473372.78107
DataValue, 0.58000000000000007, 2.46E-13, 2357723577235.7725, 235772357723.57721
DataValue, 0.6, 3.03E-13, 1980198019801.98, 198019801980.19797
DataValue, 0.62, 1.7200000000000002E-13, 3604651162790.6973, 360465116279.0697
DataValue, 0.64, 5.2700000000000008E-13, 1214421252371.9163, 121442125237.19162
DataValue, 0.66, 5.5000000000000005E-14, 12000000000000, 1200000000000
DataValue, 0.68, 1.06E-13, 6415094339622.6416, 641509433962.264
DataValue, 0.70000000000000007, -4.2000000000000004E-14, -16666666666666.666, -1666666666666.6665
DataValue, 0.72000000000000008, 3.2400000000000003E-13, 2222222222222.2222, 222222222222.2222
DataValue, 0.74, 8.91E-13, 830527497194.16382, 83052749719.416367
DataValue, 0.76, 1.2480000000000001E-12, 608974358974.35889, 60897435897.435883
DataValue, 0.78, 1.665E-12, 468468468468.46844, 46846846846.84684
DataValue, 0.8, 2.181E-12, 366804218248.50989, 36680421824.850983
DataValue, 0.82000000000000006, 1.084E-12, 756457564575.64575, 75645756457.56456
DataValue, 0.84000000000000008, 4.7800000000000008E-13, 1757322175732.2175, 175732217573.22174
DataValue, 0.86, 8.1200000000000007E-13, 1059113300492.6107, 105911330049.26106
DataValue, 0.88, 3.113E-12, 282685512367.49115, 28268551236.749111
DataValue, 0.9, 7.597E-12, 118467816243.25392, 11846781624.32539
DataValue, 0.92, -8E-15, -115000000000000, -11500000000000
DataValue, 0.94000000000000006, -8.67E-13, -1084198385236.4475, -108419838523.64473
DataValue, 0.96000000000000008, -4.2500000000000006E-13, -2258823529411.7646, -225882352941.17642
DataValue, 0.98000000000000009, -4.3900000000000005E-13, -2232346241457.8589, -223234624145.78583
DataValue, 1, 5.84E-13, 1712328767123.2876, 171232876712.32874