
SetupTitle, R-V
ApplicationTest, R-V, Public
TestParameter, Name, Port1, Port2, V1Start, V1Stop, V1Step, V2, I1Limit, IntegTime, HoldTime, DelayTime, Port1MinRng
TestParameter, Value, SMU1:MP	MPSMU, SMU2:MP	MPSMU, 0, 1, 0.02, 0, 0.01, MEDIUM, 0, 0, 1nA
DutParameter, Name, L, W, Temp
DutParameter, Value, 1E-05, 1E-06, 25
MetaData, TestRecord.EntryPoint, true
MetaData, TestRecord.RecordTime, 03/03/2023 16:16:28
MetaData, TestRecord.TestTarget, 
MetaData, TestRecord.IterationIndex, 7
MetaData, TestRecord.Preservation, true
MetaData, TestRecord.Flag, 
MetaData, TestRecord.Remarks, 
MetaData, TestRecord.LinkKey, 56e2fcb8-7c03-47f5-b7dd-891bef4b5e74
Dimension1, 51, 51, 51, 51
Dimension2, 1, 1, 1, 1
DataName, V1, I1, R, Rsheet
DataValue, 0, -4.0764000000000005E-11, -0, -0
DataValue, 0.02, 7.10105E-08, 281648.48860379803, 28164.848860379803
DataValue, 0.04, 1.42037E-07, 281616.76182966412, 28161.67618296641
DataValue, 0.060000000000000005, 2.13056E-07, 281616.10093121062, 28161.610093121057
DataValue, 0.08, 2.84069E-07, 281621.71866694361, 28162.171866694356
DataValue, 0.1, 3.5509699999999997E-07, 281613.19301486638, 28161.319301486634
DataValue, 0.12000000000000001, 4.26115E-07, 281614.11825446185, 28161.411825446179
DataValue, 0.14, 4.97144E-07, 281608.5480263264, 28160.854802632639
DataValue, 0.16, 5.68108E-07, 281636.59022580215, 28163.65902258021
DataValue, 0.18000000000000002, 6.39134E-07, 281631.08205790963, 28163.108205790959
DataValue, 0.2, 7.10132E-07, 281637.7800183628, 28163.778001836276
DataValue, 0.22, 7.8115E-07, 281636.04941432504, 28163.6049414325
DataValue, 0.24000000000000002, 8.5214899999999994E-07, 281640.886746332, 28164.088674633196
DataValue, 0.26, 9.23169E-07, 281638.57321898808, 28163.857321898802
DataValue, 0.28, 9.94131E-07, 281653.02158367465, 28165.30215836746
DataValue, 0.3, 1.065149E-06, 281650.73618808261, 28165.073618808259
DataValue, 0.32, 1.136336E-06, 281606.84867855988, 28160.68486785598
DataValue, 0.34, 1.20736E-06, 281606.14895308774, 28160.614895308769
DataValue, 0.36000000000000004, 1.27819E-06, 281648.2682543284, 28164.826825432836
DataValue, 0.38, 1.3493800000000002E-06, 281610.813855252, 28161.081385525198
DataValue, 0.4, 1.4202100000000003E-06, 281648.488603798, 28164.848860379796
DataValue, 0.42000000000000004, 1.4910500000000001E-06, 281680.69481238053, 28168.06948123805
DataValue, 0.44, 1.56217E-06, 281659.48648354533, 28165.94864835453
DataValue, 0.46, 1.6330100000000001E-06, 281688.41587008041, 28168.841587008039
DataValue, 0.48000000000000004, 1.70383E-06, 281718.24653868051, 28171.824653868047
DataValue, 0.5, 1.7749400000000002E-06, 281699.66308720293, 28169.966308720286
DataValue, 0.52, 1.8457700000000002E-06, 281725.24203990743, 28172.524203990739
DataValue, 0.54, 1.9166600000000004E-06, 281740.11040038394, 28174.011040038393
DataValue, 0.56, 1.9877E-06, 281732.65583337529, 28173.265583337525
DataValue, 0.58000000000000007, 2.05857E-06, 281748.98108881409, 28174.898108881407
DataValue, 0.6, 2.12947E-06, 281760.25020310213, 28176.025020310211
DataValue, 0.62, 2.2002400000000004E-06, 281787.44137003232, 28178.744137003228
DataValue, 0.64, 2.27119E-06, 281790.60316398012, 28179.060316398012
DataValue, 0.66, 2.3420700000000004E-06, 281801.99567049654, 28180.199567049651
DataValue, 0.68, 2.4132300000000004E-06, 281780.0209677486, 28178.002096774853
DataValue, 0.70000000000000007, 2.4841100000000003E-06, 281791.06400280178, 28179.106400280176
DataValue, 0.72000000000000008, 2.5550100000000004E-06, 281799.28845679661, 28179.928845679657
DataValue, 0.74, 2.6258500000000004E-06, 281813.50800693105, 28181.350800693104
DataValue, 0.76, 2.6967600000000003E-06, 281819.66507957695, 28181.966507957692
DataValue, 0.78, 2.7675100000000005E-06, 281841.80002962949, 28184.180002962948
DataValue, 0.8, 2.8384000000000002E-06, 281848.92897406989, 28184.892897406986
DataValue, 0.82000000000000006, 2.9093200000000004E-06, 281852.80409167777, 28185.280409167772
DataValue, 0.84000000000000008, 2.98021E-06, 281859.33206049242, 28185.933206049238
DataValue, 0.86, 3.0510900000000005E-06, 281866.4805036888, 28186.648050368876
DataValue, 0.88, 3.1219100000000004E-06, 281878.72167999716, 28187.872167999714
DataValue, 0.9, 3.1927900000000003E-06, 281885.12241644453, 28188.51224164445
DataValue, 0.92, 3.2636600000000004E-06, 281892.10885937873, 28189.210885937868
DataValue, 0.94000000000000006, 3.3343200000000005E-06, 281916.55270040064, 28191.655270040061
DataValue, 0.96000000000000008, 3.40536E-06, 281908.52068503771, 28190.852068503766
DataValue, 0.98000000000000009, 3.4760500000000004E-06, 281929.20124854363, 28192.920124854358
DataValue, 1, 3.5468600000000005E-06, 281939.51833452686, 28193.951833452684
SetupTitle, R-V
PrimitiveTest, I/V Sweep
TestParameter, Context.MainFrame, B1500A
TestParameter, Channel.UnitType, SMU, SMU
TestParameter, Channel.Unit, Port1, Port2
TestParameter, Channel.IName, I1, I2
TestParameter, Channel.VName, V1, V2
TestParameter, Channel.Mode, V, V
TestParameter, Channel.Func, VAR1, CONST
TestParameter, Channel.Index, 
TestParameter, Channel.Time, 
TestParameter, Measurement.Port.Unit, Port1, Port2
TestParameter, Measurement.Port.SeriesResistor, NONE, NONE
TestParameter, Measurement.Port.Filter, OFF, OFF
TestParameter, Measurement.Port.OutputVoltageComparison, 0, 0
TestParameter, Measurement.Primary.Locus, Single
TestParameter, Measurement.Primary.Scale, LINEAR
TestParameter, Measurement.Primary.Start, V1Start
TestParameter, Measurement.Primary.Stop, V1Stop
TestParameter, Measurement.Primary.Step, V1Step
TestParameter, Measurement.Primary.Compliance, I1Limit
TestParameter, Measurement.Primary.PowerCompliance, 0
TestParameter, Measurement.Aborting.Condition, CONTINUE AT ANY
TestParameter, Measurement.PostOutput.Value, START
TestParameter, Measurement.PostOutput.Retention, OFF
TestParameter, Measurement.Bias.Source, 0, V2
TestParameter, Measurement.Bias.Compliance, 0.01, I1Limit
TestParameter, Measurement.Monitor.Unit, SMU:=Port1, SMU:=Port2
TestParameter, Measurement.Monitor.Adc, HR ADC, HR ADC
TestParameter, Measurement.Monitor.Measurement, Compliance Side, Compliance Side
TestParameter, Measurement.Monitor.RangingMode, LIMITED, LIMITED
TestParameter, Measurement.Monitor.RangeBoundary, Port1MinRng, 1nA
TestParameter, Measurement.Monitor.RangeRating, BY FULL RANGE, BY FULL RANGE
TestParameter, Measurement.Monitor.RangeRatingCoeff, 50, 50
TestParameter, Measurement.Timing.Hold, HoldTime
TestParameter, Measurement.Timing.Delay, DelayTime
TestParameter, Measurement.Adc.HighSpeed.Mode, AUTO
TestParameter, Measurement.Adc.HighSpeed.Coeff, 1
TestParameter, Measurement.Adc.HighResolution.AutoZero, ON
TestParameter, Measurement.Adc.HighResolution.Mode, IntegMode
TestParameter, Measurement.Adc.HighResolution.Coeff, AdcFactor
TestParameter, Measurement.WaitTime.Source.Coeff, 1
TestParameter, Measurement.WaitTime.Source.Offset, 0
TestParameter, Measurement.WaitTime.Monitor.Coeff, 1
TestParameter, Measurement.WaitTime.Monitor.Offset, 0
TestParameter, Function.User.Name, R, Rsheet
TestParameter, Function.User.Unit, ohm, ohm/sheet
TestParameter, Function.User.Definition, V1/I1, R*W/L
TestParameter, Output.Graph.Enabled, true
TestParameter, Output.Graph.AutoScaling, false
TestParameter, Output.Graph.XAxis.Data, V1
TestParameter, Output.Graph.XAxis.Scale, Linear
TestParameter, Output.Graph.XAxis.Left, V1Start
TestParameter, Output.Graph.XAxis.Right, V1Stop
TestParameter, Output.Graph.XAxis.RunTimeAutoScale, false
TestParameter, Output.Graph.YAxis.Data, R, I1
TestParameter, Output.Graph.YAxis.Scale, Linear, Linear
TestParameter, Output.Graph.YAxis.Bottom, 0, 0
TestParameter, Output.Graph.YAxis.Top, V1Stop/I1Limit, I1Limit
TestParameter, Output.Graph.YAxis.Group, , 
TestParameter, Output.Graph.YAxis.RunTimeAutoScale, false, false
TestParameter, Output.List.Data, V1, I1, R, Rsheet
TestParameter, AutoAnalysis.Interpolation, false
TestParameter, AutoAnalysis.Line1.Enabled, false
TestParameter, AutoAnalysis.Line1.Type, 1
TestParameter, AutoAnalysis.Line1.Fix, False
TestParameter, AutoAnalysis.Line1.YAxis, 0
TestParameter, AutoAnalysis.Line1.Point1.Type, 0
TestParameter, AutoAnalysis.Line1.Point1.XY.X, 
TestParameter, AutoAnalysis.Line1.Point1.XY.Y, 
TestParameter, AutoAnalysis.Line1.Point1.Data.Var, 
TestParameter, AutoAnalysis.Line1.Point1.Data.Condition, 
TestParameter, AutoAnalysis.Line1.Point1.Data.Start, false
TestParameter, AutoAnalysis.Line1.Point1.Data.StartVar, 
TestParameter, AutoAnalysis.Line1.Point1.Data.StartCondition, 
TestParameter, AutoAnalysis.Line1.Point2.Type, 0
TestParameter, AutoAnalysis.Line1.Point2.XY.X, 
TestParameter, AutoAnalysis.Line1.Point2.XY.Y, 
TestParameter, AutoAnalysis.Line1.Point2.Data.Var, 
TestParameter, AutoAnalysis.Line1.Point2.Data.Condition, 
TestParameter, AutoAnalysis.Line1.Point2.Data.Start, false
TestParameter, AutoAnalysis.Line1.Point2.Data.StartVar, 
TestParameter, AutoAnalysis.Line1.Point2.Data.StartCondition, 
TestParameter, AutoAnalysis.Line1.GradientExpr, 0
TestParameter, AutoAnalysis.Line2.Enabled, false
TestParameter, AutoAnalysis.Line2.Type, 1
TestParameter, AutoAnalysis.Line2.Fix, False
TestParameter, AutoAnalysis.Line2.YAxis, 0
TestParameter, AutoAnalysis.Line2.Point1.Type, 0
TestParameter, AutoAnalysis.Line2.Point1.XY.X, 
TestParameter, AutoAnalysis.Line2.Point1.XY.Y, 
TestParameter, AutoAnalysis.Line2.Point1.Data.Var, 
TestParameter, AutoAnalysis.Line2.Point1.Data.Condition, 
TestParameter, AutoAnalysis.Line2.Point1.Data.Start, false
TestParameter, AutoAnalysis.Line2.Point1.Data.StartVar, 
TestParameter, AutoAnalysis.Line2.Point1.Data.StartCondition, 
TestParameter, AutoAnalysis.Line2.Point2.Type, 0
TestParameter, AutoAnalysis.Line2.Point2.XY.X, 
TestParameter, AutoAnalysis.Line2.Point2.XY.Y, 
TestParameter, AutoAnalysis.Line2.Point2.Data.Var, 
TestParameter, AutoAnalysis.Line2.Point2.Data.Condition, 
TestParameter, AutoAnalysis.Line2.Point2.Data.Start, false
TestParameter, AutoAnalysis.Line2.Point2.Data.StartVar, 
TestParameter, AutoAnalysis.Line2.Point2.Data.StartCondition, 
TestParameter, AutoAnalysis.Line2.GradientExpr, 0
TestParameter, AutoAnalysis.Marker.Enabled, false
TestParameter, AutoAnalysis.Marker.Data.Var, 
TestParameter, AutoAnalysis.Marker.Data.Condition, 
TestParameter, AutoAnalysis.Marker.Data.Start, false
TestParameter, AutoAnalysis.Marker.Data.StartVar, 
TestParameter, AutoAnalysis.Marker.Data.StartCondition, 
MetaData, TestRecord.EntryPoint, false
MetaData, TestRecord.RecordTime, 03/03/2023 16:16:28
MetaData, TestRecord.TestTarget, 
MetaData, TestRecord.IterationIndex, 7
MetaData, TestRecord.Preservation, true
MetaData, TestRecord.Flag, 
MetaData, TestRecord.Remarks, 
MetaData, TestRecord.LinkKey, 56e2fcb8-7c03-47f5-b7dd-891bef4b5e74
Dimension1, 51, 51, 51, 51
Dimension2, 1, 1, 1, 1
DataName, V1, I1, R, Rsheet
DataValue, 0, -4.0764000000000005E-11, -0, -0
DataValue, 0.02, 7.10105E-08, 281648.48860379803, 28164.848860379803
DataValue, 0.04, 1.42037E-07, 281616.76182966412, 28161.67618296641
DataValue, 0.060000000000000005, 2.13056E-07, 281616.10093121062, 28161.610093121057
DataValue, 0.08, 2.84069E-07, 281621.71866694361, 28162.171866694356
DataValue, 0.1, 3.5509699999999997E-07, 281613.19301486638, 28161.319301486634
DataValue, 0.12000000000000001, 4.26115E-07, 281614.11825446185, 28161.411825446179
DataValue, 0.14, 4.97144E-07, 281608.5480263264, 28160.854802632639
DataValue, 0.16, 5.68108E-07, 281636.59022580215, 28163.65902258021
DataValue, 0.18000000000000002, 6.39134E-07, 281631.08205790963, 28163.108205790959
DataValue, 0.2, 7.10132E-07, 281637.7800183628, 28163.778001836276
DataValue, 0.22, 7.8115E-07, 281636.04941432504, 28163.6049414325
DataValue, 0.24000000000000002, 8.5214899999999994E-07, 281640.886746332, 28164.088674633196
DataValue, 0.26, 9.23169E-07, 281638.57321898808, 28163.857321898802
DataValue, 0.28, 9.94131E-07, 281653.02158367465, 28165.30215836746
DataValue, 0.3, 1.065149E-06, 281650.73618808261, 28165.073618808259
DataValue, 0.32, 1.136336E-06, 281606.84867855988, 28160.68486785598
DataValue, 0.34, 1.20736E-06, 281606.14895308774, 28160.614895308769
DataValue, 0.36000000000000004, 1.27819E-06, 281648.2682543284, 28164.826825432836
DataValue, 0.38, 1.3493800000000002E-06, 281610.813855252, 28161.081385525198
DataValue, 0.4, 1.4202100000000003E-06, 281648.488603798, 28164.848860379796
DataValue, 0.42000000000000004, 1.4910500000000001E-06, 281680.69481238053, 28168.06948123805
DataValue, 0.44, 1.56217E-06, 281659.48648354533, 28165.94864835453
DataValue, 0.46, 1.6330100000000001E-06, 281688.41587008041, 28168.841587008039
DataValue, 0.48000000000000004, 1.70383E-06, 281718.24653868051, 28171.824653868047
DataValue, 0.5, 1.7749400000000002E-06, 281699.66308720293, 28169.966308720286
DataValue, 0.52, 1.8457700000000002E-06, 281725.24203990743, 28172.524203990739
DataValue, 0.54, 1.9166600000000004E-06, 281740.11040038394, 28174.011040038393
DataValue, 0.56, 1.9877E-06, 281732.65583337529, 28173.265583337525
DataValue, 0.58000000000000007, 2.05857E-06, 281748.98108881409, 28174.898108881407
DataValue, 0.6, 2.12947E-06, 281760.25020310213, 28176.025020310211
DataValue, 0.62, 2.2002400000000004E-06, 281787.44137003232, 28178.744137003228
DataValue, 0.64, 2.27119E-06, 281790.60316398012, 28179.060316398012
DataValue, 0.66, 2.3420700000000004E-06, 281801.99567049654, 28180.199567049651
DataValue, 0.68, 2.4132300000000004E-06, 281780.0209677486, 28178.002096774853
DataValue, 0.70000000000000007, 2.4841100000000003E-06, 281791.06400280178, 28179.106400280176
DataValue, 0.72000000000000008, 2.5550100000000004E-06, 281799.28845679661, 28179.928845679657
DataValue, 0.74, 2.6258500000000004E-06, 281813.50800693105, 28181.350800693104
DataValue, 0.76, 2.6967600000000003E-06, 281819.66507957695, 28181.966507957692
DataValue, 0.78, 2.7675100000000005E-06, 281841.80002962949, 28184.180002962948
DataValue, 0.8, 2.8384000000000002E-06, 281848.92897406989, 28184.892897406986
DataValue, 0.82000000000000006, 2.9093200000000004E-06, 281852.80409167777, 28185.280409167772
DataValue, 0.84000000000000008, 2.98021E-06, 281859.33206049242, 28185.933206049238
DataValue, 0.86, 3.0510900000000005E-06, 281866.4805036888, 28186.648050368876
DataValue, 0.88, 3.1219100000000004E-06, 281878.72167999716, 28187.872167999714
DataValue, 0.9, 3.1927900000000003E-06, 281885.12241644453, 28188.51224164445
DataValue, 0.92, 3.2636600000000004E-06, 281892.10885937873, 28189.210885937868
DataValue, 0.94000000000000006, 3.3343200000000005E-06, 281916.55270040064, 28191.655270040061
DataValue, 0.96000000000000008, 3.40536E-06, 281908.52068503771, 28190.852068503766
DataValue, 0.98000000000000009, 3.4760500000000004E-06, 281929.20124854363, 28192.920124854358
DataValue, 1, 3.5468600000000005E-06, 281939.51833452686, 28193.951833452684