
SetupTitle, R-V
ApplicationTest, R-V, Public
TestParameter, Name, Port1, Port2, V1Start, V1Stop, V1Step, V2, I1Limit, IntegTime, HoldTime, DelayTime, Port1MinRng
TestParameter, Value, SMU1:MP	MPSMU, SMU2:MP	MPSMU, 0, 1, 0.05, 0, 0.01, MEDIUM, 0, 0, 1nA
DutParameter, Name, L, W, Temp
DutParameter, Value, 1E-05, 1E-06, 25
MetaData, TestRecord.EntryPoint, true
MetaData, TestRecord.RecordTime, 03/04/2023 18:51:36
MetaData, TestRecord.TestTarget, 
MetaData, TestRecord.IterationIndex, 272
MetaData, TestRecord.Preservation, true
MetaData, TestRecord.Flag, 
MetaData, TestRecord.Remarks, 
MetaData, TestRecord.LinkKey, a7ae056d-a6fa-4bc8-9e7a-93f96e5f8abc
Dimension1, 21, 21, 21, 21
Dimension2, 1, 1, 1, 1
DataName, V1, I1, R, Rsheet
DataValue, 0, 1.63E-13, 0, 0
DataValue, 0.05, 8.7400000000000011E-13, 57208237986.27002, 5720823798.6270018
DataValue, 0.1, 1.0730000000000002E-12, 93196644920.782837, 9319664492.0782814
DataValue, 0.15, 1.214E-12, 123558484349.25864, 12355848434.925863
DataValue, 0.2, 1.377E-12, 145243282498.18445, 14524328249.818443
DataValue, 0.25, 1.387E-12, 180245133381.39868, 18024513338.139866
DataValue, 0.3, 1.598E-12, 187734668335.41925, 18773466833.541924
DataValue, 0.35000000000000003, 1.7220000000000001E-12, 203252032520.3252, 20325203252.032516
DataValue, 0.4, 1.8040000000000002E-12, 221729490022.17294, 22172949002.217289
DataValue, 0.45, 1.98E-12, 227272727272.72726, 22727272727.272724
DataValue, 0.5, 2.046E-12, 244379276637.34116, 24437927663.734116
DataValue, 0.55, 1.9490000000000003E-12, 282195997947.66547, 28219599794.766544
DataValue, 0.6, 2.1540000000000003E-12, 278551532033.42615, 27855153203.342613
DataValue, 0.65, 2.3170000000000003E-12, 280535174794.99347, 28053517479.499344
DataValue, 0.70000000000000007, 2.382E-12, 293870696893.36694, 29387069689.336689
DataValue, 0.75, 2.5460000000000003E-12, 294579732914.37549, 29457973291.437546
DataValue, 0.8, 2.5680000000000004E-12, 311526479750.77881, 31152647975.077881
DataValue, 0.85000000000000009, 2.6760000000000003E-12, 317638266068.75934, 31763826606.875931
DataValue, 0.9, 2.8130000000000002E-12, 319943121222.89368, 31994312122.289364
DataValue, 0.95000000000000007, 3.0090000000000002E-12, 315719508142.23993, 31571950814.223991
DataValue, 1, 3.092E-12, 323415265200.51746, 32341526520.051739
SetupTitle, R-V
PrimitiveTest, I/V Sweep
TestParameter, Context.MainFrame, B1500A
TestParameter, Channel.UnitType, SMU, SMU
TestParameter, Channel.Unit, Port1, Port2
TestParameter, Channel.IName, I1, I2
TestParameter, Channel.VName, V1, V2
TestParameter, Channel.Mode, V, V
TestParameter, Channel.Func, VAR1, CONST
TestParameter, Channel.Index, 
TestParameter, Channel.Time, 
TestParameter, Measurement.Port.Unit, Port1, Port2
TestParameter, Measurement.Port.SeriesResistor, NONE, NONE
TestParameter, Measurement.Port.Filter, OFF, OFF
TestParameter, Measurement.Port.OutputVoltageComparison, 0, 0
TestParameter, Measurement.Primary.Locus, Single
TestParameter, Measurement.Primary.Scale, LINEAR
TestParameter, Measurement.Primary.Start, V1Start
TestParameter, Measurement.Primary.Stop, V1Stop
TestParameter, Measurement.Primary.Step, V1Step
TestParameter, Measurement.Primary.Compliance, I1Limit
TestParameter, Measurement.Primary.PowerCompliance, 0
TestParameter, Measurement.Aborting.Condition, CONTINUE AT ANY
TestParameter, Measurement.PostOutput.Value, START
TestParameter, Measurement.PostOutput.Retention, OFF
TestParameter, Measurement.Bias.Source, 0, V2
TestParameter, Measurement.Bias.Compliance, 0.01, I1Limit
TestParameter, Measurement.Monitor.Unit, SMU:=Port1, SMU:=Port2
TestParameter, Measurement.Monitor.Adc, HR ADC, HR ADC
TestParameter, Measurement.Monitor.Measurement, Compliance Side, Compliance Side
TestParameter, Measurement.Monitor.RangingMode, LIMITED, LIMITED
TestParameter, Measurement.Monitor.RangeBoundary, Port1MinRng, 1nA
TestParameter, Measurement.Monitor.RangeRating, BY FULL RANGE, BY FULL RANGE
TestParameter, Measurement.Monitor.RangeRatingCoeff, 50, 50
TestParameter, Measurement.Timing.Hold, HoldTime
TestParameter, Measurement.Timing.Delay, DelayTime
TestParameter, Measurement.Adc.HighSpeed.Mode, AUTO
TestParameter, Measurement.Adc.HighSpeed.Coeff, 1
TestParameter, Measurement.Adc.HighResolution.AutoZero, ON
TestParameter, Measurement.Adc.HighResolution.Mode, IntegMode
TestParameter, Measurement.Adc.HighResolution.Coeff, AdcFactor
TestParameter, Measurement.WaitTime.Source.Coeff, 1
TestParameter, Measurement.WaitTime.Source.Offset, 0
TestParameter, Measurement.WaitTime.Monitor.Coeff, 1
TestParameter, Measurement.WaitTime.Monitor.Offset, 0
TestParameter, Function.User.Name, R, Rsheet
TestParameter, Function.User.Unit, ohm, ohm/sheet
TestParameter, Function.User.Definition, V1/I1, R*W/L
TestParameter, Output.Graph.Enabled, true
TestParameter, Output.Graph.AutoScaling, false
TestParameter, Output.Graph.XAxis.Data, V1
TestParameter, Output.Graph.XAxis.Scale, Linear
TestParameter, Output.Graph.XAxis.Left, V1Start
TestParameter, Output.Graph.XAxis.Right, V1Stop
TestParameter, Output.Graph.XAxis.RunTimeAutoScale, false
TestParameter, Output.Graph.YAxis.Data, R, I1
TestParameter, Output.Graph.YAxis.Scale, Linear, Linear
TestParameter, Output.Graph.YAxis.Bottom, 0, 0
TestParameter, Output.Graph.YAxis.Top, V1Stop/I1Limit, I1Limit
TestParameter, Output.Graph.YAxis.Group, , 
TestParameter, Output.Graph.YAxis.RunTimeAutoScale, false, false
TestParameter, Output.List.Data, V1, I1, R, Rsheet
TestParameter, AutoAnalysis.Interpolation, false
TestParameter, AutoAnalysis.Line1.Enabled, false
TestParameter, AutoAnalysis.Line1.Type, 1
TestParameter, AutoAnalysis.Line1.Fix, False
TestParameter, AutoAnalysis.Line1.YAxis, 0
TestParameter, AutoAnalysis.Line1.Point1.Type, 0
TestParameter, AutoAnalysis.Line1.Point1.XY.X, 
TestParameter, AutoAnalysis.Line1.Point1.XY.Y, 
TestParameter, AutoAnalysis.Line1.Point1.Data.Var, 
TestParameter, AutoAnalysis.Line1.Point1.Data.Condition, 
TestParameter, AutoAnalysis.Line1.Point1.Data.Start, false
TestParameter, AutoAnalysis.Line1.Point1.Data.StartVar, 
TestParameter, AutoAnalysis.Line1.Point1.Data.StartCondition, 
TestParameter, AutoAnalysis.Line1.Point2.Type, 0
TestParameter, AutoAnalysis.Line1.Point2.XY.X, 
TestParameter, AutoAnalysis.Line1.Point2.XY.Y, 
TestParameter, AutoAnalysis.Line1.Point2.Data.Var, 
TestParameter, AutoAnalysis.Line1.Point2.Data.Condition, 
TestParameter, AutoAnalysis.Line1.Point2.Data.Start, false
TestParameter, AutoAnalysis.Line1.Point2.Data.StartVar, 
TestParameter, AutoAnalysis.Line1.Point2.Data.StartCondition, 
TestParameter, AutoAnalysis.Line1.GradientExpr, 0
TestParameter, AutoAnalysis.Line2.Enabled, false
TestParameter, AutoAnalysis.Line2.Type, 1
TestParameter, AutoAnalysis.Line2.Fix, False
TestParameter, AutoAnalysis.Line2.YAxis, 0
TestParameter, AutoAnalysis.Line2.Point1.Type, 0
TestParameter, AutoAnalysis.Line2.Point1.XY.X, 
TestParameter, AutoAnalysis.Line2.Point1.XY.Y, 
TestParameter, AutoAnalysis.Line2.Point1.Data.Var, 
TestParameter, AutoAnalysis.Line2.Point1.Data.Condition, 
TestParameter, AutoAnalysis.Line2.Point1.Data.Start, false
TestParameter, AutoAnalysis.Line2.Point1.Data.StartVar, 
TestParameter, AutoAnalysis.Line2.Point1.Data.StartCondition, 
TestParameter, AutoAnalysis.Line2.Point2.Type, 0
TestParameter, AutoAnalysis.Line2.Point2.XY.X, 
TestParameter, AutoAnalysis.Line2.Point2.XY.Y, 
TestParameter, AutoAnalysis.Line2.Point2.Data.Var, 
TestParameter, AutoAnalysis.Line2.Point2.Data.Condition, 
TestParameter, AutoAnalysis.Line2.Point2.Data.Start, false
TestParameter, AutoAnalysis.Line2.Point2.Data.StartVar, 
TestParameter, AutoAnalysis.Line2.Point2.Data.StartCondition, 
TestParameter, AutoAnalysis.Line2.GradientExpr, 0
TestParameter, AutoAnalysis.Marker.Enabled, false
TestParameter, AutoAnalysis.Marker.Data.Var, 
TestParameter, AutoAnalysis.Marker.Data.Condition, 
TestParameter, AutoAnalysis.Marker.Data.Start, false
TestParameter, AutoAnalysis.Marker.Data.StartVar, 
TestParameter, AutoAnalysis.Marker.Data.StartCondition, 
MetaData, TestRecord.EntryPoint, false
MetaData, TestRecord.RecordTime, 03/04/2023 18:51:35
MetaData, TestRecord.TestTarget, 
MetaData, TestRecord.IterationIndex, 272
MetaData, TestRecord.Preservation, true
MetaData, TestRecord.Flag, 
MetaData, TestRecord.Remarks, 
MetaData, TestRecord.LinkKey, a7ae056d-a6fa-4bc8-9e7a-93f96e5f8abc
Dimension1, 21, 21, 21, 21
Dimension2, 1, 1, 1, 1
DataName, V1, I1, R, Rsheet
DataValue, 0, 1.63E-13, 0, 0
DataValue, 0.05, 8.7400000000000011E-13, 57208237986.27002, 5720823798.6270018
DataValue, 0.1, 1.0730000000000002E-12, 93196644920.782837, 9319664492.0782814
DataValue, 0.15, 1.214E-12, 123558484349.25864, 12355848434.925863
DataValue, 0.2, 1.377E-12, 145243282498.18445, 14524328249.818443
DataValue, 0.25, 1.387E-12, 180245133381.39868, 18024513338.139866
DataValue, 0.3, 1.598E-12, 187734668335.41925, 18773466833.541924
DataValue, 0.35000000000000003, 1.7220000000000001E-12, 203252032520.3252, 20325203252.032516
DataValue, 0.4, 1.8040000000000002E-12, 221729490022.17294, 22172949002.217289
DataValue, 0.45, 1.98E-12, 227272727272.72726, 22727272727.272724
DataValue, 0.5, 2.046E-12, 244379276637.34116, 24437927663.734116
DataValue, 0.55, 1.9490000000000003E-12, 282195997947.66547, 28219599794.766544
DataValue, 0.6, 2.1540000000000003E-12, 278551532033.42615, 27855153203.342613
DataValue, 0.65, 2.3170000000000003E-12, 280535174794.99347, 28053517479.499344
DataValue, 0.70000000000000007, 2.382E-12, 293870696893.36694, 29387069689.336689
DataValue, 0.75, 2.5460000000000003E-12, 294579732914.37549, 29457973291.437546
DataValue, 0.8, 2.5680000000000004E-12, 311526479750.77881, 31152647975.077881
DataValue, 0.85000000000000009, 2.6760000000000003E-12, 317638266068.75934, 31763826606.875931
DataValue, 0.9, 2.8130000000000002E-12, 319943121222.89368, 31994312122.289364
DataValue, 0.95000000000000007, 3.0090000000000002E-12, 315719508142.23993, 31571950814.223991
DataValue, 1, 3.092E-12, 323415265200.51746, 32341526520.051739