
SetupTitle, R-V
ApplicationTest, R-V, Public
TestParameter, Name, Port1, Port2, V1Start, V1Stop, V1Step, V2, I1Limit, IntegTime, HoldTime, DelayTime, Port1MinRng
TestParameter, Value, SMU1:MP	MPSMU, SMU2:MP	MPSMU, 0, 1, 0.05, 0, 0.01, MEDIUM, 0, 0, 1nA
DutParameter, Name, L, W, Temp
DutParameter, Value, 1E-05, 1E-06, 25
MetaData, TestRecord.EntryPoint, true
MetaData, TestRecord.RecordTime, 03/04/2023 18:49:50
MetaData, TestRecord.TestTarget, 
MetaData, TestRecord.IterationIndex, 268
MetaData, TestRecord.Preservation, true
MetaData, TestRecord.Flag, 
MetaData, TestRecord.Remarks, 
MetaData, TestRecord.LinkKey, 4f21c846-65a5-43e0-8fe1-7bc54722c0bd
Dimension1, 21, 21, 21, 21
Dimension2, 1, 1, 1, 1
DataName, V1, I1, R, Rsheet
DataValue, 0, 4.13E-13, 0, 0
DataValue, 0.05, 7.31E-13, 68399452804.377571, 6839945280.4377556
DataValue, 0.1, 8.5000000000000011E-13, 117647058823.5294, 11764705882.35294
DataValue, 0.15, 8.760000000000001E-13, 171232876712.32874, 17123287671.232872
DataValue, 0.2, 9.6600000000000012E-13, 207039337474.12006, 20703933747.412003
DataValue, 0.25, 1.174E-12, 212947189097.10391, 21294718909.710388
DataValue, 0.3, 1.278E-12, 234741784037.55869, 23474178403.755867
DataValue, 0.35000000000000003, 1.3360000000000002E-12, 261976047904.19162, 26197604790.419159
DataValue, 0.4, 1.281E-12, 312256049960.968, 31225604996.0968
DataValue, 0.45, 1.389E-12, 323974082073.43414, 32397408207.34341
DataValue, 0.5, 1.4700000000000002E-12, 340136054421.76868, 34013605442.176861
DataValue, 0.55, 1.4720000000000002E-12, 373641304347.82605, 37364130434.7826
DataValue, 0.6, 1.6320000000000001E-12, 367647058823.52936, 36764705882.352928
DataValue, 0.65, 1.4910000000000002E-12, 435949027498.32324, 43594902749.832321
DataValue, 0.70000000000000007, 1.615E-12, 433436532507.73993, 43343653250.773987
DataValue, 0.75, 1.7040000000000002E-12, 440140845070.42249, 44014084507.042244
DataValue, 0.8, 1.7450000000000001E-12, 458452722063.03723, 45845272206.303719
DataValue, 0.85000000000000009, 1.7470000000000001E-12, 486548368631.94049, 48654836863.194038
DataValue, 0.9, 1.872E-12, 480769230769.23077, 48076923076.923073
DataValue, 0.95000000000000007, 1.8820000000000003E-12, 504782146652.49731, 50478214665.249725
DataValue, 1, 1.91E-12, 523560209424.08374, 52356020942.408363
SetupTitle, R-V
PrimitiveTest, I/V Sweep
TestParameter, Context.MainFrame, B1500A
TestParameter, Channel.UnitType, SMU, SMU
TestParameter, Channel.Unit, Port1, Port2
TestParameter, Channel.IName, I1, I2
TestParameter, Channel.VName, V1, V2
TestParameter, Channel.Mode, V, V
TestParameter, Channel.Func, VAR1, CONST
TestParameter, Channel.Index, 
TestParameter, Channel.Time, 
TestParameter, Measurement.Port.Unit, Port1, Port2
TestParameter, Measurement.Port.SeriesResistor, NONE, NONE
TestParameter, Measurement.Port.Filter, OFF, OFF
TestParameter, Measurement.Port.OutputVoltageComparison, 0, 0
TestParameter, Measurement.Primary.Locus, Single
TestParameter, Measurement.Primary.Scale, LINEAR
TestParameter, Measurement.Primary.Start, V1Start
TestParameter, Measurement.Primary.Stop, V1Stop
TestParameter, Measurement.Primary.Step, V1Step
TestParameter, Measurement.Primary.Compliance, I1Limit
TestParameter, Measurement.Primary.PowerCompliance, 0
TestParameter, Measurement.Aborting.Condition, CONTINUE AT ANY
TestParameter, Measurement.PostOutput.Value, START
TestParameter, Measurement.PostOutput.Retention, OFF
TestParameter, Measurement.Bias.Source, 0, V2
TestParameter, Measurement.Bias.Compliance, 0.01, I1Limit
TestParameter, Measurement.Monitor.Unit, SMU:=Port1, SMU:=Port2
TestParameter, Measurement.Monitor.Adc, HR ADC, HR ADC
TestParameter, Measurement.Monitor.Measurement, Compliance Side, Compliance Side
TestParameter, Measurement.Monitor.RangingMode, LIMITED, LIMITED
TestParameter, Measurement.Monitor.RangeBoundary, Port1MinRng, 1nA
TestParameter, Measurement.Monitor.RangeRating, BY FULL RANGE, BY FULL RANGE
TestParameter, Measurement.Monitor.RangeRatingCoeff, 50, 50
TestParameter, Measurement.Timing.Hold, HoldTime
TestParameter, Measurement.Timing.Delay, DelayTime
TestParameter, Measurement.Adc.HighSpeed.Mode, AUTO
TestParameter, Measurement.Adc.HighSpeed.Coeff, 1
TestParameter, Measurement.Adc.HighResolution.AutoZero, ON
TestParameter, Measurement.Adc.HighResolution.Mode, IntegMode
TestParameter, Measurement.Adc.HighResolution.Coeff, AdcFactor
TestParameter, Measurement.WaitTime.Source.Coeff, 1
TestParameter, Measurement.WaitTime.Source.Offset, 0
TestParameter, Measurement.WaitTime.Monitor.Coeff, 1
TestParameter, Measurement.WaitTime.Monitor.Offset, 0
TestParameter, Function.User.Name, R, Rsheet
TestParameter, Function.User.Unit, ohm, ohm/sheet
TestParameter, Function.User.Definition, V1/I1, R*W/L
TestParameter, Output.Graph.Enabled, true
TestParameter, Output.Graph.AutoScaling, false
TestParameter, Output.Graph.XAxis.Data, V1
TestParameter, Output.Graph.XAxis.Scale, Linear
TestParameter, Output.Graph.XAxis.Left, V1Start
TestParameter, Output.Graph.XAxis.Right, V1Stop
TestParameter, Output.Graph.XAxis.RunTimeAutoScale, false
TestParameter, Output.Graph.YAxis.Data, R, I1
TestParameter, Output.Graph.YAxis.Scale, Linear, Linear
TestParameter, Output.Graph.YAxis.Bottom, 0, 0
TestParameter, Output.Graph.YAxis.Top, V1Stop/I1Limit, I1Limit
TestParameter, Output.Graph.YAxis.Group, , 
TestParameter, Output.Graph.YAxis.RunTimeAutoScale, false, false
TestParameter, Output.List.Data, V1, I1, R, Rsheet
TestParameter, AutoAnalysis.Interpolation, false
TestParameter, AutoAnalysis.Line1.Enabled, false
TestParameter, AutoAnalysis.Line1.Type, 1
TestParameter, AutoAnalysis.Line1.Fix, False
TestParameter, AutoAnalysis.Line1.YAxis, 0
TestParameter, AutoAnalysis.Line1.Point1.Type, 0
TestParameter, AutoAnalysis.Line1.Point1.XY.X, 
TestParameter, AutoAnalysis.Line1.Point1.XY.Y, 
TestParameter, AutoAnalysis.Line1.Point1.Data.Var, 
TestParameter, AutoAnalysis.Line1.Point1.Data.Condition, 
TestParameter, AutoAnalysis.Line1.Point1.Data.Start, false
TestParameter, AutoAnalysis.Line1.Point1.Data.StartVar, 
TestParameter, AutoAnalysis.Line1.Point1.Data.StartCondition, 
TestParameter, AutoAnalysis.Line1.Point2.Type, 0
TestParameter, AutoAnalysis.Line1.Point2.XY.X, 
TestParameter, AutoAnalysis.Line1.Point2.XY.Y, 
TestParameter, AutoAnalysis.Line1.Point2.Data.Var, 
TestParameter, AutoAnalysis.Line1.Point2.Data.Condition, 
TestParameter, AutoAnalysis.Line1.Point2.Data.Start, false
TestParameter, AutoAnalysis.Line1.Point2.Data.StartVar, 
TestParameter, AutoAnalysis.Line1.Point2.Data.StartCondition, 
TestParameter, AutoAnalysis.Line1.GradientExpr, 0
TestParameter, AutoAnalysis.Line2.Enabled, false
TestParameter, AutoAnalysis.Line2.Type, 1
TestParameter, AutoAnalysis.Line2.Fix, False
TestParameter, AutoAnalysis.Line2.YAxis, 0
TestParameter, AutoAnalysis.Line2.Point1.Type, 0
TestParameter, AutoAnalysis.Line2.Point1.XY.X, 
TestParameter, AutoAnalysis.Line2.Point1.XY.Y, 
TestParameter, AutoAnalysis.Line2.Point1.Data.Var, 
TestParameter, AutoAnalysis.Line2.Point1.Data.Condition, 
TestParameter, AutoAnalysis.Line2.Point1.Data.Start, false
TestParameter, AutoAnalysis.Line2.Point1.Data.StartVar, 
TestParameter, AutoAnalysis.Line2.Point1.Data.StartCondition, 
TestParameter, AutoAnalysis.Line2.Point2.Type, 0
TestParameter, AutoAnalysis.Line2.Point2.XY.X, 
TestParameter, AutoAnalysis.Line2.Point2.XY.Y, 
TestParameter, AutoAnalysis.Line2.Point2.Data.Var, 
TestParameter, AutoAnalysis.Line2.Point2.Data.Condition, 
TestParameter, AutoAnalysis.Line2.Point2.Data.Start, false
TestParameter, AutoAnalysis.Line2.Point2.Data.StartVar, 
TestParameter, AutoAnalysis.Line2.Point2.Data.StartCondition, 
TestParameter, AutoAnalysis.Line2.GradientExpr, 0
TestParameter, AutoAnalysis.Marker.Enabled, false
TestParameter, AutoAnalysis.Marker.Data.Var, 
TestParameter, AutoAnalysis.Marker.Data.Condition, 
TestParameter, AutoAnalysis.Marker.Data.Start, false
TestParameter, AutoAnalysis.Marker.Data.StartVar, 
TestParameter, AutoAnalysis.Marker.Data.StartCondition, 
MetaData, TestRecord.EntryPoint, false
MetaData, TestRecord.RecordTime, 03/04/2023 18:49:50
MetaData, TestRecord.TestTarget, 
MetaData, TestRecord.IterationIndex, 268
MetaData, TestRecord.Preservation, true
MetaData, TestRecord.Flag, 
MetaData, TestRecord.Remarks, 
MetaData, TestRecord.LinkKey, 4f21c846-65a5-43e0-8fe1-7bc54722c0bd
Dimension1, 21, 21, 21, 21
Dimension2, 1, 1, 1, 1
DataName, V1, I1, R, Rsheet
DataValue, 0, 4.13E-13, 0, 0
DataValue, 0.05, 7.31E-13, 68399452804.377571, 6839945280.4377556
DataValue, 0.1, 8.5000000000000011E-13, 117647058823.5294, 11764705882.35294
DataValue, 0.15, 8.760000000000001E-13, 171232876712.32874, 17123287671.232872
DataValue, 0.2, 9.6600000000000012E-13, 207039337474.12006, 20703933747.412003
DataValue, 0.25, 1.174E-12, 212947189097.10391, 21294718909.710388
DataValue, 0.3, 1.278E-12, 234741784037.55869, 23474178403.755867
DataValue, 0.35000000000000003, 1.3360000000000002E-12, 261976047904.19162, 26197604790.419159
DataValue, 0.4, 1.281E-12, 312256049960.968, 31225604996.0968
DataValue, 0.45, 1.389E-12, 323974082073.43414, 32397408207.34341
DataValue, 0.5, 1.4700000000000002E-12, 340136054421.76868, 34013605442.176861
DataValue, 0.55, 1.4720000000000002E-12, 373641304347.82605, 37364130434.7826
DataValue, 0.6, 1.6320000000000001E-12, 367647058823.52936, 36764705882.352928
DataValue, 0.65, 1.4910000000000002E-12, 435949027498.32324, 43594902749.832321
DataValue, 0.70000000000000007, 1.615E-12, 433436532507.73993, 43343653250.773987
DataValue, 0.75, 1.7040000000000002E-12, 440140845070.42249, 44014084507.042244
DataValue, 0.8, 1.7450000000000001E-12, 458452722063.03723, 45845272206.303719
DataValue, 0.85000000000000009, 1.7470000000000001E-12, 486548368631.94049, 48654836863.194038
DataValue, 0.9, 1.872E-12, 480769230769.23077, 48076923076.923073
DataValue, 0.95000000000000007, 1.8820000000000003E-12, 504782146652.49731, 50478214665.249725
DataValue, 1, 1.91E-12, 523560209424.08374, 52356020942.408363