
SetupTitle, R-V
ApplicationTest, R-V, Public
TestParameter, Name, Port1, Port2, V1Start, V1Stop, V1Step, V2, I1Limit, IntegTime, HoldTime, DelayTime, Port1MinRng
TestParameter, Value, SMU1:MP	MPSMU, SMU2:MP	MPSMU, 0, 1, 0.05, 0, 0.01, MEDIUM, 0, 0, 1nA
DutParameter, Name, L, W, Temp
DutParameter, Value, 1E-05, 1E-06, 25
MetaData, TestRecord.EntryPoint, true
MetaData, TestRecord.RecordTime, 03/04/2023 18:07:38
MetaData, TestRecord.TestTarget, 
MetaData, TestRecord.IterationIndex, 193
MetaData, TestRecord.Preservation, true
MetaData, TestRecord.Flag, 
MetaData, TestRecord.Remarks, 
MetaData, TestRecord.LinkKey, a2355431-37e6-4316-821a-8af15d78cc88
Dimension1, 21, 21, 21, 21
Dimension2, 1, 1, 1, 1
DataName, V1, I1, R, Rsheet
DataValue, 0, -7.1277999999999993E-09, -0, -0
DataValue, 0.05, 3.3683400000000003E-05, 1484.410718632917, 148.44107186329168
DataValue, 0.1, 6.7324200000000008E-05, 1485.349993018855, 148.53499930188548
DataValue, 0.15, 0.0001010141, 1484.9412111774495, 148.49412111774493
DataValue, 0.2, 0.000134627, 1485.5861008564405, 148.558610085644
DataValue, 0.25, 0.00016829600000000002, 1485.4779673907876, 148.54779673907873
DataValue, 0.3, 0.0002019, 1485.8841010401188, 148.58841010401187
DataValue, 0.35000000000000003, 0.00023554600000000003, 1485.9093340578911, 148.59093340578909
DataValue, 0.4, 0.000269143, 1486.1987865186909, 148.61987865186907
DataValue, 0.45, 0.000302711, 1486.5663950104226, 148.65663950104224
DataValue, 0.5, 0.00033630300000000004, 1486.7545041227702, 148.675450412277
DataValue, 0.55, 0.00036985500000000004, 1487.0692568709358, 148.70692568709356
DataValue, 0.6, 0.000403388, 1487.40170753716, 148.74017075371597
DataValue, 0.65, 0.000436943, 1487.6082234982596, 148.76082234982593
DataValue, 0.70000000000000007, 0.00047048900000000004, 1487.8137427229967, 148.78137427229967
DataValue, 0.75, 0.00050398, 1488.1542918369776, 148.81542918369775
DataValue, 0.8, 0.00053749800000000008, 1488.377631172581, 148.83776311725808
DataValue, 0.85000000000000009, 0.00057096300000000007, 1488.7129288587876, 148.87129288587875
DataValue, 0.9, 0.000604474, 1488.8977855126936, 148.88977855126936
DataValue, 0.95000000000000007, 0.000637951, 1489.1425830510495, 148.91425830510494
DataValue, 1, 0.00067139, 1489.447266119543, 148.94472661195428
SetupTitle, R-V
PrimitiveTest, I/V Sweep
TestParameter, Context.MainFrame, B1500A
TestParameter, Channel.UnitType, SMU, SMU
TestParameter, Channel.Unit, Port1, Port2
TestParameter, Channel.IName, I1, I2
TestParameter, Channel.VName, V1, V2
TestParameter, Channel.Mode, V, V
TestParameter, Channel.Func, VAR1, CONST
TestParameter, Channel.Index, 
TestParameter, Channel.Time, 
TestParameter, Measurement.Port.Unit, Port1, Port2
TestParameter, Measurement.Port.SeriesResistor, NONE, NONE
TestParameter, Measurement.Port.Filter, OFF, OFF
TestParameter, Measurement.Port.OutputVoltageComparison, 0, 0
TestParameter, Measurement.Primary.Locus, Single
TestParameter, Measurement.Primary.Scale, LINEAR
TestParameter, Measurement.Primary.Start, V1Start
TestParameter, Measurement.Primary.Stop, V1Stop
TestParameter, Measurement.Primary.Step, V1Step
TestParameter, Measurement.Primary.Compliance, I1Limit
TestParameter, Measurement.Primary.PowerCompliance, 0
TestParameter, Measurement.Aborting.Condition, CONTINUE AT ANY
TestParameter, Measurement.PostOutput.Value, START
TestParameter, Measurement.PostOutput.Retention, OFF
TestParameter, Measurement.Bias.Source, 0, V2
TestParameter, Measurement.Bias.Compliance, 0.01, I1Limit
TestParameter, Measurement.Monitor.Unit, SMU:=Port1, SMU:=Port2
TestParameter, Measurement.Monitor.Adc, HR ADC, HR ADC
TestParameter, Measurement.Monitor.Measurement, Compliance Side, Compliance Side
TestParameter, Measurement.Monitor.RangingMode, LIMITED, LIMITED
TestParameter, Measurement.Monitor.RangeBoundary, Port1MinRng, 1nA
TestParameter, Measurement.Monitor.RangeRating, BY FULL RANGE, BY FULL RANGE
TestParameter, Measurement.Monitor.RangeRatingCoeff, 50, 50
TestParameter, Measurement.Timing.Hold, HoldTime
TestParameter, Measurement.Timing.Delay, DelayTime
TestParameter, Measurement.Adc.HighSpeed.Mode, AUTO
TestParameter, Measurement.Adc.HighSpeed.Coeff, 1
TestParameter, Measurement.Adc.HighResolution.AutoZero, ON
TestParameter, Measurement.Adc.HighResolution.Mode, IntegMode
TestParameter, Measurement.Adc.HighResolution.Coeff, AdcFactor
TestParameter, Measurement.WaitTime.Source.Coeff, 1
TestParameter, Measurement.WaitTime.Source.Offset, 0
TestParameter, Measurement.WaitTime.Monitor.Coeff, 1
TestParameter, Measurement.WaitTime.Monitor.Offset, 0
TestParameter, Function.User.Name, R, Rsheet
TestParameter, Function.User.Unit, ohm, ohm/sheet
TestParameter, Function.User.Definition, V1/I1, R*W/L
TestParameter, Output.Graph.Enabled, true
TestParameter, Output.Graph.AutoScaling, false
TestParameter, Output.Graph.XAxis.Data, V1
TestParameter, Output.Graph.XAxis.Scale, Linear
TestParameter, Output.Graph.XAxis.Left, V1Start
TestParameter, Output.Graph.XAxis.Right, V1Stop
TestParameter, Output.Graph.XAxis.RunTimeAutoScale, false
TestParameter, Output.Graph.YAxis.Data, R, I1
TestParameter, Output.Graph.YAxis.Scale, Linear, Linear
TestParameter, Output.Graph.YAxis.Bottom, 0, 0
TestParameter, Output.Graph.YAxis.Top, V1Stop/I1Limit, I1Limit
TestParameter, Output.Graph.YAxis.Group, , 
TestParameter, Output.Graph.YAxis.RunTimeAutoScale, false, false
TestParameter, Output.List.Data, V1, I1, R, Rsheet
TestParameter, AutoAnalysis.Interpolation, false
TestParameter, AutoAnalysis.Line1.Enabled, false
TestParameter, AutoAnalysis.Line1.Type, 1
TestParameter, AutoAnalysis.Line1.Fix, False
TestParameter, AutoAnalysis.Line1.YAxis, 0
TestParameter, AutoAnalysis.Line1.Point1.Type, 0
TestParameter, AutoAnalysis.Line1.Point1.XY.X, 
TestParameter, AutoAnalysis.Line1.Point1.XY.Y, 
TestParameter, AutoAnalysis.Line1.Point1.Data.Var, 
TestParameter, AutoAnalysis.Line1.Point1.Data.Condition, 
TestParameter, AutoAnalysis.Line1.Point1.Data.Start, false
TestParameter, AutoAnalysis.Line1.Point1.Data.StartVar, 
TestParameter, AutoAnalysis.Line1.Point1.Data.StartCondition, 
TestParameter, AutoAnalysis.Line1.Point2.Type, 0
TestParameter, AutoAnalysis.Line1.Point2.XY.X, 
TestParameter, AutoAnalysis.Line1.Point2.XY.Y, 
TestParameter, AutoAnalysis.Line1.Point2.Data.Var, 
TestParameter, AutoAnalysis.Line1.Point2.Data.Condition, 
TestParameter, AutoAnalysis.Line1.Point2.Data.Start, false
TestParameter, AutoAnalysis.Line1.Point2.Data.StartVar, 
TestParameter, AutoAnalysis.Line1.Point2.Data.StartCondition, 
TestParameter, AutoAnalysis.Line1.GradientExpr, 0
TestParameter, AutoAnalysis.Line2.Enabled, false
TestParameter, AutoAnalysis.Line2.Type, 1
TestParameter, AutoAnalysis.Line2.Fix, False
TestParameter, AutoAnalysis.Line2.YAxis, 0
TestParameter, AutoAnalysis.Line2.Point1.Type, 0
TestParameter, AutoAnalysis.Line2.Point1.XY.X, 
TestParameter, AutoAnalysis.Line2.Point1.XY.Y, 
TestParameter, AutoAnalysis.Line2.Point1.Data.Var, 
TestParameter, AutoAnalysis.Line2.Point1.Data.Condition, 
TestParameter, AutoAnalysis.Line2.Point1.Data.Start, false
TestParameter, AutoAnalysis.Line2.Point1.Data.StartVar, 
TestParameter, AutoAnalysis.Line2.Point1.Data.StartCondition, 
TestParameter, AutoAnalysis.Line2.Point2.Type, 0
TestParameter, AutoAnalysis.Line2.Point2.XY.X, 
TestParameter, AutoAnalysis.Line2.Point2.XY.Y, 
TestParameter, AutoAnalysis.Line2.Point2.Data.Var, 
TestParameter, AutoAnalysis.Line2.Point2.Data.Condition, 
TestParameter, AutoAnalysis.Line2.Point2.Data.Start, false
TestParameter, AutoAnalysis.Line2.Point2.Data.StartVar, 
TestParameter, AutoAnalysis.Line2.Point2.Data.StartCondition, 
TestParameter, AutoAnalysis.Line2.GradientExpr, 0
TestParameter, AutoAnalysis.Marker.Enabled, false
TestParameter, AutoAnalysis.Marker.Data.Var, 
TestParameter, AutoAnalysis.Marker.Data.Condition, 
TestParameter, AutoAnalysis.Marker.Data.Start, false
TestParameter, AutoAnalysis.Marker.Data.StartVar, 
TestParameter, AutoAnalysis.Marker.Data.StartCondition, 
MetaData, TestRecord.EntryPoint, false
MetaData, TestRecord.RecordTime, 03/04/2023 18:07:38
MetaData, TestRecord.TestTarget, 
MetaData, TestRecord.IterationIndex, 193
MetaData, TestRecord.Preservation, true
MetaData, TestRecord.Flag, 
MetaData, TestRecord.Remarks, 
MetaData, TestRecord.LinkKey, a2355431-37e6-4316-821a-8af15d78cc88
Dimension1, 21, 21, 21, 21
Dimension2, 1, 1, 1, 1
DataName, V1, I1, R, Rsheet
DataValue, 0, -7.1277999999999993E-09, -0, -0
DataValue, 0.05, 3.3683400000000003E-05, 1484.410718632917, 148.44107186329168
DataValue, 0.1, 6.7324200000000008E-05, 1485.349993018855, 148.53499930188548
DataValue, 0.15, 0.0001010141, 1484.9412111774495, 148.49412111774493
DataValue, 0.2, 0.000134627, 1485.5861008564405, 148.558610085644
DataValue, 0.25, 0.00016829600000000002, 1485.4779673907876, 148.54779673907873
DataValue, 0.3, 0.0002019, 1485.8841010401188, 148.58841010401187
DataValue, 0.35000000000000003, 0.00023554600000000003, 1485.9093340578911, 148.59093340578909
DataValue, 0.4, 0.000269143, 1486.1987865186909, 148.61987865186907
DataValue, 0.45, 0.000302711, 1486.5663950104226, 148.65663950104224
DataValue, 0.5, 0.00033630300000000004, 1486.7545041227702, 148.675450412277
DataValue, 0.55, 0.00036985500000000004, 1487.0692568709358, 148.70692568709356
DataValue, 0.6, 0.000403388, 1487.40170753716, 148.74017075371597
DataValue, 0.65, 0.000436943, 1487.6082234982596, 148.76082234982593
DataValue, 0.70000000000000007, 0.00047048900000000004, 1487.8137427229967, 148.78137427229967
DataValue, 0.75, 0.00050398, 1488.1542918369776, 148.81542918369775
DataValue, 0.8, 0.00053749800000000008, 1488.377631172581, 148.83776311725808
DataValue, 0.85000000000000009, 0.00057096300000000007, 1488.7129288587876, 148.87129288587875
DataValue, 0.9, 0.000604474, 1488.8977855126936, 148.88977855126936
DataValue, 0.95000000000000007, 0.000637951, 1489.1425830510495, 148.91425830510494
DataValue, 1, 0.00067139, 1489.447266119543, 148.94472661195428