
SetupTitle, R-V
ApplicationTest, R-V, Public
TestParameter, Name, Port1, Port2, V1Start, V1Stop, V1Step, V2, I1Limit, IntegTime, HoldTime, DelayTime, Port1MinRng
TestParameter, Value, SMU1:MP	MPSMU, SMU2:MP	MPSMU, 0, 1, 0.05, 0, 0.01, MEDIUM, 0, 0, 1nA
DutParameter, Name, L, W, Temp
DutParameter, Value, 1E-05, 1E-06, 25
MetaData, TestRecord.EntryPoint, true
MetaData, TestRecord.RecordTime, 03/04/2023 16:33:19
MetaData, TestRecord.TestTarget, 
MetaData, TestRecord.IterationIndex, 51
MetaData, TestRecord.Preservation, true
MetaData, TestRecord.Flag, 
MetaData, TestRecord.Remarks, 
MetaData, TestRecord.LinkKey, 1521bfee-f610-4b5a-a535-206edc355aeb
Dimension1, 21, 21, 21, 21
Dimension2, 1, 1, 1, 1
DataName, V1, I1, R, Rsheet
DataValue, 0, -1.53E-13, -0, -0
DataValue, 0.05, 2.43E-13, 205761316872.42798, 20576131687.242794
DataValue, 0.1, 4.33E-13, 230946882217.09006, 23094688221.709003
DataValue, 0.15, 9.7000000000000011E-13, 154639175257.73193, 15463917525.773192
DataValue, 0.2, 9.6200000000000014E-13, 207900207900.20789, 20790020790.020786
DataValue, 0.25, 1.381E-12, 181028240405.50324, 18102824040.55032
DataValue, 0.3, 1.821E-12, 164744645799.01154, 16474464579.90115
DataValue, 0.35000000000000003, 1.9160000000000003E-12, 182672233820.45929, 18267223382.045925
DataValue, 0.4, 2.2250000000000003E-12, 179775280898.8764, 17977528089.887638
DataValue, 0.45, 2.469E-12, 182260024301.33658, 18226002430.133656
DataValue, 0.5, 2.5720000000000003E-12, 194401244167.96265, 19440124416.796261
DataValue, 0.55, 2.616E-12, 210244648318.04282, 21024464831.804279
DataValue, 0.6, 3.2360000000000003E-12, 185414091470.95175, 18541409147.095173
DataValue, 0.65, 3.4450000000000004E-12, 188679245283.01886, 18867924528.301884
DataValue, 0.70000000000000007, 3.4310000000000002E-12, 204022150976.39172, 20402215097.639168
DataValue, 0.75, 3.5960000000000004E-12, 208565072302.55838, 20856507230.255836
DataValue, 0.8, 3.8190000000000006E-12, 209478921183.55588, 20947892118.355587
DataValue, 0.85000000000000009, 4.0530000000000006E-12, 209721194177.15271, 20972119417.715267
DataValue, 0.9, 3.941E-12, 228368434407.51077, 22836843440.751076
DataValue, 0.95000000000000007, 4.489E-12, 211628425038.98419, 21162842503.898418
DataValue, 1, 4.4210000000000006E-12, 226193168966.29718, 22619316896.629715
SetupTitle, R-V
PrimitiveTest, I/V Sweep
TestParameter, Context.MainFrame, B1500A
TestParameter, Channel.UnitType, SMU, SMU
TestParameter, Channel.Unit, Port1, Port2
TestParameter, Channel.IName, I1, I2
TestParameter, Channel.VName, V1, V2
TestParameter, Channel.Mode, V, V
TestParameter, Channel.Func, VAR1, CONST
TestParameter, Channel.Index, 
TestParameter, Channel.Time, 
TestParameter, Measurement.Port.Unit, Port1, Port2
TestParameter, Measurement.Port.SeriesResistor, NONE, NONE
TestParameter, Measurement.Port.Filter, OFF, OFF
TestParameter, Measurement.Port.OutputVoltageComparison, 0, 0
TestParameter, Measurement.Primary.Locus, Single
TestParameter, Measurement.Primary.Scale, LINEAR
TestParameter, Measurement.Primary.Start, V1Start
TestParameter, Measurement.Primary.Stop, V1Stop
TestParameter, Measurement.Primary.Step, V1Step
TestParameter, Measurement.Primary.Compliance, I1Limit
TestParameter, Measurement.Primary.PowerCompliance, 0
TestParameter, Measurement.Aborting.Condition, CONTINUE AT ANY
TestParameter, Measurement.PostOutput.Value, START
TestParameter, Measurement.PostOutput.Retention, OFF
TestParameter, Measurement.Bias.Source, 0, V2
TestParameter, Measurement.Bias.Compliance, 0.01, I1Limit
TestParameter, Measurement.Monitor.Unit, SMU:=Port1, SMU:=Port2
TestParameter, Measurement.Monitor.Adc, HR ADC, HR ADC
TestParameter, Measurement.Monitor.Measurement, Compliance Side, Compliance Side
TestParameter, Measurement.Monitor.RangingMode, LIMITED, LIMITED
TestParameter, Measurement.Monitor.RangeBoundary, Port1MinRng, 1nA
TestParameter, Measurement.Monitor.RangeRating, BY FULL RANGE, BY FULL RANGE
TestParameter, Measurement.Monitor.RangeRatingCoeff, 50, 50
TestParameter, Measurement.Timing.Hold, HoldTime
TestParameter, Measurement.Timing.Delay, DelayTime
TestParameter, Measurement.Adc.HighSpeed.Mode, AUTO
TestParameter, Measurement.Adc.HighSpeed.Coeff, 1
TestParameter, Measurement.Adc.HighResolution.AutoZero, ON
TestParameter, Measurement.Adc.HighResolution.Mode, IntegMode
TestParameter, Measurement.Adc.HighResolution.Coeff, AdcFactor
TestParameter, Measurement.WaitTime.Source.Coeff, 1
TestParameter, Measurement.WaitTime.Source.Offset, 0
TestParameter, Measurement.WaitTime.Monitor.Coeff, 1
TestParameter, Measurement.WaitTime.Monitor.Offset, 0
TestParameter, Function.User.Name, R, Rsheet
TestParameter, Function.User.Unit, ohm, ohm/sheet
TestParameter, Function.User.Definition, V1/I1, R*W/L
TestParameter, Output.Graph.Enabled, true
TestParameter, Output.Graph.AutoScaling, false
TestParameter, Output.Graph.XAxis.Data, V1
TestParameter, Output.Graph.XAxis.Scale, Linear
TestParameter, Output.Graph.XAxis.Left, V1Start
TestParameter, Output.Graph.XAxis.Right, V1Stop
TestParameter, Output.Graph.XAxis.RunTimeAutoScale, false
TestParameter, Output.Graph.YAxis.Data, R, I1
TestParameter, Output.Graph.YAxis.Scale, Linear, Linear
TestParameter, Output.Graph.YAxis.Bottom, 0, 0
TestParameter, Output.Graph.YAxis.Top, V1Stop/I1Limit, I1Limit
TestParameter, Output.Graph.YAxis.Group, , 
TestParameter, Output.Graph.YAxis.RunTimeAutoScale, false, false
TestParameter, Output.List.Data, V1, I1, R, Rsheet
TestParameter, AutoAnalysis.Interpolation, false
TestParameter, AutoAnalysis.Line1.Enabled, false
TestParameter, AutoAnalysis.Line1.Type, 1
TestParameter, AutoAnalysis.Line1.Fix, False
TestParameter, AutoAnalysis.Line1.YAxis, 0
TestParameter, AutoAnalysis.Line1.Point1.Type, 0
TestParameter, AutoAnalysis.Line1.Point1.XY.X, 
TestParameter, AutoAnalysis.Line1.Point1.XY.Y, 
TestParameter, AutoAnalysis.Line1.Point1.Data.Var, 
TestParameter, AutoAnalysis.Line1.Point1.Data.Condition, 
TestParameter, AutoAnalysis.Line1.Point1.Data.Start, false
TestParameter, AutoAnalysis.Line1.Point1.Data.StartVar, 
TestParameter, AutoAnalysis.Line1.Point1.Data.StartCondition, 
TestParameter, AutoAnalysis.Line1.Point2.Type, 0
TestParameter, AutoAnalysis.Line1.Point2.XY.X, 
TestParameter, AutoAnalysis.Line1.Point2.XY.Y, 
TestParameter, AutoAnalysis.Line1.Point2.Data.Var, 
TestParameter, AutoAnalysis.Line1.Point2.Data.Condition, 
TestParameter, AutoAnalysis.Line1.Point2.Data.Start, false
TestParameter, AutoAnalysis.Line1.Point2.Data.StartVar, 
TestParameter, AutoAnalysis.Line1.Point2.Data.StartCondition, 
TestParameter, AutoAnalysis.Line1.GradientExpr, 0
TestParameter, AutoAnalysis.Line2.Enabled, false
TestParameter, AutoAnalysis.Line2.Type, 1
TestParameter, AutoAnalysis.Line2.Fix, False
TestParameter, AutoAnalysis.Line2.YAxis, 0
TestParameter, AutoAnalysis.Line2.Point1.Type, 0
TestParameter, AutoAnalysis.Line2.Point1.XY.X, 
TestParameter, AutoAnalysis.Line2.Point1.XY.Y, 
TestParameter, AutoAnalysis.Line2.Point1.Data.Var, 
TestParameter, AutoAnalysis.Line2.Point1.Data.Condition, 
TestParameter, AutoAnalysis.Line2.Point1.Data.Start, false
TestParameter, AutoAnalysis.Line2.Point1.Data.StartVar, 
TestParameter, AutoAnalysis.Line2.Point1.Data.StartCondition, 
TestParameter, AutoAnalysis.Line2.Point2.Type, 0
TestParameter, AutoAnalysis.Line2.Point2.XY.X, 
TestParameter, AutoAnalysis.Line2.Point2.XY.Y, 
TestParameter, AutoAnalysis.Line2.Point2.Data.Var, 
TestParameter, AutoAnalysis.Line2.Point2.Data.Condition, 
TestParameter, AutoAnalysis.Line2.Point2.Data.Start, false
TestParameter, AutoAnalysis.Line2.Point2.Data.StartVar, 
TestParameter, AutoAnalysis.Line2.Point2.Data.StartCondition, 
TestParameter, AutoAnalysis.Line2.GradientExpr, 0
TestParameter, AutoAnalysis.Marker.Enabled, false
TestParameter, AutoAnalysis.Marker.Data.Var, 
TestParameter, AutoAnalysis.Marker.Data.Condition, 
TestParameter, AutoAnalysis.Marker.Data.Start, false
TestParameter, AutoAnalysis.Marker.Data.StartVar, 
TestParameter, AutoAnalysis.Marker.Data.StartCondition, 
MetaData, TestRecord.EntryPoint, false
MetaData, TestRecord.RecordTime, 03/04/2023 16:33:19
MetaData, TestRecord.TestTarget, 
MetaData, TestRecord.IterationIndex, 51
MetaData, TestRecord.Preservation, true
MetaData, TestRecord.Flag, 
MetaData, TestRecord.Remarks, 
MetaData, TestRecord.LinkKey, 1521bfee-f610-4b5a-a535-206edc355aeb
Dimension1, 21, 21, 21, 21
Dimension2, 1, 1, 1, 1
DataName, V1, I1, R, Rsheet
DataValue, 0, -1.53E-13, -0, -0
DataValue, 0.05, 2.43E-13, 205761316872.42798, 20576131687.242794
DataValue, 0.1, 4.33E-13, 230946882217.09006, 23094688221.709003
DataValue, 0.15, 9.7000000000000011E-13, 154639175257.73193, 15463917525.773192
DataValue, 0.2, 9.6200000000000014E-13, 207900207900.20789, 20790020790.020786
DataValue, 0.25, 1.381E-12, 181028240405.50324, 18102824040.55032
DataValue, 0.3, 1.821E-12, 164744645799.01154, 16474464579.90115
DataValue, 0.35000000000000003, 1.9160000000000003E-12, 182672233820.45929, 18267223382.045925
DataValue, 0.4, 2.2250000000000003E-12, 179775280898.8764, 17977528089.887638
DataValue, 0.45, 2.469E-12, 182260024301.33658, 18226002430.133656
DataValue, 0.5, 2.5720000000000003E-12, 194401244167.96265, 19440124416.796261
DataValue, 0.55, 2.616E-12, 210244648318.04282, 21024464831.804279
DataValue, 0.6, 3.2360000000000003E-12, 185414091470.95175, 18541409147.095173
DataValue, 0.65, 3.4450000000000004E-12, 188679245283.01886, 18867924528.301884
DataValue, 0.70000000000000007, 3.4310000000000002E-12, 204022150976.39172, 20402215097.639168
DataValue, 0.75, 3.5960000000000004E-12, 208565072302.55838, 20856507230.255836
DataValue, 0.8, 3.8190000000000006E-12, 209478921183.55588, 20947892118.355587
DataValue, 0.85000000000000009, 4.0530000000000006E-12, 209721194177.15271, 20972119417.715267
DataValue, 0.9, 3.941E-12, 228368434407.51077, 22836843440.751076
DataValue, 0.95000000000000007, 4.489E-12, 211628425038.98419, 21162842503.898418
DataValue, 1, 4.4210000000000006E-12, 226193168966.29718, 22619316896.629715