
SetupTitle, R-V
ApplicationTest, R-V, Public
TestParameter, Name, Port1, Port2, V1Start, V1Stop, V1Step, V2, I1Limit, IntegTime, HoldTime, DelayTime, Port1MinRng
TestParameter, Value, SMU1:MP	MPSMU, SMU2:MP	MPSMU, 0, 1, 0.05, 0, 0.01, MEDIUM, 0, 0, 1nA
DutParameter, Name, L, W, Temp
DutParameter, Value, 1E-05, 1E-06, 25
MetaData, TestRecord.EntryPoint, true
MetaData, TestRecord.RecordTime, 03/04/2023 17:22:58
MetaData, TestRecord.TestTarget, 
MetaData, TestRecord.IterationIndex, 123
MetaData, TestRecord.Preservation, true
MetaData, TestRecord.Flag, 
MetaData, TestRecord.Remarks, 
MetaData, TestRecord.LinkKey, 9fff84f6-a89e-417b-b8d5-f2f92fb7e2ff
Dimension1, 21, 21, 21, 21
Dimension2, 1, 1, 1, 1
DataName, V1, I1, R, Rsheet
DataValue, 0, -9.4E-14, -0, -0
DataValue, 0.05, 4.4000000000000004E-13, 113636363636.36363, 11363636363.636362
DataValue, 0.1, 6.55E-13, 152671755725.19083, 15267175572.519081
DataValue, 0.15, 9.0200000000000009E-13, 166297117516.6297, 16629711751.662968
DataValue, 0.2, 1.0940000000000002E-12, 182815356489.94513, 18281535648.994511
DataValue, 0.25, 1.3970000000000002E-12, 178954903364.35214, 17895490336.435211
DataValue, 0.3, 1.4700000000000002E-12, 204081632653.06119, 20408163265.306118
DataValue, 0.35000000000000003, 1.598E-12, 219023779724.65582, 21902377972.46558
DataValue, 0.4, 1.6640000000000002E-12, 240384615384.61539, 24038461538.461536
DataValue, 0.45, 1.8900000000000002E-12, 238095238095.23807, 23809523809.523804
DataValue, 0.5, 1.935E-12, 258397932816.53745, 25839793281.653744
DataValue, 0.55, 2.0960000000000004E-12, 262404580152.67172, 26240458015.26717
DataValue, 0.6, 2.236E-12, 268336314847.94272, 26833631484.79427
DataValue, 0.65, 2.251E-12, 288760550866.28168, 28876055086.628166
DataValue, 0.70000000000000007, 2.3210000000000003E-12, 301594140456.69971, 30159414045.669968
DataValue, 0.75, 2.219E-12, 337990085624.155, 33799008562.415497
DataValue, 0.8, 2.516E-12, 317965023847.37677, 31796502384.737671
DataValue, 0.85000000000000009, 2.678E-12, 317401045556.38538, 31740104555.638535
DataValue, 0.9, 2.6100000000000004E-12, 344827586206.89648, 34482758620.689644
DataValue, 0.95000000000000007, 2.8590000000000002E-12, 332284015389.99652, 33228401538.999649
DataValue, 1, 2.8350000000000003E-12, 352733686067.01935, 35273368606.701935
SetupTitle, R-V
PrimitiveTest, I/V Sweep
TestParameter, Context.MainFrame, B1500A
TestParameter, Channel.UnitType, SMU, SMU
TestParameter, Channel.Unit, Port1, Port2
TestParameter, Channel.IName, I1, I2
TestParameter, Channel.VName, V1, V2
TestParameter, Channel.Mode, V, V
TestParameter, Channel.Func, VAR1, CONST
TestParameter, Channel.Index, 
TestParameter, Channel.Time, 
TestParameter, Measurement.Port.Unit, Port1, Port2
TestParameter, Measurement.Port.SeriesResistor, NONE, NONE
TestParameter, Measurement.Port.Filter, OFF, OFF
TestParameter, Measurement.Port.OutputVoltageComparison, 0, 0
TestParameter, Measurement.Primary.Locus, Single
TestParameter, Measurement.Primary.Scale, LINEAR
TestParameter, Measurement.Primary.Start, V1Start
TestParameter, Measurement.Primary.Stop, V1Stop
TestParameter, Measurement.Primary.Step, V1Step
TestParameter, Measurement.Primary.Compliance, I1Limit
TestParameter, Measurement.Primary.PowerCompliance, 0
TestParameter, Measurement.Aborting.Condition, CONTINUE AT ANY
TestParameter, Measurement.PostOutput.Value, START
TestParameter, Measurement.PostOutput.Retention, OFF
TestParameter, Measurement.Bias.Source, 0, V2
TestParameter, Measurement.Bias.Compliance, 0.01, I1Limit
TestParameter, Measurement.Monitor.Unit, SMU:=Port1, SMU:=Port2
TestParameter, Measurement.Monitor.Adc, HR ADC, HR ADC
TestParameter, Measurement.Monitor.Measurement, Compliance Side, Compliance Side
TestParameter, Measurement.Monitor.RangingMode, LIMITED, LIMITED
TestParameter, Measurement.Monitor.RangeBoundary, Port1MinRng, 1nA
TestParameter, Measurement.Monitor.RangeRating, BY FULL RANGE, BY FULL RANGE
TestParameter, Measurement.Monitor.RangeRatingCoeff, 50, 50
TestParameter, Measurement.Timing.Hold, HoldTime
TestParameter, Measurement.Timing.Delay, DelayTime
TestParameter, Measurement.Adc.HighSpeed.Mode, AUTO
TestParameter, Measurement.Adc.HighSpeed.Coeff, 1
TestParameter, Measurement.Adc.HighResolution.AutoZero, ON
TestParameter, Measurement.Adc.HighResolution.Mode, IntegMode
TestParameter, Measurement.Adc.HighResolution.Coeff, AdcFactor
TestParameter, Measurement.WaitTime.Source.Coeff, 1
TestParameter, Measurement.WaitTime.Source.Offset, 0
TestParameter, Measurement.WaitTime.Monitor.Coeff, 1
TestParameter, Measurement.WaitTime.Monitor.Offset, 0
TestParameter, Function.User.Name, R, Rsheet
TestParameter, Function.User.Unit, ohm, ohm/sheet
TestParameter, Function.User.Definition, V1/I1, R*W/L
TestParameter, Output.Graph.Enabled, true
TestParameter, Output.Graph.AutoScaling, false
TestParameter, Output.Graph.XAxis.Data, V1
TestParameter, Output.Graph.XAxis.Scale, Linear
TestParameter, Output.Graph.XAxis.Left, V1Start
TestParameter, Output.Graph.XAxis.Right, V1Stop
TestParameter, Output.Graph.XAxis.RunTimeAutoScale, false
TestParameter, Output.Graph.YAxis.Data, R, I1
TestParameter, Output.Graph.YAxis.Scale, Linear, Linear
TestParameter, Output.Graph.YAxis.Bottom, 0, 0
TestParameter, Output.Graph.YAxis.Top, V1Stop/I1Limit, I1Limit
TestParameter, Output.Graph.YAxis.Group, , 
TestParameter, Output.Graph.YAxis.RunTimeAutoScale, false, false
TestParameter, Output.List.Data, V1, I1, R, Rsheet
TestParameter, AutoAnalysis.Interpolation, false
TestParameter, AutoAnalysis.Line1.Enabled, false
TestParameter, AutoAnalysis.Line1.Type, 1
TestParameter, AutoAnalysis.Line1.Fix, False
TestParameter, AutoAnalysis.Line1.YAxis, 0
TestParameter, AutoAnalysis.Line1.Point1.Type, 0
TestParameter, AutoAnalysis.Line1.Point1.XY.X, 
TestParameter, AutoAnalysis.Line1.Point1.XY.Y, 
TestParameter, AutoAnalysis.Line1.Point1.Data.Var, 
TestParameter, AutoAnalysis.Line1.Point1.Data.Condition, 
TestParameter, AutoAnalysis.Line1.Point1.Data.Start, false
TestParameter, AutoAnalysis.Line1.Point1.Data.StartVar, 
TestParameter, AutoAnalysis.Line1.Point1.Data.StartCondition, 
TestParameter, AutoAnalysis.Line1.Point2.Type, 0
TestParameter, AutoAnalysis.Line1.Point2.XY.X, 
TestParameter, AutoAnalysis.Line1.Point2.XY.Y, 
TestParameter, AutoAnalysis.Line1.Point2.Data.Var, 
TestParameter, AutoAnalysis.Line1.Point2.Data.Condition, 
TestParameter, AutoAnalysis.Line1.Point2.Data.Start, false
TestParameter, AutoAnalysis.Line1.Point2.Data.StartVar, 
TestParameter, AutoAnalysis.Line1.Point2.Data.StartCondition, 
TestParameter, AutoAnalysis.Line1.GradientExpr, 0
TestParameter, AutoAnalysis.Line2.Enabled, false
TestParameter, AutoAnalysis.Line2.Type, 1
TestParameter, AutoAnalysis.Line2.Fix, False
TestParameter, AutoAnalysis.Line2.YAxis, 0
TestParameter, AutoAnalysis.Line2.Point1.Type, 0
TestParameter, AutoAnalysis.Line2.Point1.XY.X, 
TestParameter, AutoAnalysis.Line2.Point1.XY.Y, 
TestParameter, AutoAnalysis.Line2.Point1.Data.Var, 
TestParameter, AutoAnalysis.Line2.Point1.Data.Condition, 
TestParameter, AutoAnalysis.Line2.Point1.Data.Start, false
TestParameter, AutoAnalysis.Line2.Point1.Data.StartVar, 
TestParameter, AutoAnalysis.Line2.Point1.Data.StartCondition, 
TestParameter, AutoAnalysis.Line2.Point2.Type, 0
TestParameter, AutoAnalysis.Line2.Point2.XY.X, 
TestParameter, AutoAnalysis.Line2.Point2.XY.Y, 
TestParameter, AutoAnalysis.Line2.Point2.Data.Var, 
TestParameter, AutoAnalysis.Line2.Point2.Data.Condition, 
TestParameter, AutoAnalysis.Line2.Point2.Data.Start, false
TestParameter, AutoAnalysis.Line2.Point2.Data.StartVar, 
TestParameter, AutoAnalysis.Line2.Point2.Data.StartCondition, 
TestParameter, AutoAnalysis.Line2.GradientExpr, 0
TestParameter, AutoAnalysis.Marker.Enabled, false
TestParameter, AutoAnalysis.Marker.Data.Var, 
TestParameter, AutoAnalysis.Marker.Data.Condition, 
TestParameter, AutoAnalysis.Marker.Data.Start, false
TestParameter, AutoAnalysis.Marker.Data.StartVar, 
TestParameter, AutoAnalysis.Marker.Data.StartCondition, 
MetaData, TestRecord.EntryPoint, false
MetaData, TestRecord.RecordTime, 03/04/2023 17:22:58
MetaData, TestRecord.TestTarget, 
MetaData, TestRecord.IterationIndex, 123
MetaData, TestRecord.Preservation, true
MetaData, TestRecord.Flag, 
MetaData, TestRecord.Remarks, 
MetaData, TestRecord.LinkKey, 9fff84f6-a89e-417b-b8d5-f2f92fb7e2ff
Dimension1, 21, 21, 21, 21
Dimension2, 1, 1, 1, 1
DataName, V1, I1, R, Rsheet
DataValue, 0, -9.4E-14, -0, -0
DataValue, 0.05, 4.4000000000000004E-13, 113636363636.36363, 11363636363.636362
DataValue, 0.1, 6.55E-13, 152671755725.19083, 15267175572.519081
DataValue, 0.15, 9.0200000000000009E-13, 166297117516.6297, 16629711751.662968
DataValue, 0.2, 1.0940000000000002E-12, 182815356489.94513, 18281535648.994511
DataValue, 0.25, 1.3970000000000002E-12, 178954903364.35214, 17895490336.435211
DataValue, 0.3, 1.4700000000000002E-12, 204081632653.06119, 20408163265.306118
DataValue, 0.35000000000000003, 1.598E-12, 219023779724.65582, 21902377972.46558
DataValue, 0.4, 1.6640000000000002E-12, 240384615384.61539, 24038461538.461536
DataValue, 0.45, 1.8900000000000002E-12, 238095238095.23807, 23809523809.523804
DataValue, 0.5, 1.935E-12, 258397932816.53745, 25839793281.653744
DataValue, 0.55, 2.0960000000000004E-12, 262404580152.67172, 26240458015.26717
DataValue, 0.6, 2.236E-12, 268336314847.94272, 26833631484.79427
DataValue, 0.65, 2.251E-12, 288760550866.28168, 28876055086.628166
DataValue, 0.70000000000000007, 2.3210000000000003E-12, 301594140456.69971, 30159414045.669968
DataValue, 0.75, 2.219E-12, 337990085624.155, 33799008562.415497
DataValue, 0.8, 2.516E-12, 317965023847.37677, 31796502384.737671
DataValue, 0.85000000000000009, 2.678E-12, 317401045556.38538, 31740104555.638535
DataValue, 0.9, 2.6100000000000004E-12, 344827586206.89648, 34482758620.689644
DataValue, 0.95000000000000007, 2.8590000000000002E-12, 332284015389.99652, 33228401538.999649
DataValue, 1, 2.8350000000000003E-12, 352733686067.01935, 35273368606.701935