
SetupTitle, R-V
ApplicationTest, R-V, Public
TestParameter, Name, Port1, Port2, V1Start, V1Stop, V1Step, V2, I1Limit, IntegTime, HoldTime, DelayTime, Port1MinRng
TestParameter, Value, SMU1:MP	MPSMU, SMU2:MP	MPSMU, 0, 1, 0.05, 0, 0.01, MEDIUM, 0, 0, 1nA
DutParameter, Name, L, W, Temp
DutParameter, Value, 1E-05, 1E-06, 25
MetaData, TestRecord.EntryPoint, true
MetaData, TestRecord.RecordTime, 03/04/2023 17:22:08
MetaData, TestRecord.TestTarget, 
MetaData, TestRecord.IterationIndex, 122
MetaData, TestRecord.Preservation, true
MetaData, TestRecord.Flag, 
MetaData, TestRecord.Remarks, 
MetaData, TestRecord.LinkKey, 3deb1aad-4976-4527-9850-6beeb062446e
Dimension1, 21, 21, 21, 21
Dimension2, 1, 1, 1, 1
DataName, V1, I1, R, Rsheet
DataValue, 0, -3.5E-14, -0, -0
DataValue, 0.05, 3.8000000000000005E-13, 131578947368.42105, 13157894736.842102
DataValue, 0.1, 5.0300000000000008E-13, 198807157057.65405, 19880715705.765404
DataValue, 0.15, 7.95E-13, 188679245283.01886, 18867924528.301884
DataValue, 0.2, 9.4E-13, 212765957446.8085, 21276595744.680847
DataValue, 0.25, 1.105E-12, 226244343891.40271, 22624434389.14027
DataValue, 0.3, 1.1960000000000002E-12, 250836120401.33774, 25083612040.13377
DataValue, 0.35000000000000003, 1.3990000000000002E-12, 250178699070.76483, 25017869907.076481
DataValue, 0.4, 1.416E-12, 282485875706.21472, 28248587570.621468
DataValue, 0.45, 1.6260000000000001E-12, 276752767527.67523, 27675276752.767517
DataValue, 0.5, 1.671E-12, 299222022740.87372, 29922202274.087364
DataValue, 0.55, 1.847E-12, 297780184082.29559, 29778018408.229553
DataValue, 0.6, 1.892E-12, 317124735729.3869, 31712473572.93869
DataValue, 0.65, 2.038E-12, 318940137389.59766, 31894013738.959763
DataValue, 0.70000000000000007, 2.089E-12, 335088559119.1958, 33508855911.919575
DataValue, 0.75, 2.226E-12, 336927223719.67657, 33692722371.967651
DataValue, 0.8, 2.3290000000000003E-12, 343495062258.48004, 34349506225.847996
DataValue, 0.85000000000000009, 2.215E-12, 383747178329.57111, 38374717832.957108
DataValue, 0.9, 2.353E-12, 382490437739.05652, 38249043773.905647
DataValue, 0.95000000000000007, 2.498E-12, 380304243394.71582, 38030424339.471581
DataValue, 1, 2.4930000000000004E-12, 401123144805.4552, 40112314480.545517
SetupTitle, R-V
PrimitiveTest, I/V Sweep
TestParameter, Context.MainFrame, B1500A
TestParameter, Channel.UnitType, SMU, SMU
TestParameter, Channel.Unit, Port1, Port2
TestParameter, Channel.IName, I1, I2
TestParameter, Channel.VName, V1, V2
TestParameter, Channel.Mode, V, V
TestParameter, Channel.Func, VAR1, CONST
TestParameter, Channel.Index, 
TestParameter, Channel.Time, 
TestParameter, Measurement.Port.Unit, Port1, Port2
TestParameter, Measurement.Port.SeriesResistor, NONE, NONE
TestParameter, Measurement.Port.Filter, OFF, OFF
TestParameter, Measurement.Port.OutputVoltageComparison, 0, 0
TestParameter, Measurement.Primary.Locus, Single
TestParameter, Measurement.Primary.Scale, LINEAR
TestParameter, Measurement.Primary.Start, V1Start
TestParameter, Measurement.Primary.Stop, V1Stop
TestParameter, Measurement.Primary.Step, V1Step
TestParameter, Measurement.Primary.Compliance, I1Limit
TestParameter, Measurement.Primary.PowerCompliance, 0
TestParameter, Measurement.Aborting.Condition, CONTINUE AT ANY
TestParameter, Measurement.PostOutput.Value, START
TestParameter, Measurement.PostOutput.Retention, OFF
TestParameter, Measurement.Bias.Source, 0, V2
TestParameter, Measurement.Bias.Compliance, 0.01, I1Limit
TestParameter, Measurement.Monitor.Unit, SMU:=Port1, SMU:=Port2
TestParameter, Measurement.Monitor.Adc, HR ADC, HR ADC
TestParameter, Measurement.Monitor.Measurement, Compliance Side, Compliance Side
TestParameter, Measurement.Monitor.RangingMode, LIMITED, LIMITED
TestParameter, Measurement.Monitor.RangeBoundary, Port1MinRng, 1nA
TestParameter, Measurement.Monitor.RangeRating, BY FULL RANGE, BY FULL RANGE
TestParameter, Measurement.Monitor.RangeRatingCoeff, 50, 50
TestParameter, Measurement.Timing.Hold, HoldTime
TestParameter, Measurement.Timing.Delay, DelayTime
TestParameter, Measurement.Adc.HighSpeed.Mode, AUTO
TestParameter, Measurement.Adc.HighSpeed.Coeff, 1
TestParameter, Measurement.Adc.HighResolution.AutoZero, ON
TestParameter, Measurement.Adc.HighResolution.Mode, IntegMode
TestParameter, Measurement.Adc.HighResolution.Coeff, AdcFactor
TestParameter, Measurement.WaitTime.Source.Coeff, 1
TestParameter, Measurement.WaitTime.Source.Offset, 0
TestParameter, Measurement.WaitTime.Monitor.Coeff, 1
TestParameter, Measurement.WaitTime.Monitor.Offset, 0
TestParameter, Function.User.Name, R, Rsheet
TestParameter, Function.User.Unit, ohm, ohm/sheet
TestParameter, Function.User.Definition, V1/I1, R*W/L
TestParameter, Output.Graph.Enabled, true
TestParameter, Output.Graph.AutoScaling, false
TestParameter, Output.Graph.XAxis.Data, V1
TestParameter, Output.Graph.XAxis.Scale, Linear
TestParameter, Output.Graph.XAxis.Left, V1Start
TestParameter, Output.Graph.XAxis.Right, V1Stop
TestParameter, Output.Graph.XAxis.RunTimeAutoScale, false
TestParameter, Output.Graph.YAxis.Data, R, I1
TestParameter, Output.Graph.YAxis.Scale, Linear, Linear
TestParameter, Output.Graph.YAxis.Bottom, 0, 0
TestParameter, Output.Graph.YAxis.Top, V1Stop/I1Limit, I1Limit
TestParameter, Output.Graph.YAxis.Group, , 
TestParameter, Output.Graph.YAxis.RunTimeAutoScale, false, false
TestParameter, Output.List.Data, V1, I1, R, Rsheet
TestParameter, AutoAnalysis.Interpolation, false
TestParameter, AutoAnalysis.Line1.Enabled, false
TestParameter, AutoAnalysis.Line1.Type, 1
TestParameter, AutoAnalysis.Line1.Fix, False
TestParameter, AutoAnalysis.Line1.YAxis, 0
TestParameter, AutoAnalysis.Line1.Point1.Type, 0
TestParameter, AutoAnalysis.Line1.Point1.XY.X, 
TestParameter, AutoAnalysis.Line1.Point1.XY.Y, 
TestParameter, AutoAnalysis.Line1.Point1.Data.Var, 
TestParameter, AutoAnalysis.Line1.Point1.Data.Condition, 
TestParameter, AutoAnalysis.Line1.Point1.Data.Start, false
TestParameter, AutoAnalysis.Line1.Point1.Data.StartVar, 
TestParameter, AutoAnalysis.Line1.Point1.Data.StartCondition, 
TestParameter, AutoAnalysis.Line1.Point2.Type, 0
TestParameter, AutoAnalysis.Line1.Point2.XY.X, 
TestParameter, AutoAnalysis.Line1.Point2.XY.Y, 
TestParameter, AutoAnalysis.Line1.Point2.Data.Var, 
TestParameter, AutoAnalysis.Line1.Point2.Data.Condition, 
TestParameter, AutoAnalysis.Line1.Point2.Data.Start, false
TestParameter, AutoAnalysis.Line1.Point2.Data.StartVar, 
TestParameter, AutoAnalysis.Line1.Point2.Data.StartCondition, 
TestParameter, AutoAnalysis.Line1.GradientExpr, 0
TestParameter, AutoAnalysis.Line2.Enabled, false
TestParameter, AutoAnalysis.Line2.Type, 1
TestParameter, AutoAnalysis.Line2.Fix, False
TestParameter, AutoAnalysis.Line2.YAxis, 0
TestParameter, AutoAnalysis.Line2.Point1.Type, 0
TestParameter, AutoAnalysis.Line2.Point1.XY.X, 
TestParameter, AutoAnalysis.Line2.Point1.XY.Y, 
TestParameter, AutoAnalysis.Line2.Point1.Data.Var, 
TestParameter, AutoAnalysis.Line2.Point1.Data.Condition, 
TestParameter, AutoAnalysis.Line2.Point1.Data.Start, false
TestParameter, AutoAnalysis.Line2.Point1.Data.StartVar, 
TestParameter, AutoAnalysis.Line2.Point1.Data.StartCondition, 
TestParameter, AutoAnalysis.Line2.Point2.Type, 0
TestParameter, AutoAnalysis.Line2.Point2.XY.X, 
TestParameter, AutoAnalysis.Line2.Point2.XY.Y, 
TestParameter, AutoAnalysis.Line2.Point2.Data.Var, 
TestParameter, AutoAnalysis.Line2.Point2.Data.Condition, 
TestParameter, AutoAnalysis.Line2.Point2.Data.Start, false
TestParameter, AutoAnalysis.Line2.Point2.Data.StartVar, 
TestParameter, AutoAnalysis.Line2.Point2.Data.StartCondition, 
TestParameter, AutoAnalysis.Line2.GradientExpr, 0
TestParameter, AutoAnalysis.Marker.Enabled, false
TestParameter, AutoAnalysis.Marker.Data.Var, 
TestParameter, AutoAnalysis.Marker.Data.Condition, 
TestParameter, AutoAnalysis.Marker.Data.Start, false
TestParameter, AutoAnalysis.Marker.Data.StartVar, 
TestParameter, AutoAnalysis.Marker.Data.StartCondition, 
MetaData, TestRecord.EntryPoint, false
MetaData, TestRecord.RecordTime, 03/04/2023 17:22:08
MetaData, TestRecord.TestTarget, 
MetaData, TestRecord.IterationIndex, 122
MetaData, TestRecord.Preservation, true
MetaData, TestRecord.Flag, 
MetaData, TestRecord.Remarks, 
MetaData, TestRecord.LinkKey, 3deb1aad-4976-4527-9850-6beeb062446e
Dimension1, 21, 21, 21, 21
Dimension2, 1, 1, 1, 1
DataName, V1, I1, R, Rsheet
DataValue, 0, -3.5E-14, -0, -0
DataValue, 0.05, 3.8000000000000005E-13, 131578947368.42105, 13157894736.842102
DataValue, 0.1, 5.0300000000000008E-13, 198807157057.65405, 19880715705.765404
DataValue, 0.15, 7.95E-13, 188679245283.01886, 18867924528.301884
DataValue, 0.2, 9.4E-13, 212765957446.8085, 21276595744.680847
DataValue, 0.25, 1.105E-12, 226244343891.40271, 22624434389.14027
DataValue, 0.3, 1.1960000000000002E-12, 250836120401.33774, 25083612040.13377
DataValue, 0.35000000000000003, 1.3990000000000002E-12, 250178699070.76483, 25017869907.076481
DataValue, 0.4, 1.416E-12, 282485875706.21472, 28248587570.621468
DataValue, 0.45, 1.6260000000000001E-12, 276752767527.67523, 27675276752.767517
DataValue, 0.5, 1.671E-12, 299222022740.87372, 29922202274.087364
DataValue, 0.55, 1.847E-12, 297780184082.29559, 29778018408.229553
DataValue, 0.6, 1.892E-12, 317124735729.3869, 31712473572.93869
DataValue, 0.65, 2.038E-12, 318940137389.59766, 31894013738.959763
DataValue, 0.70000000000000007, 2.089E-12, 335088559119.1958, 33508855911.919575
DataValue, 0.75, 2.226E-12, 336927223719.67657, 33692722371.967651
DataValue, 0.8, 2.3290000000000003E-12, 343495062258.48004, 34349506225.847996
DataValue, 0.85000000000000009, 2.215E-12, 383747178329.57111, 38374717832.957108
DataValue, 0.9, 2.353E-12, 382490437739.05652, 38249043773.905647
DataValue, 0.95000000000000007, 2.498E-12, 380304243394.71582, 38030424339.471581
DataValue, 1, 2.4930000000000004E-12, 401123144805.4552, 40112314480.545517