
SetupTitle, ID-VG Postbreak
PrimitiveTest, I/V Sweep
TestParameter, Context.MainFrame, B1500A
TestParameter, Channel.UnitType, SMU, SMU
TestParameter, Channel.Unit, SMU1:MP, SMU2:MP
TestParameter, Channel.IName, I1, I2
TestParameter, Channel.VName, V1, V2
TestParameter, Channel.Mode, V, V
TestParameter, Channel.Func, VAR1, CONST
TestParameter, Channel.Index, 
TestParameter, Channel.Time, 
TestParameter, Measurement.Port.Unit, SMU1:MP, SMU2:MP
TestParameter, Measurement.Port.SeriesResistor, NONE, NONE
TestParameter, Measurement.Port.Filter, ON, ON
TestParameter, Measurement.Port.OutputVoltageComparison, 0, 0
TestParameter, Measurement.Primary.Locus, Double
TestParameter, Measurement.Primary.Scale, LINEAR
TestParameter, Measurement.Primary.Start, -2
TestParameter, Measurement.Primary.Stop, 6
TestParameter, Measurement.Primary.Step, 0.04
TestParameter, Measurement.Primary.Compliance, 0.1
TestParameter, Measurement.Primary.PowerCompliance, 0
TestParameter, Measurement.Aborting.Condition, CONTINUE AT ANY
TestParameter, Measurement.PostOutput.Value, START
TestParameter, Measurement.PostOutput.Retention, OFF
TestParameter, Measurement.Bias.Source, -2, 0.25
TestParameter, Measurement.Bias.Compliance, 0.1, 0.1
TestParameter, Measurement.Monitor.Unit, SMU1:MP, SMU2:MP
TestParameter, Measurement.Monitor.Adc, HR ADC, HR ADC
TestParameter, Measurement.Monitor.Measurement, Compliance Side, Compliance Side
TestParameter, Measurement.Monitor.RangingMode, LIMITED, LIMITED
TestParameter, Measurement.Monitor.RangeBoundary, 1nA, 1nA
TestParameter, Measurement.Monitor.RangeRating, BY FULL RANGE, BY FULL RANGE
TestParameter, Measurement.Monitor.RangeRatingCoeff, 50, 50
TestParameter, Measurement.Timing.Hold, 0
TestParameter, Measurement.Timing.Delay, 0
TestParameter, Measurement.Adc.HighSpeed.Mode, AUTO
TestParameter, Measurement.Adc.HighSpeed.Coeff, 1
TestParameter, Measurement.Adc.HighResolution.AutoZero, OFF
TestParameter, Measurement.Adc.HighResolution.Mode, AUTO
TestParameter, Measurement.Adc.HighResolution.Coeff, 6
TestParameter, Measurement.WaitTime.Source.Coeff, 1
TestParameter, Measurement.WaitTime.Source.Offset, 0
TestParameter, Measurement.WaitTime.Monitor.Coeff, 1
TestParameter, Measurement.WaitTime.Monitor.Offset, 0
TestParameter, Output.Graph.Enabled, true
TestParameter, Output.Graph.AutoScaling, false
TestParameter, Output.Graph.XAxis.Data, V1
TestParameter, Output.Graph.XAxis.Scale, Linear
TestParameter, Output.Graph.XAxis.Left, -2
TestParameter, Output.Graph.XAxis.Right, 6
TestParameter, Output.Graph.XAxis.RunTimeAutoScale, true
TestParameter, Output.Graph.YAxis.Data, I2
TestParameter, Output.Graph.YAxis.Scale, Linear
TestParameter, Output.Graph.YAxis.Bottom, -0.1
TestParameter, Output.Graph.YAxis.Top, 0.1
TestParameter, Output.Graph.YAxis.Group, 
TestParameter, Output.Graph.YAxis.RunTimeAutoScale, true
TestParameter, Output.List.Data, V1, I1, V2, I2, V3, I3, V4, I4
TestParameter, AutoAnalysis.Interpolation, false
TestParameter, AutoAnalysis.Line1.Enabled, false
TestParameter, AutoAnalysis.Line1.Type, 1
TestParameter, AutoAnalysis.Line1.Fix, True
TestParameter, AutoAnalysis.Line1.YAxis, 0
TestParameter, AutoAnalysis.Line1.Point1.Type, 0
TestParameter, AutoAnalysis.Line1.Point1.XY.X, 
TestParameter, AutoAnalysis.Line1.Point1.XY.Y, 
TestParameter, AutoAnalysis.Line1.Point1.Data.Var, 
TestParameter, AutoAnalysis.Line1.Point1.Data.Condition, 
TestParameter, AutoAnalysis.Line1.Point1.Data.Start, false
TestParameter, AutoAnalysis.Line1.Point1.Data.StartVar, 
TestParameter, AutoAnalysis.Line1.Point1.Data.StartCondition, 
TestParameter, AutoAnalysis.Line1.Point2.Type, 0
TestParameter, AutoAnalysis.Line1.Point2.XY.X, 
TestParameter, AutoAnalysis.Line1.Point2.XY.Y, 
TestParameter, AutoAnalysis.Line1.Point2.Data.Var, 
TestParameter, AutoAnalysis.Line1.Point2.Data.Condition, 
TestParameter, AutoAnalysis.Line1.Point2.Data.Start, false
TestParameter, AutoAnalysis.Line1.Point2.Data.StartVar, 
TestParameter, AutoAnalysis.Line1.Point2.Data.StartCondition, 
TestParameter, AutoAnalysis.Line1.GradientExpr, 0
TestParameter, AutoAnalysis.Line2.Enabled, false
TestParameter, AutoAnalysis.Line2.Type, 1
TestParameter, AutoAnalysis.Line2.Fix, True
TestParameter, AutoAnalysis.Line2.YAxis, 0
TestParameter, AutoAnalysis.Line2.Point1.Type, 0
TestParameter, AutoAnalysis.Line2.Point1.XY.X, 
TestParameter, AutoAnalysis.Line2.Point1.XY.Y, 
TestParameter, AutoAnalysis.Line2.Point1.Data.Var, 
TestParameter, AutoAnalysis.Line2.Point1.Data.Condition, 
TestParameter, AutoAnalysis.Line2.Point1.Data.Start, false
TestParameter, AutoAnalysis.Line2.Point1.Data.StartVar, 
TestParameter, AutoAnalysis.Line2.Point1.Data.StartCondition, 
TestParameter, AutoAnalysis.Line2.Point2.Type, 0
TestParameter, AutoAnalysis.Line2.Point2.XY.X, 
TestParameter, AutoAnalysis.Line2.Point2.XY.Y, 
TestParameter, AutoAnalysis.Line2.Point2.Data.Var, 
TestParameter, AutoAnalysis.Line2.Point2.Data.Condition, 
TestParameter, AutoAnalysis.Line2.Point2.Data.Start, false
TestParameter, AutoAnalysis.Line2.Point2.Data.StartVar, 
TestParameter, AutoAnalysis.Line2.Point2.Data.StartCondition, 
TestParameter, AutoAnalysis.Line2.GradientExpr, 0
TestParameter, AutoAnalysis.Marker.Enabled, false
TestParameter, AutoAnalysis.Marker.Data.Var, 
TestParameter, AutoAnalysis.Marker.Data.Condition, 
TestParameter, AutoAnalysis.Marker.Data.Start, false
TestParameter, AutoAnalysis.Marker.Data.StartVar, 
TestParameter, AutoAnalysis.Marker.Data.StartCondition, 
MetaData, TestRecord.EntryPoint, true
MetaData, TestRecord.RecordTime, 03/10/2023 17:24:35
MetaData, TestRecord.TestTarget, 
MetaData, TestRecord.IterationIndex, 61
MetaData, TestRecord.Preservation, true
MetaData, TestRecord.Flag, 
MetaData, TestRecord.Remarks, 
MetaData, TestRecord.LinkKey, 6f01209a-a917-4e49-985e-92489484c98c
Dimension1, 402, 402, 402, 402, 402, 402, 402, 402
Dimension2, 1, 1, 1, 1, 1, 1, 1, 1
DataName, V1, V2, I1, I2, V3, I3, V4, I4
DataValue, -2, 0.25, -3.66E-12, 1.8020000000000003E-11, , , , 
DataValue, -1.96, 0.25, -2.36E-12, 1.641E-11, , , , 
DataValue, -1.92, 0.25, -1.9700000000000003E-12, 1.7600000000000003E-11, , , , 
DataValue, -1.8800000000000001, 0.25, -1.8000000000000002E-12, 1.943E-11, , , , 
DataValue, -1.84, 0.25, -1.21E-12, 1.8560000000000002E-11, , , , 
DataValue, -1.8, 0.25, -1.3900000000000001E-12, 1.8020000000000003E-11, , , , 
DataValue, -1.76, 0.25, -4.8000000000000008E-13, 1.6290000000000003E-11, , , , 
DataValue, -1.72, 0.25, -1.09E-12, 1.8020000000000003E-11, , , , 
DataValue, -1.68, 0.25, -5.4E-13, 1.943E-11, , , , 
DataValue, -1.6400000000000001, 0.25, -2.6E-13, 1.846E-11, , , , 
DataValue, -1.6, 0.25, -6.400000000000001E-13, 1.701E-11, , , , 
DataValue, -1.56, 0.25, -6.8E-13, 1.631E-11, , , , 
DataValue, -1.52, 0.25, -1.03E-12, 1.8310000000000003E-11, , , , 
DataValue, -1.48, 0.25, 4.1E-13, 1.897E-11, , , , 
DataValue, -1.44, 0.25, -3.9000000000000005E-13, 1.7510000000000003E-11, , , , 
DataValue, -1.4000000000000001, 0.25, 3.4E-13, 1.7090000000000003E-11, , , , 
DataValue, -1.36, 0.25, -5.1E-13, 1.8400000000000002E-11, , , , 
DataValue, -1.32, 0.25, -5.8000000000000005E-13, 1.9840000000000003E-11, , , , 
DataValue, -1.28, 0.25, -7E-14, 1.89E-11, , , , 
DataValue, -1.24, 0.25, 3.3E-13, 1.712E-11, , , , 
DataValue, -1.2, 0.25, -4.2000000000000003E-13, 1.7160000000000002E-11, , , , 
DataValue, -1.16, 0.25, -2.8E-13, 1.837E-11, , , , 
DataValue, -1.12, 0.25, 2.7E-13, 2.014E-11, , , , 
DataValue, -1.08, 0.25, 2.9000000000000003E-13, 1.917E-11, , , , 
DataValue, -1.04, 0.25, 3.5E-13, 1.77E-11, , , , 
DataValue, -1, 0.25, 1.9000000000000002E-13, 1.7110000000000003E-11, , , , 
DataValue, -0.96, 0.25, -6.0000000000000009E-14, 2.012E-11, , , , 
DataValue, -0.92, 0.25, 3.4E-13, 2.0440000000000003E-11, , , , 
DataValue, -0.88, 0.25, 4E-13, 1.9800000000000002E-11, , , , 
DataValue, -0.84, 0.25, 5.4E-13, 1.8870000000000002E-11, , , , 
DataValue, -0.8, 0.25, -2.0000000000000003E-14, 1.9490000000000002E-11, , , , 
DataValue, -0.76, 0.25, 3.2000000000000005E-13, 2.2970000000000002E-11, , , , 
DataValue, -0.72, 0.25, 6.1E-13, 2.2460000000000002E-11, , , , 
DataValue, -0.68, 0.25, 6.8E-13, 2.1130000000000002E-11, , , , 
DataValue, -0.64, 0.25, 7E-13, 2.0040000000000003E-11, , , , 
DataValue, -0.6, 0.25, 1.1000000000000001E-13, 2.216E-11, , , , 
DataValue, -0.56, 0.25, 7.2000000000000006E-13, 2.3590000000000003E-11, , , , 
DataValue, -0.52, 0.25, 5.1E-13, 2.365E-11, , , , 
DataValue, -0.48, 0.25, -2E-13, 2.2280000000000003E-11, , , , 
DataValue, -0.44, 0.25, 4.5000000000000005E-13, 2.229E-11, , , , 
DataValue, -0.4, 0.25, 3.0000000000000003E-13, 2.5970000000000002E-11, , , , 
DataValue, -0.36, 0.25, 1.07E-12, 2.713E-11, , , , 
DataValue, -0.32, 0.25, 4.9E-13, 2.615E-11, , , , 
DataValue, -0.28, 0.25, 1.1100000000000001E-12, 2.642E-11, , , , 
DataValue, -0.24, 0.25, 5.9E-13, 2.7870000000000003E-11, , , , 
DataValue, -0.2, 0.25, 1.21E-12, 3.1230000000000005E-11, , , , 
DataValue, -0.16, 0.25, 1.07E-12, 3.0940000000000005E-11, , , , 
DataValue, -0.12, 0.25, 6.0000000000000007E-13, 3.012E-11, , , , 
DataValue, -0.08, 0.25, 7.4000000000000008E-13, 3.143E-11, , , , 
DataValue, -0.04, 0.25, 6.7000000000000007E-13, 3.526E-11, , , , 
DataValue, 0, 0.25, 8E-13, 3.66E-11, , , , 
DataValue, 0.04, 0.25, 1.32E-12, 3.652E-11, , , , 
DataValue, 0.08, 0.25, 1.4200000000000002E-12, 3.741E-11, , , , 
DataValue, 0.12, 0.25, 4.5000000000000005E-13, 3.853E-11, , , , 
DataValue, 0.16, 0.25, 1.13E-12, 4.2180000000000003E-11, , , , 
DataValue, 0.2, 0.25, 1.2800000000000002E-12, 4.5800000000000006E-11, , , , 
DataValue, 0.24, 0.25, 9.000000000000001E-13, 4.538E-11, , , , 
DataValue, 0.28, 0.25, 1.21E-12, 4.738E-11, , , , 
DataValue, 0.32, 0.25, 2.5E-13, 4.9510000000000005E-11, , , , 
DataValue, 0.36, 0.25, 8.1000000000000008E-13, 5.513E-11, , , , 
DataValue, 0.4, 0.25, 1.3000000000000001E-12, 5.835000000000001E-11, , , , 
DataValue, 0.44, 0.25, 1E-12, 5.871000000000001E-11, , , , 
DataValue, 0.48, 0.25, 1.3300000000000002E-12, 6.0780000000000009E-11, , , , 
DataValue, 0.52, 0.25, 6.0000000000000007E-13, 6.7420000000000011E-11, , , , 
DataValue, 0.56, 0.25, 1.04E-12, 7.085E-11, , , , 
DataValue, 0.6, 0.25, 1.4700000000000002E-12, 7.4120000000000011E-11, , , , 
DataValue, 0.64, 0.25, 1.1100000000000001E-12, 7.778E-11, , , , 
DataValue, 0.68, 0.25, 6.3E-13, 8.279E-11, , , , 
DataValue, 0.72, 0.25, 9.6000000000000015E-13, 9.0500000000000011E-11, , , , 
DataValue, 0.76, 0.25, 1.6300000000000001E-12, 9.461000000000001E-11, , , , 
DataValue, 0.8, 0.25, 1.7700000000000001E-12, 9.9100000000000012E-11, , , , 
DataValue, 0.84, 0.25, 5E-13, 1.0372E-10, , , , 
DataValue, 0.88, 0.25, 1.09E-12, 1.1451000000000001E-10, , , , 
DataValue, 0.92, 0.25, 4.8000000000000008E-13, 1.2199E-10, , , , 
DataValue, 0.96, 0.25, 9.000000000000001E-13, 1.2829E-10, , , , 
DataValue, 1, 0.25, 1.5700000000000002E-12, 1.3494E-10, , , , 
DataValue, 1.04, 0.25, 1.03E-12, 1.4431000000000002E-10, , , , 
DataValue, 1.08, 0.25, 1.4E-12, 1.5704E-10, , , , 
DataValue, 1.12, 0.25, 1.4400000000000001E-12, 1.6821E-10, , , , 
DataValue, 1.16, 0.25, 1.12E-12, 1.7834E-10, , , , 
DataValue, 1.2, 0.25, 1.09E-12, 1.8964E-10, , , , 
DataValue, 1.24, 0.25, 1.0500000000000002E-12, 2.0566000000000002E-10, , , , 
DataValue, 1.28, 0.25, 1.5200000000000002E-12, 2.2165E-10, , , , 
DataValue, 1.32, 0.25, 1.5E-12, 2.3590000000000003E-10, , , , 
DataValue, 1.36, 0.25, 1.59E-12, 2.5376E-10, , , , 
DataValue, 1.4000000000000001, 0.25, 9.4E-13, 2.7408E-10, , , , 
DataValue, 1.44, 0.25, 1.1600000000000001E-12, 2.9731000000000003E-10, , , , 
DataValue, 1.48, 0.25, 9.2000000000000012E-13, 3.206E-10, , , , 
DataValue, 1.52, 0.25, 1.5600000000000002E-12, 3.4354000000000004E-10, , , , 
DataValue, 1.56, 0.25, 1.46E-12, 3.7076E-10, , , , 
DataValue, 1.6, 0.25, 1.6100000000000002E-12, 4.0397000000000005E-10, , , , 
DataValue, 1.6400000000000001, 0.25, 1.4800000000000002E-12, 4.4054E-10, , , , 
DataValue, 1.68, 0.25, 1.73E-12, 4.757E-10, , , , 
DataValue, 1.72, 0.25, 1.5600000000000002E-12, 5.1676000000000008E-10, , , , 
DataValue, 1.76, 0.25, 1.1000000000000002E-12, 5.6548E-10, , , , 
DataValue, 1.8, 0.25, 1.64E-12, 6.2094E-10, , , , 
DataValue, 1.84, 0.25, 1.7100000000000002E-12, 6.7859E-10, , , , 
DataValue, 1.8800000000000001, 0.25, 1.5400000000000001E-12, 7.4275E-10, , , , 
DataValue, 1.92, 0.25, 1E-12, 8.159300000000001E-10, , , , 
DataValue, 1.96, 0.25, 1.5400000000000001E-12, 9.0065000000000009E-10, , , , 
DataValue, 2, 0.25, 2.13E-12, 9.9725E-10, , , , 
DataValue, 2.04, 0.25, 1.6200000000000002E-12, 1.10237E-09, , , , 
DataValue, 2.08, 0.25, 2.13E-12, 1.3015E-09, , , , 
DataValue, 2.12, 0.25, 1.7000000000000002E-12, 1.4332E-09, , , , 
DataValue, 2.16, 0.25, 1.1600000000000001E-12, 1.5861E-09, , , , 
DataValue, 2.2, 0.25, 2.23E-12, 1.7638E-09, , , , 
DataValue, 2.24, 0.25, 1.27E-12, 1.9698E-09, , , , 
DataValue, 2.2800000000000002, 0.25, 2E-12, 2.1991E-09, , , , 
DataValue, 2.32, 0.25, 1.0500000000000002E-12, 2.4695E-09, , , , 
DataValue, 2.36, 0.25, 2.31E-12, 2.7782E-09, , , , 
DataValue, 2.4, 0.25, 1.5800000000000001E-12, 3.1321E-09, , , , 
DataValue, 2.44, 0.25, 2.1000000000000003E-12, 3.5291E-09, , , , 
DataValue, 2.48, 0.25, 1.8000000000000002E-12, 3.9873E-09, , , , 
DataValue, 2.52, 0.25, 2.2700000000000002E-12, 4.5281E-09, , , , 
DataValue, 2.56, 0.25, 2.9100000000000003E-12, 5.1726E-09, , , , 
DataValue, 2.6, 0.25, 1.78E-12, 5.9098E-09, , , , 
DataValue, 2.64, 0.25, 2.03E-12, 6.7626E-09, , , , 
DataValue, 2.68, 0.25, 8.2E-13, 7.7649E-09, , , , 
DataValue, 2.72, 0.25, 1.5300000000000001E-12, 8.9532E-09, , , , 
DataValue, 2.7600000000000002, 0.25, 1.7100000000000002E-12, 1.03273E-08, , , , 
DataValue, 2.8000000000000003, 0.25, 1.6800000000000001E-12, 1.27372E-08, , , , 
DataValue, 2.84, 0.25, 2.11E-12, 1.4790999999999998E-08, , , , 
DataValue, 2.88, 0.25, 1.9700000000000003E-12, 1.7280999999999998E-08, , , , 
DataValue, 2.92, 0.25, 2.7300000000000003E-12, 2.01024E-08, , , , 
DataValue, 2.96, 0.25, 2.67E-12, 2.34546E-08, , , , 
DataValue, 3, 0.25, 1.8100000000000002E-12, 2.7458999999999998E-08, , , , 
DataValue, 3.04, 0.25, 1.69E-12, 3.22E-08, , , , 
DataValue, 3.08, 0.25, 1.51E-12, 3.77444E-08, , , , 
DataValue, 3.12, 0.25, 2.69E-12, 4.4379799999999994E-08, , , , 
DataValue, 3.16, 0.25, 2.5800000000000003E-12, 5.2704599999999993E-08, , , , 
DataValue, 3.2, 0.25, 2.69E-12, 6.2206199999999992E-08, , , , 
DataValue, 3.24, 0.25, 2.3000000000000003E-12, 7.3703599999999988E-08, , , , 
DataValue, 3.2800000000000002, 0.25, 1.46E-12, 8.7370599999999987E-08, , , , 
DataValue, 3.3200000000000003, 0.25, 2.01E-12, 1.0379439999999999E-07, , , , 
DataValue, 3.36, 0.25, 2E-12, 1.2388E-07, , , , 
DataValue, 3.4, 0.25, 2.2700000000000002E-12, 1.4546E-07, , , , 
DataValue, 3.44, 0.25, 2.2500000000000003E-12, 1.713E-07, , , , 
DataValue, 3.48, 0.25, 1.51E-12, 2.0228E-07, , , , 
DataValue, 3.52, 0.25, 2.11E-12, 2.3918E-07, , , , 
DataValue, 3.56, 0.25, 2.72E-12, 2.823E-07, , , , 
DataValue, 3.6, 0.25, 1.9700000000000003E-12, 3.354E-07, , , , 
DataValue, 3.64, 0.25, 2.4300000000000003E-12, 3.9559999999999997E-07, , , , 
DataValue, 3.68, 0.25, 2.8400000000000004E-12, 4.6906E-07, , , , 
DataValue, 3.72, 0.25, 2.18E-12, 5.5604E-07, , , , 
DataValue, 3.7600000000000002, 0.25, 2.77E-12, 6.579E-07, , , , 
DataValue, 3.8000000000000003, 0.25, 3.02E-12, 7.8006E-07, , , , 
DataValue, 3.84, 0.25, 2.9400000000000004E-12, 9.2262E-07, , , , 
DataValue, 3.88, 0.25, 2.6100000000000004E-12, 1.0883E-06, , , , 
DataValue, 3.92, 0.25, 2.74E-12, 1.4567000000000002E-06, , , , 
DataValue, 3.96, 0.25, 2.79E-12, 1.6984000000000001E-06, , , , 
DataValue, 4, 0.25, 2.62E-12, 1.9928000000000002E-06, , , , 
DataValue, 4.04, 0.25, 2.8900000000000004E-12, 2.3214000000000003E-06, , , , 
DataValue, 4.08, 0.25, 2.3800000000000004E-12, 2.6952000000000005E-06, , , , 
DataValue, 4.12, 0.25, 2.8600000000000003E-12, 3.1320000000000003E-06, , , , 
DataValue, 4.16, 0.25, 3.4000000000000005E-12, 3.6252000000000005E-06, , , , 
DataValue, 4.2, 0.25, 2.82E-12, 4.1826E-06, , , , 
DataValue, 4.24, 0.25, 3.0100000000000003E-12, 4.8246E-06, , , , 
DataValue, 4.28, 0.25, 3.3400000000000003E-12, 5.5574E-06, , , , 
DataValue, 4.32, 0.25, 2.2500000000000003E-12, 6.3803000000000006E-06, , , , 
DataValue, 4.36, 0.25, 3.5400000000000003E-12, 7.3E-06, , , , 
DataValue, 4.4, 0.25, 3.3100000000000002E-12, 8.3423000000000014E-06, , , , 
DataValue, 4.44, 0.25, 3.23E-12, 9.4903000000000013E-06, , , , 
DataValue, 4.48, 0.25, 3.72E-12, 1.0750200000000001E-05, , , , 
DataValue, 4.5200000000000005, 0.25, 2.9900000000000004E-12, 1.3298E-05, , , , 
DataValue, 4.5600000000000005, 0.25, 2.6300000000000003E-12, 1.4826E-05, , , , 
DataValue, 4.6000000000000005, 0.25, 2.18E-12, 1.6514E-05, , , , 
DataValue, 4.64, 0.25, 3.07E-12, 1.8358E-05, , , , 
DataValue, 4.68, 0.25, 2.8300000000000003E-12, 2.0336E-05, , , , 
DataValue, 4.72, 0.25, 2.8100000000000003E-12, 2.2496E-05, , , , 
DataValue, 4.76, 0.25, 3.56E-12, 2.4846000000000002E-05, , , , 
DataValue, 4.8, 0.25, 2.9900000000000004E-12, 2.7394000000000002E-05, , , , 
DataValue, 4.84, 0.25, 2.9800000000000002E-12, 3.0126000000000003E-05, , , , 
DataValue, 4.88, 0.25, 3.0100000000000003E-12, 3.304E-05, , , , 
DataValue, 4.92, 0.25, 3.92E-12, 3.6126E-05, , , , 
DataValue, 4.96, 0.25, 3.05E-12, 3.9450000000000003E-05, , , , 
DataValue, 5, 0.25, 3.6800000000000005E-12, 4.2942E-05, , , , 
DataValue, 5.04, 0.25, 3.66E-12, 4.663E-05, , , , 
DataValue, 5.08, 0.25, 3.13E-12, 5.0498E-05, , , , 
DataValue, 5.12, 0.25, 2.5000000000000003E-12, 5.4496E-05, , , , 
DataValue, 5.16, 0.25, 4.01E-12, 5.8768000000000004E-05, , , , 
DataValue, 5.2, 0.25, 3.2100000000000003E-12, 6.3008E-05, , , , 
DataValue, 5.24, 0.25, 3.2100000000000003E-12, 6.7628E-05, , , , 
DataValue, 5.28, 0.25, 3.5000000000000004E-12, 7.2452E-05, , , , 
DataValue, 5.32, 0.25, 3.85E-12, 7.7212E-05, , , , 
DataValue, 5.36, 0.25, 3E-12, 8.2094E-05, , , , 
DataValue, 5.4, 0.25, 3.5700000000000003E-12, 8.7076E-05, , , , 
DataValue, 5.44, 0.25, 3.7800000000000005E-12, 9.2136E-05, , , , 
DataValue, 5.48, 0.25, 3.4200000000000004E-12, 9.7318E-05, , , , 
DataValue, 5.5200000000000005, 0.25, 3.6900000000000006E-12, 0.000102626, , , , 
DataValue, 5.5600000000000005, 0.25, 3.7E-12, 0.00010801800000000001, , , , 
DataValue, 5.6000000000000005, 0.25, 3.72E-12, 0.00011347600000000001, , , , 
DataValue, 5.64, 0.25, 3.97E-12, 0.00012114000000000001, , , , 
DataValue, 5.68, 0.25, 3.02E-12, 0.00012638000000000002, , , , 
DataValue, 5.72, 0.25, 3.5400000000000003E-12, 0.00013164, , , , 
DataValue, 5.76, 0.25, 3.9E-12, 0.00013708, , , , 
DataValue, 5.8, 0.25, 3.8400000000000006E-12, 0.00014264, , , , 
DataValue, 5.84, 0.25, 4.26E-12, 0.0001484, , , , 
DataValue, 5.88, 0.25, 4.03E-12, 0.00015396, , , , 
DataValue, 5.92, 0.25, 3.7400000000000006E-12, 0.00015942000000000002, , , , 
DataValue, 5.96, 0.25, 3.6400000000000006E-12, 0.00016492, , , , 
DataValue, 6, 0.25, 4.3400000000000005E-12, 0.0001706, , , , 
DataValue, 6, 0.25, 4.2900000000000005E-12, 0.00017156000000000002, , , , 
DataValue, 5.96, 0.25, 4.0400000000000006E-12, 0.00017602, , , , 
DataValue, 5.92, 0.25, 3.0800000000000002E-12, 0.00017988000000000002, , , , 
DataValue, 5.88, 0.25, 2.6000000000000002E-12, 0.00018318000000000002, , , , 
DataValue, 5.84, 0.25, 2.9400000000000004E-12, 0.00018600000000000002, , , , 
DataValue, 5.8, 0.25, 2.26E-12, 0.0001884, , , , 
DataValue, 5.76, 0.25, 2.2500000000000003E-12, 0.00019048, , , , 
DataValue, 5.72, 0.25, 2.2500000000000003E-12, 0.00019212000000000002, , , , 
DataValue, 5.68, 0.25, 2.52E-12, 0.00019352, , , , 
DataValue, 5.64, 0.25, 2.26E-12, 0.00019466, , , , 
