
SetupTitle, ID-VG Postbreak
PrimitiveTest, I/V Sweep
TestParameter, Context.MainFrame, B1500A
TestParameter, Channel.UnitType, SMU, SMU
TestParameter, Channel.Unit, SMU1:MP, SMU2:MP
TestParameter, Channel.IName, I1, I2
TestParameter, Channel.VName, V1, V2
TestParameter, Channel.Mode, V, V
TestParameter, Channel.Func, VAR1, CONST
TestParameter, Channel.Index, 
TestParameter, Channel.Time, 
TestParameter, Measurement.Port.Unit, SMU1:MP, SMU2:MP
TestParameter, Measurement.Port.SeriesResistor, NONE, NONE
TestParameter, Measurement.Port.Filter, ON, ON
TestParameter, Measurement.Port.OutputVoltageComparison, 0, 0
TestParameter, Measurement.Primary.Locus, Double
TestParameter, Measurement.Primary.Scale, LINEAR
TestParameter, Measurement.Primary.Start, -2
TestParameter, Measurement.Primary.Stop, 6
TestParameter, Measurement.Primary.Step, 0.04
TestParameter, Measurement.Primary.Compliance, 0.1
TestParameter, Measurement.Primary.PowerCompliance, 0
TestParameter, Measurement.Aborting.Condition, CONTINUE AT ANY
TestParameter, Measurement.PostOutput.Value, START
TestParameter, Measurement.PostOutput.Retention, OFF
TestParameter, Measurement.Bias.Source, -2, 0.25
TestParameter, Measurement.Bias.Compliance, 0.1, 0.1
TestParameter, Measurement.Monitor.Unit, SMU1:MP, SMU2:MP
TestParameter, Measurement.Monitor.Adc, HR ADC, HR ADC
TestParameter, Measurement.Monitor.Measurement, Compliance Side, Compliance Side
TestParameter, Measurement.Monitor.RangingMode, LIMITED, LIMITED
TestParameter, Measurement.Monitor.RangeBoundary, 1nA, 1nA
TestParameter, Measurement.Monitor.RangeRating, BY FULL RANGE, BY FULL RANGE
TestParameter, Measurement.Monitor.RangeRatingCoeff, 50, 50
TestParameter, Measurement.Timing.Hold, 0
TestParameter, Measurement.Timing.Delay, 0
TestParameter, Measurement.Adc.HighSpeed.Mode, AUTO
TestParameter, Measurement.Adc.HighSpeed.Coeff, 1
TestParameter, Measurement.Adc.HighResolution.AutoZero, OFF
TestParameter, Measurement.Adc.HighResolution.Mode, AUTO
TestParameter, Measurement.Adc.HighResolution.Coeff, 6
TestParameter, Measurement.WaitTime.Source.Coeff, 1
TestParameter, Measurement.WaitTime.Source.Offset, 0
TestParameter, Measurement.WaitTime.Monitor.Coeff, 1
TestParameter, Measurement.WaitTime.Monitor.Offset, 0
TestParameter, Output.Graph.Enabled, true
TestParameter, Output.Graph.AutoScaling, false
TestParameter, Output.Graph.XAxis.Data, V1
TestParameter, Output.Graph.XAxis.Scale, Linear
TestParameter, Output.Graph.XAxis.Left, -2
TestParameter, Output.Graph.XAxis.Right, 6
TestParameter, Output.Graph.XAxis.RunTimeAutoScale, true
TestParameter, Output.Graph.YAxis.Data, I2
TestParameter, Output.Graph.YAxis.Scale, Linear
TestParameter, Output.Graph.YAxis.Bottom, -0.1
TestParameter, Output.Graph.YAxis.Top, 0.1
TestParameter, Output.Graph.YAxis.Group, 
TestParameter, Output.Graph.YAxis.RunTimeAutoScale, true
TestParameter, Output.List.Data, V1, I1, V2, I2, V3, I3, V4, I4
TestParameter, AutoAnalysis.Interpolation, false
TestParameter, AutoAnalysis.Line1.Enabled, false
TestParameter, AutoAnalysis.Line1.Type, 1
TestParameter, AutoAnalysis.Line1.Fix, True
TestParameter, AutoAnalysis.Line1.YAxis, 0
TestParameter, AutoAnalysis.Line1.Point1.Type, 0
TestParameter, AutoAnalysis.Line1.Point1.XY.X, 
TestParameter, AutoAnalysis.Line1.Point1.XY.Y, 
TestParameter, AutoAnalysis.Line1.Point1.Data.Var, 
TestParameter, AutoAnalysis.Line1.Point1.Data.Condition, 
TestParameter, AutoAnalysis.Line1.Point1.Data.Start, false
TestParameter, AutoAnalysis.Line1.Point1.Data.StartVar, 
TestParameter, AutoAnalysis.Line1.Point1.Data.StartCondition, 
TestParameter, AutoAnalysis.Line1.Point2.Type, 0
TestParameter, AutoAnalysis.Line1.Point2.XY.X, 
TestParameter, AutoAnalysis.Line1.Point2.XY.Y, 
TestParameter, AutoAnalysis.Line1.Point2.Data.Var, 
TestParameter, AutoAnalysis.Line1.Point2.Data.Condition, 
TestParameter, AutoAnalysis.Line1.Point2.Data.Start, false
TestParameter, AutoAnalysis.Line1.Point2.Data.StartVar, 
TestParameter, AutoAnalysis.Line1.Point2.Data.StartCondition, 
TestParameter, AutoAnalysis.Line1.GradientExpr, 0
TestParameter, AutoAnalysis.Line2.Enabled, false
TestParameter, AutoAnalysis.Line2.Type, 1
TestParameter, AutoAnalysis.Line2.Fix, True
TestParameter, AutoAnalysis.Line2.YAxis, 0
TestParameter, AutoAnalysis.Line2.Point1.Type, 0
TestParameter, AutoAnalysis.Line2.Point1.XY.X, 
TestParameter, AutoAnalysis.Line2.Point1.XY.Y, 
TestParameter, AutoAnalysis.Line2.Point1.Data.Var, 
TestParameter, AutoAnalysis.Line2.Point1.Data.Condition, 
TestParameter, AutoAnalysis.Line2.Point1.Data.Start, false
TestParameter, AutoAnalysis.Line2.Point1.Data.StartVar, 
TestParameter, AutoAnalysis.Line2.Point1.Data.StartCondition, 
TestParameter, AutoAnalysis.Line2.Point2.Type, 0
TestParameter, AutoAnalysis.Line2.Point2.XY.X, 
TestParameter, AutoAnalysis.Line2.Point2.XY.Y, 
TestParameter, AutoAnalysis.Line2.Point2.Data.Var, 
TestParameter, AutoAnalysis.Line2.Point2.Data.Condition, 
TestParameter, AutoAnalysis.Line2.Point2.Data.Start, false
TestParameter, AutoAnalysis.Line2.Point2.Data.StartVar, 
TestParameter, AutoAnalysis.Line2.Point2.Data.StartCondition, 
TestParameter, AutoAnalysis.Line2.GradientExpr, 0
TestParameter, AutoAnalysis.Marker.Enabled, false
TestParameter, AutoAnalysis.Marker.Data.Var, 
TestParameter, AutoAnalysis.Marker.Data.Condition, 
TestParameter, AutoAnalysis.Marker.Data.Start, false
TestParameter, AutoAnalysis.Marker.Data.StartVar, 
TestParameter, AutoAnalysis.Marker.Data.StartCondition, 
MetaData, TestRecord.EntryPoint, true
MetaData, TestRecord.RecordTime, 03/10/2023 17:22:33
MetaData, TestRecord.TestTarget, 
MetaData, TestRecord.IterationIndex, 58
MetaData, TestRecord.Preservation, true
MetaData, TestRecord.Flag, 
MetaData, TestRecord.Remarks, 
MetaData, TestRecord.LinkKey, d24e6f60-5dc6-4c19-a93a-489e688a342a
Dimension1, 402, 402, 402, 402, 402, 402, 402, 402
Dimension2, 1, 1, 1, 1, 1, 1, 1, 1
DataName, V1, V2, I1, I2, V3, I3, V4, I4
DataValue, -2, 0.25, -7.82E-12, 1.622E-11, , , , 
DataValue, -1.96, 0.25, -4.27E-12, 1.3880000000000001E-11, , , , 
DataValue, -1.92, 0.25, -3.7E-12, 1.3340000000000001E-11, , , , 
DataValue, -1.8800000000000001, 0.25, -3.18E-12, 1.5760000000000002E-11, , , , 
DataValue, -1.84, 0.25, -3.28E-12, 1.584E-11, , , , 
DataValue, -1.8, 0.25, -2.51E-12, 1.513E-11, , , , 
DataValue, -1.76, 0.25, -1.95E-12, 1.3560000000000001E-11, , , , 
DataValue, -1.72, 0.25, -1.45E-12, 1.3500000000000002E-11, , , , 
DataValue, -1.68, 0.25, -1.9E-12, 1.7270000000000002E-11, , , , 
DataValue, -1.6400000000000001, 0.25, -4.4000000000000004E-13, 1.608E-11, , , , 
DataValue, -1.6, 0.25, -1.17E-12, 1.3790000000000002E-11, , , , 
DataValue, -1.56, 0.25, -1.03E-12, 1.3030000000000001E-11, , , , 
DataValue, -1.52, 0.25, -8.300000000000001E-13, 1.5250000000000002E-11, , , , 
DataValue, -1.48, 0.25, -9.6000000000000015E-13, 1.657E-11, , , , 
DataValue, -1.44, 0.25, -1.5000000000000002E-13, 1.455E-11, , , , 
DataValue, -1.4000000000000001, 0.25, -7.100000000000001E-13, 1.3350000000000001E-11, , , , 
DataValue, -1.36, 0.25, -5.7E-13, 1.482E-11, , , , 
DataValue, -1.32, 0.25, -4.6000000000000006E-13, 1.624E-11, , , , 
DataValue, -1.28, 0.25, 1.2000000000000002E-13, 1.577E-11, , , , 
DataValue, -1.24, 0.25, -6.0000000000000007E-13, 1.362E-11, , , , 
DataValue, -1.2, 0.25, 4.0000000000000006E-14, 1.2940000000000001E-11, , , , 
DataValue, -1.16, 0.25, -3.8000000000000005E-13, 1.549E-11, , , , 
DataValue, -1.12, 0.25, 4.0000000000000006E-14, 1.635E-11, , , , 
DataValue, -1.08, 0.25, 1.03E-12, 1.3990000000000002E-11, , , , 
DataValue, -1.04, 0.25, 2.6E-13, 1.3140000000000001E-11, , , , 
DataValue, -1, 0.25, 4.7E-13, 1.3690000000000002E-11, , , , 
DataValue, -0.96, 0.25, 8.6000000000000007E-13, 1.642E-11, , , , 
DataValue, -0.92, 0.25, 1.1500000000000002E-12, 1.6180000000000003E-11, , , , 
DataValue, -0.88, 0.25, 8.300000000000001E-13, 1.4490000000000002E-11, , , , 
DataValue, -0.84, 0.25, 5.1E-13, 1.331E-11, , , , 
DataValue, -0.8, 0.25, 3.8000000000000005E-13, 1.535E-11, , , , 
DataValue, -0.76, 0.25, 1.5800000000000001E-12, 1.6160000000000002E-11, , , , 
DataValue, -0.72, 0.25, 1.7600000000000002E-12, 1.5120000000000002E-11, , , , 
DataValue, -0.68, 0.25, 1E-12, 1.352E-11, , , , 
DataValue, -0.64, 0.25, 3.5E-13, 1.444E-11, , , , 
DataValue, -0.6, 0.25, 7.9000000000000007E-13, 1.699E-11, , , , 
DataValue, -0.56, 0.25, 1.4700000000000002E-12, 1.677E-11, , , , 
DataValue, -0.52, 0.25, 1.0500000000000002E-12, 1.5010000000000002E-11, , , , 
DataValue, -0.48, 0.25, 8.7E-13, 1.383E-11, , , , 
DataValue, -0.44, 0.25, 1.07E-12, 1.3650000000000001E-11, , , , 
DataValue, -0.4, 0.25, 1.17E-12, 1.5360000000000002E-11, , , , 
DataValue, -0.36, 0.25, 1.4900000000000001E-12, 1.63E-11, , , , 
DataValue, -0.32, 0.25, 1.21E-12, 1.4100000000000002E-11, , , , 
DataValue, -0.28, 0.25, 1.5800000000000001E-12, 1.394E-11, , , , 
DataValue, -0.24, 0.25, 1.22E-12, 1.484E-11, , , , 
DataValue, -0.2, 0.25, 7.4000000000000008E-13, 1.631E-11, , , , 
DataValue, -0.16, 0.25, 1.9900000000000002E-12, 1.5010000000000002E-11, , , , 
DataValue, -0.12, 0.25, 1.32E-12, 1.3080000000000002E-11, , , , 
DataValue, -0.08, 0.25, 1.1600000000000001E-12, 1.372E-11, , , , 
DataValue, -0.04, 0.25, 1.18E-12, 1.5560000000000002E-11, , , , 
DataValue, 0, 0.25, 1.37E-12, 1.65E-11, , , , 
DataValue, 0.04, 0.25, 1.22E-12, 1.4560000000000003E-11, , , , 
DataValue, 0.08, 0.25, 1.3400000000000002E-12, 1.33E-11, , , , 
DataValue, 0.12, 0.25, 1.37E-12, 1.323E-11, , , , 
DataValue, 0.16, 0.25, 1.3300000000000002E-12, 1.575E-11, , , , 
DataValue, 0.2, 0.25, 1.8200000000000003E-12, 1.6560000000000002E-11, , , , 
DataValue, 0.24, 0.25, 1.8100000000000002E-12, 1.4740000000000002E-11, , , , 
DataValue, 0.28, 0.25, 1.59E-12, 1.3850000000000001E-11, , , , 
DataValue, 0.32, 0.25, 1.5800000000000001E-12, 1.51E-11, , , , 
DataValue, 0.36, 0.25, 1.55E-12, 1.633E-11, , , , 
DataValue, 0.4, 0.25, 2.2000000000000003E-12, 1.551E-11, , , , 
DataValue, 0.44, 0.25, 1.3000000000000001E-12, 1.3640000000000001E-11, , , , 
DataValue, 0.48, 0.25, 1.5E-12, 1.271E-11, , , , 
DataValue, 0.52, 0.25, 1.4200000000000002E-12, 1.508E-11, , , , 
DataValue, 0.56, 0.25, 2.1500000000000003E-12, 1.692E-11, , , , 
DataValue, 0.6, 0.25, 2.31E-12, 1.46E-11, , , , 
DataValue, 0.64, 0.25, 1.51E-12, 1.393E-11, , , , 
DataValue, 0.68, 0.25, 1.74E-12, 1.491E-11, , , , 
DataValue, 0.72, 0.25, 2.14E-12, 1.7180000000000002E-11, , , , 
DataValue, 0.76, 0.25, 2.82E-12, 1.6140000000000002E-11, , , , 
DataValue, 0.8, 0.25, 2.44E-12, 1.504E-11, , , , 
DataValue, 0.84, 0.25, 2.19E-12, 1.3760000000000001E-11, , , , 
DataValue, 0.88, 0.25, 1.55E-12, 1.5940000000000002E-11, , , , 
DataValue, 0.92, 0.25, 2.8900000000000004E-12, 1.7310000000000003E-11, , , , 
DataValue, 0.96, 0.25, 2.5800000000000003E-12, 1.508E-11, , , , 
DataValue, 1, 0.25, 2.4300000000000003E-12, 1.3670000000000001E-11, , , , 
DataValue, 1.04, 0.25, 2.7000000000000002E-12, 1.4390000000000002E-11, , , , 
DataValue, 1.08, 0.25, 2.8E-12, 1.6850000000000002E-11, , , , 
DataValue, 1.12, 0.25, 2.8300000000000003E-12, 1.764E-11, , , , 
DataValue, 1.16, 0.25, 2.49E-12, 1.509E-11, , , , 
DataValue, 1.2, 0.25, 2.14E-12, 1.4050000000000001E-11, , , , 
DataValue, 1.24, 0.25, 2.47E-12, 1.5650000000000002E-11, , , , 
DataValue, 1.28, 0.25, 2.19E-12, 1.7710000000000003E-11, , , , 
DataValue, 1.32, 0.25, 3.2200000000000004E-12, 1.673E-11, , , , 
DataValue, 1.36, 0.25, 2.67E-12, 1.4280000000000001E-11, , , , 
DataValue, 1.4000000000000001, 0.25, 3.23E-12, 1.4260000000000001E-11, , , , 
DataValue, 1.44, 0.25, 2.8300000000000003E-12, 1.7090000000000003E-11, , , , 
DataValue, 1.48, 0.25, 2.97E-12, 1.7310000000000003E-11, , , , 
DataValue, 1.52, 0.25, 3.2100000000000003E-12, 1.5580000000000003E-11, , , , 
DataValue, 1.56, 0.25, 2.39E-12, 1.4350000000000001E-11, , , , 
DataValue, 1.6, 0.25, 2.77E-12, 1.619E-11, , , , 
DataValue, 1.6400000000000001, 0.25, 2.6300000000000003E-12, 1.8380000000000002E-11, , , , 
DataValue, 1.68, 0.25, 3.5500000000000004E-12, 1.845E-11, , , , 
DataValue, 1.72, 0.25, 3.2600000000000002E-12, 1.6560000000000002E-11, , , , 
DataValue, 1.76, 0.25, 3.3E-12, 1.591E-11, , , , 
DataValue, 1.8, 0.25, 2.97E-12, 1.7620000000000003E-11, , , , 
DataValue, 1.84, 0.25, 3.3700000000000004E-12, 1.959E-11, , , , 
DataValue, 1.8800000000000001, 0.25, 3.7800000000000005E-12, 1.877E-11, , , , 
DataValue, 1.92, 0.25, 3.53E-12, 1.784E-11, , , , 
DataValue, 1.96, 0.25, 3.5500000000000004E-12, 1.925E-11, , , , 
DataValue, 2, 0.25, 3.3700000000000004E-12, 2.1800000000000002E-11, , , , 
DataValue, 2.04, 0.25, 4E-12, 2.347E-11, , , , 
DataValue, 2.08, 0.25, 4.0500000000000007E-12, 2.2510000000000002E-11, , , , 
DataValue, 2.12, 0.25, 4.3400000000000005E-12, 2.276E-11, , , , 
DataValue, 2.16, 0.25, 3.33E-12, 2.6410000000000002E-11, , , , 
DataValue, 2.2, 0.25, 4.3400000000000005E-12, 2.965E-11, , , , 
DataValue, 2.24, 0.25, 4.47E-12, 3.07E-11, , , , 
DataValue, 2.2800000000000002, 0.25, 3.67E-12, 3.12E-11, , , , 
DataValue, 2.32, 0.25, 3.5200000000000003E-12, 3.444E-11, , , , 
DataValue, 2.36, 0.25, 4.18E-12, 4.107E-11, , , , 
DataValue, 2.4, 0.25, 5.7E-12, 4.5860000000000004E-11, , , , 
DataValue, 2.44, 0.25, 5.02E-12, 4.912E-11, , , , 
DataValue, 2.48, 0.25, 5.1500000000000005E-12, 5.3960000000000007E-11, , , , 
DataValue, 2.52, 0.25, 4.88E-12, 6.214E-11, , , , 
DataValue, 2.56, 0.25, 4.4400000000000005E-12, 7.3960000000000009E-11, , , , 
DataValue, 2.6, 0.25, 5.4200000000000007E-12, 8.3890000000000007E-11, , , , 
DataValue, 2.64, 0.25, 5.0100000000000007E-12, 9.4780000000000008E-11, , , , 
DataValue, 2.68, 0.25, 5.2700000000000008E-12, 1.0774000000000001E-10, , , , 
DataValue, 2.72, 0.25, 5.0000000000000005E-12, 1.2797E-10, , , , 
DataValue, 2.7600000000000002, 0.25, 5.2600000000000006E-12, 1.5013E-10, , , , 
DataValue, 2.8000000000000003, 0.25, 5.79E-12, 1.7409000000000002E-10, , , , 
DataValue, 2.84, 0.25, 5.0500000000000005E-12, 2.0272000000000003E-10, , , , 
DataValue, 2.88, 0.25, 5.75E-12, 2.3851000000000004E-10, , , , 
DataValue, 2.92, 0.25, 5.4600000000000006E-12, 2.8616E-10, , , , 
DataValue, 2.96, 0.25, 6.4700000000000005E-12, 3.3801E-10, , , , 
DataValue, 3, 0.25, 5.7600000000000005E-12, 3.9959E-10, , , , 
DataValue, 3.04, 0.25, 5.9600000000000005E-12, 4.7459E-10, , , , 
DataValue, 3.08, 0.25, 5.7300000000000008E-12, 5.6668000000000005E-10, , , , 
DataValue, 3.12, 0.25, 6.4700000000000005E-12, 6.8007E-10, , , , 
DataValue, 3.16, 0.25, 6.0700000000000006E-12, 8.1536000000000007E-10, , , , 
DataValue, 3.2, 0.25, 6.1700000000000006E-12, 9.7949E-10, , , , 
DataValue, 3.24, 0.25, 6.21E-12, 1.4741E-09, , , , 
DataValue, 3.2800000000000002, 0.25, 6.5300000000000007E-12, 1.7588E-09, , , , 
DataValue, 3.3200000000000003, 0.25, 6.76E-12, 2.102E-09, , , , 
DataValue, 3.36, 0.25, 5.84E-12, 2.5216E-09, , , , 
DataValue, 3.4, 0.25, 6.5300000000000007E-12, 3.0429E-09, , , , 
DataValue, 3.44, 0.25, 6.5400000000000008E-12, 3.6869E-09, , , , 
DataValue, 3.48, 0.25, 7.6E-12, 4.4753E-09, , , , 
DataValue, 3.52, 0.25, 6.6300000000000006E-12, 5.4508E-09, , , , 
DataValue, 3.56, 0.25, 7.53E-12, 6.6593E-09, , , , 
DataValue, 3.6, 0.25, 6.7E-12, 8.1628E-09, , , , 
DataValue, 3.64, 0.25, 7.8800000000000012E-12, 1.00299E-08, , , , 
DataValue, 3.68, 0.25, 7.1000000000000008E-12, 1.3588199999999998E-08, , , , 
DataValue, 3.72, 0.25, 6.46E-12, 1.6891399999999997E-08, , , , 
DataValue, 3.7600000000000002, 0.25, 7.91E-12, 2.10334E-08, , , , 
DataValue, 3.8000000000000003, 0.25, 7.64E-12, 2.6199999999999996E-08, , , , 
DataValue, 3.84, 0.25, 7.7900000000000013E-12, 3.2679799999999995E-08, , , , 
DataValue, 3.88, 0.25, 7.44E-12, 4.0738599999999997E-08, , , , 
DataValue, 3.92, 0.25, 7.39E-12, 5.07464E-08, , , , 
DataValue, 3.96, 0.25, 8.2000000000000014E-12, 6.3098E-08, , , , 
DataValue, 4, 0.25, 8.24E-12, 7.82604E-08, , , , 
DataValue, 4.04, 0.25, 7.4E-12, 9.6949999999999991E-08, , , , 
DataValue, 4.08, 0.25, 8E-12, 1.2626E-07, , , , 
DataValue, 4.12, 0.25, 7.7800000000000012E-12, 1.5174E-07, , , , 
DataValue, 4.16, 0.25, 8.45E-12, 1.82E-07, , , , 
DataValue, 4.2, 0.25, 8.21E-12, 2.1812E-07, , , , 
DataValue, 4.24, 0.25, 8.4700000000000009E-12, 2.607E-07, , , , 
DataValue, 4.28, 0.25, 9.36E-12, 3.1072E-07, , , , 
DataValue, 4.32, 0.25, 9.76E-12, 3.6888E-07, , , , 
DataValue, 4.36, 0.25, 9.23E-12, 4.3649999999999997E-07, , , , 
DataValue, 4.4, 0.25, 9.64E-12, 5.146E-07, , , , 
DataValue, 4.44, 0.25, 9.33E-12, 6.045E-07, , , , 
DataValue, 4.48, 0.25, 9.53E-12, 7.0738E-07, , , , 
DataValue, 4.5200000000000005, 0.25, 9.46E-12, 8.2386E-07, , , , 
DataValue, 4.5600000000000005, 0.25, 1.036E-11, 9.5486E-07, , , , 
DataValue, 4.6000000000000005, 0.25, 9.900000000000001E-12, 1.10238E-06, , , , 
DataValue, 4.64, 0.25, 9.67E-12, 1.4199000000000002E-06, , , , 
DataValue, 4.68, 0.25, 1.0810000000000001E-11, 1.6096000000000002E-06, , , , 
DataValue, 4.72, 0.25, 1.014E-11, 1.8189000000000003E-06, , , , 
DataValue, 4.76, 0.25, 1.067E-11, 2.0489000000000004E-06, , , , 
DataValue, 4.8, 0.25, 1.1350000000000002E-11, 2.2989E-06, , , , 
DataValue, 4.84, 0.25, 1.1130000000000001E-11, 2.5713000000000003E-06, , , , 
DataValue, 4.88, 0.25, 1.0700000000000001E-11, 2.8649000000000003E-06, , , , 
DataValue, 4.92, 0.25, 1.157E-11, 3.1823000000000004E-06, , , , 
DataValue, 4.96, 0.25, 1.1020000000000001E-11, 3.5243000000000003E-06, , , , 
DataValue, 5, 0.25, 1.1960000000000002E-11, 3.8874E-06, , , , 
DataValue, 5.04, 0.25, 1.2840000000000001E-11, 4.2723000000000006E-06, , , , 
DataValue, 5.08, 0.25, 1.281E-11, 4.6807000000000008E-06, , , , 
DataValue, 5.12, 0.25, 1.1950000000000001E-11, 5.1107000000000009E-06, , , , 
DataValue, 5.16, 0.25, 1.2440000000000001E-11, 5.5657000000000008E-06, , , , 
DataValue, 5.2, 0.25, 1.218E-11, 6.0435000000000007E-06, , , , 
DataValue, 5.24, 0.25, 1.3030000000000001E-11, 6.5452000000000005E-06, , , , 
DataValue, 5.28, 0.25, 1.3380000000000002E-11, 7.0660000000000006E-06, , , , 
DataValue, 5.32, 0.25, 1.2780000000000002E-11, 7.609300000000001E-06, , , , 
DataValue, 5.36, 0.25, 1.2880000000000002E-11, 8.173700000000001E-06, , , , 
DataValue, 5.4, 0.25, 1.3250000000000001E-11, 8.7559E-06, , , , 
DataValue, 5.44, 0.25, 1.332E-11, 9.3644000000000013E-06, , , , 
DataValue, 5.48, 0.25, 1.432E-11, 9.9737E-06, , , , 
DataValue, 5.5200000000000005, 0.25, 1.433E-11, 1.0616800000000001E-05, , , , 
DataValue, 5.5600000000000005, 0.25, 1.46E-11, 1.1278200000000002E-05, , , , 
DataValue, 5.6000000000000005, 0.25, 1.412E-11, 1.2396000000000001E-05, , , , 
DataValue, 5.64, 0.25, 1.47E-11, 1.307E-05, , , , 
DataValue, 5.68, 0.25, 1.4810000000000002E-11, 1.3752E-05, , , , 
DataValue, 5.72, 0.25, 1.546E-11, 1.4456E-05, , , , 
DataValue, 5.76, 0.25, 1.4870000000000003E-11, 1.5176E-05, , , , 
DataValue, 5.8, 0.25, 1.452E-11, 1.5906E-05, , , , 
DataValue, 5.84, 0.25, 1.537E-11, 1.6652E-05, , , , 
DataValue, 5.88, 0.25, 1.588E-11, 1.7412000000000002E-05, , , , 
DataValue, 5.92, 0.25, 1.5380000000000003E-11, 1.8184E-05, , , , 
DataValue, 5.96, 0.25, 1.599E-11, 1.8972E-05, , , , 
DataValue, 6, 0.25, 1.615E-11, 1.9768E-05, , , , 
DataValue, 6, 0.25, 1.655E-11, 1.9908E-05, , , , 
DataValue, 5.96, 0.25, 1.432E-11, 2.0582E-05, , , , 
DataValue, 5.92, 0.25, 1.3450000000000001E-11, 2.1174E-05, , , , 
DataValue, 5.88, 0.25, 1.2930000000000001E-11, 2.1692000000000002E-05, , , , 
DataValue, 5.84, 0.25, 1.2170000000000002E-11, 2.2152E-05, , , , 
DataValue, 5.8, 0.25, 1.076E-11, 2.2574E-05, , , , 
DataValue, 5.76, 0.25, 9.76E-12, 2.2950000000000002E-05, , , , 
DataValue, 5.72, 0.25, 9.7000000000000011E-12, 2.3282000000000002E-05, , , , 
DataValue, 5.68, 0.25, 9.8900000000000009E-12, 2.3576E-05, , , , 
