
SetupTitle, ID-VG Postbreak
PrimitiveTest, I/V Sweep
TestParameter, Context.MainFrame, B1500A
TestParameter, Channel.UnitType, SMU, SMU
TestParameter, Channel.Unit, SMU1:MP, SMU2:MP
TestParameter, Channel.IName, I1, I2
TestParameter, Channel.VName, V1, V2
TestParameter, Channel.Mode, V, V
TestParameter, Channel.Func, VAR1, CONST
TestParameter, Channel.Index, 
TestParameter, Channel.Time, 
TestParameter, Measurement.Port.Unit, SMU1:MP, SMU2:MP
TestParameter, Measurement.Port.SeriesResistor, NONE, NONE
TestParameter, Measurement.Port.Filter, ON, ON
TestParameter, Measurement.Port.OutputVoltageComparison, 0, 0
TestParameter, Measurement.Primary.Locus, Double
TestParameter, Measurement.Primary.Scale, LINEAR
TestParameter, Measurement.Primary.Start, -2
TestParameter, Measurement.Primary.Stop, 6
TestParameter, Measurement.Primary.Step, 0.04
TestParameter, Measurement.Primary.Compliance, 0.1
TestParameter, Measurement.Primary.PowerCompliance, 0
TestParameter, Measurement.Aborting.Condition, CONTINUE AT ANY
TestParameter, Measurement.PostOutput.Value, START
TestParameter, Measurement.PostOutput.Retention, OFF
TestParameter, Measurement.Bias.Source, -2, 0.25
TestParameter, Measurement.Bias.Compliance, 0.1, 0.1
TestParameter, Measurement.Monitor.Unit, SMU1:MP, SMU2:MP
TestParameter, Measurement.Monitor.Adc, HR ADC, HR ADC
TestParameter, Measurement.Monitor.Measurement, Compliance Side, Compliance Side
TestParameter, Measurement.Monitor.RangingMode, LIMITED, LIMITED
TestParameter, Measurement.Monitor.RangeBoundary, 1nA, 1nA
TestParameter, Measurement.Monitor.RangeRating, BY FULL RANGE, BY FULL RANGE
TestParameter, Measurement.Monitor.RangeRatingCoeff, 50, 50
TestParameter, Measurement.Timing.Hold, 0
TestParameter, Measurement.Timing.Delay, 0
TestParameter, Measurement.Adc.HighSpeed.Mode, AUTO
TestParameter, Measurement.Adc.HighSpeed.Coeff, 1
TestParameter, Measurement.Adc.HighResolution.AutoZero, OFF
TestParameter, Measurement.Adc.HighResolution.Mode, AUTO
TestParameter, Measurement.Adc.HighResolution.Coeff, 6
TestParameter, Measurement.WaitTime.Source.Coeff, 1
TestParameter, Measurement.WaitTime.Source.Offset, 0
TestParameter, Measurement.WaitTime.Monitor.Coeff, 1
TestParameter, Measurement.WaitTime.Monitor.Offset, 0
TestParameter, Output.Graph.Enabled, true
TestParameter, Output.Graph.AutoScaling, false
TestParameter, Output.Graph.XAxis.Data, V1
TestParameter, Output.Graph.XAxis.Scale, Linear
TestParameter, Output.Graph.XAxis.Left, -2
TestParameter, Output.Graph.XAxis.Right, 6
TestParameter, Output.Graph.XAxis.RunTimeAutoScale, true
TestParameter, Output.Graph.YAxis.Data, I2
TestParameter, Output.Graph.YAxis.Scale, Linear
TestParameter, Output.Graph.YAxis.Bottom, -0.1
TestParameter, Output.Graph.YAxis.Top, 0.1
TestParameter, Output.Graph.YAxis.Group, 
TestParameter, Output.Graph.YAxis.RunTimeAutoScale, true
TestParameter, Output.List.Data, V1, I1, V2, I2, V3, I3, V4, I4
TestParameter, AutoAnalysis.Interpolation, false
TestParameter, AutoAnalysis.Line1.Enabled, false
TestParameter, AutoAnalysis.Line1.Type, 1
TestParameter, AutoAnalysis.Line1.Fix, True
TestParameter, AutoAnalysis.Line1.YAxis, 0
TestParameter, AutoAnalysis.Line1.Point1.Type, 0
TestParameter, AutoAnalysis.Line1.Point1.XY.X, 
TestParameter, AutoAnalysis.Line1.Point1.XY.Y, 
TestParameter, AutoAnalysis.Line1.Point1.Data.Var, 
TestParameter, AutoAnalysis.Line1.Point1.Data.Condition, 
TestParameter, AutoAnalysis.Line1.Point1.Data.Start, false
TestParameter, AutoAnalysis.Line1.Point1.Data.StartVar, 
TestParameter, AutoAnalysis.Line1.Point1.Data.StartCondition, 
TestParameter, AutoAnalysis.Line1.Point2.Type, 0
TestParameter, AutoAnalysis.Line1.Point2.XY.X, 
TestParameter, AutoAnalysis.Line1.Point2.XY.Y, 
TestParameter, AutoAnalysis.Line1.Point2.Data.Var, 
TestParameter, AutoAnalysis.Line1.Point2.Data.Condition, 
TestParameter, AutoAnalysis.Line1.Point2.Data.Start, false
TestParameter, AutoAnalysis.Line1.Point2.Data.StartVar, 
TestParameter, AutoAnalysis.Line1.Point2.Data.StartCondition, 
TestParameter, AutoAnalysis.Line1.GradientExpr, 0
TestParameter, AutoAnalysis.Line2.Enabled, false
TestParameter, AutoAnalysis.Line2.Type, 1
TestParameter, AutoAnalysis.Line2.Fix, True
TestParameter, AutoAnalysis.Line2.YAxis, 0
TestParameter, AutoAnalysis.Line2.Point1.Type, 0
TestParameter, AutoAnalysis.Line2.Point1.XY.X, 
TestParameter, AutoAnalysis.Line2.Point1.XY.Y, 
TestParameter, AutoAnalysis.Line2.Point1.Data.Var, 
TestParameter, AutoAnalysis.Line2.Point1.Data.Condition, 
TestParameter, AutoAnalysis.Line2.Point1.Data.Start, false
TestParameter, AutoAnalysis.Line2.Point1.Data.StartVar, 
TestParameter, AutoAnalysis.Line2.Point1.Data.StartCondition, 
TestParameter, AutoAnalysis.Line2.Point2.Type, 0
TestParameter, AutoAnalysis.Line2.Point2.XY.X, 
TestParameter, AutoAnalysis.Line2.Point2.XY.Y, 
TestParameter, AutoAnalysis.Line2.Point2.Data.Var, 
TestParameter, AutoAnalysis.Line2.Point2.Data.Condition, 
TestParameter, AutoAnalysis.Line2.Point2.Data.Start, false
TestParameter, AutoAnalysis.Line2.Point2.Data.StartVar, 
TestParameter, AutoAnalysis.Line2.Point2.Data.StartCondition, 
TestParameter, AutoAnalysis.Line2.GradientExpr, 0
TestParameter, AutoAnalysis.Marker.Enabled, false
TestParameter, AutoAnalysis.Marker.Data.Var, 
TestParameter, AutoAnalysis.Marker.Data.Condition, 
TestParameter, AutoAnalysis.Marker.Data.Start, false
TestParameter, AutoAnalysis.Marker.Data.StartVar, 
TestParameter, AutoAnalysis.Marker.Data.StartCondition, 
MetaData, TestRecord.EntryPoint, true
MetaData, TestRecord.RecordTime, 03/10/2023 17:25:18
MetaData, TestRecord.TestTarget, 
MetaData, TestRecord.IterationIndex, 62
MetaData, TestRecord.Preservation, true
MetaData, TestRecord.Flag, 
MetaData, TestRecord.Remarks, 
MetaData, TestRecord.LinkKey, 53ea84d3-7158-4099-add9-515b13fc59fb
Dimension1, 402, 402, 402, 402, 402, 402, 402, 402
Dimension2, 1, 1, 1, 1, 1, 1, 1, 1
DataName, V1, V2, I1, I2, V3, I3, V4, I4
DataValue, -2, 0.25, -2.8600000000000003E-12, 2.001E-11, , , , 
DataValue, -1.96, 0.25, -2.0700000000000003E-12, 2.07E-11, , , , 
DataValue, -1.92, 0.25, -8.7E-13, 2.0170000000000003E-11, , , , 
DataValue, -1.8800000000000001, 0.25, -1.18E-12, 1.865E-11, , , , 
DataValue, -1.84, 0.25, -1.1500000000000002E-12, 1.841E-11, , , , 
DataValue, -1.8, 0.25, -1.12E-12, 1.9490000000000002E-11, , , , 
DataValue, -1.76, 0.25, -9.5E-13, 2.0690000000000002E-11, , , , 
DataValue, -1.72, 0.25, -4.8000000000000008E-13, 1.925E-11, , , , 
DataValue, -1.68, 0.25, -1.5200000000000002E-12, 1.706E-11, , , , 
DataValue, -1.6400000000000001, 0.25, -8.4000000000000006E-13, 1.7960000000000002E-11, , , , 
DataValue, -1.6, 0.25, -6.6E-13, 1.9860000000000003E-11, , , , 
DataValue, -1.56, 0.25, -9.0000000000000008E-14, 2.1220000000000002E-11, , , , 
DataValue, -1.52, 0.25, 4.5000000000000005E-13, 1.923E-11, , , , 
DataValue, -1.48, 0.25, -4.8000000000000008E-13, 1.768E-11, , , , 
DataValue, -1.44, 0.25, -6.8E-13, 1.9420000000000002E-11, , , , 
DataValue, -1.4000000000000001, 0.25, -2.8E-13, 2.027E-11, , , , 
DataValue, -1.36, 0.25, 5.5000000000000008E-13, 2.0310000000000002E-11, , , , 
DataValue, -1.32, 0.25, -5.4E-13, 1.8330000000000003E-11, , , , 
DataValue, -1.28, 0.25, -5.2E-13, 1.863E-11, , , , 
DataValue, -1.24, 0.25, -2.4000000000000004E-13, 2.032E-11, , , , 
DataValue, -1.2, 0.25, 3.1000000000000004E-13, 2.1880000000000003E-11, , , , 
DataValue, -1.16, 0.25, 6.0000000000000007E-13, 2.0490000000000002E-11, , , , 
DataValue, -1.12, 0.25, -7E-14, 1.932E-11, , , , 
DataValue, -1.08, 0.25, -2E-13, 2.0490000000000002E-11, , , , 
DataValue, -1.04, 0.25, -1.1000000000000001E-13, 2.267E-11, , , , 
DataValue, -1, 0.25, 6.0000000000000007E-13, 2.2920000000000003E-11, , , , 
DataValue, -0.96, 0.25, 5.4E-13, 2.0840000000000002E-11, , , , 
DataValue, -0.92, 0.25, -5E-14, 2.1260000000000003E-11, , , , 
DataValue, -0.88, 0.25, 2.4000000000000004E-13, 2.087E-11, , , , 
DataValue, -0.84, 0.25, 3.1000000000000004E-13, 2.4430000000000003E-11, , , , 
DataValue, -0.8, 0.25, 1.1600000000000001E-12, 2.4100000000000003E-11, , , , 
DataValue, -0.76, 0.25, 7.9000000000000007E-13, 2.2480000000000003E-11, , , , 
DataValue, -0.72, 0.25, 4.6000000000000006E-13, 2.2150000000000002E-11, , , , 
DataValue, -0.68, 0.25, 2.7E-13, 2.4750000000000002E-11, , , , 
DataValue, -0.64, 0.25, 5.1E-13, 2.6790000000000002E-11, , , , 
DataValue, -0.6, 0.25, 9.4E-13, 2.5940000000000003E-11, , , , 
DataValue, -0.56, 0.25, 4.0000000000000006E-14, 2.4630000000000003E-11, , , , 
DataValue, -0.52, 0.25, 3.9000000000000005E-13, 2.604E-11, , , , 
DataValue, -0.48, 0.25, 1.5000000000000002E-13, 2.8430000000000002E-11, , , , 
DataValue, -0.44, 0.25, 6.0000000000000007E-13, 3.0750000000000004E-11, , , , 
DataValue, -0.4, 0.25, 8.9E-13, 3.084E-11, , , , 
DataValue, -0.36, 0.25, -2.2000000000000002E-13, 2.9630000000000005E-11, , , , 
DataValue, -0.32, 0.25, 4.6000000000000006E-13, 3.135E-11, , , , 
DataValue, -0.28, 0.25, 7E-13, 3.444E-11, , , , 
DataValue, -0.24, 0.25, 9.6000000000000015E-13, 3.732E-11, , , , 
DataValue, -0.2, 0.25, 1.3900000000000001E-12, 3.605E-11, , , , 
DataValue, -0.16, 0.25, 5.7E-13, 3.6770000000000006E-11, , , , 
DataValue, -0.12, 0.25, 6.2000000000000008E-13, 4.027E-11, , , , 
DataValue, -0.08, 0.25, 8E-13, 4.392E-11, , , , 
DataValue, -0.04, 0.25, 9.000000000000001E-13, 4.5860000000000004E-11, , , , 
DataValue, 0, 0.25, 4.5000000000000005E-13, 4.643E-11, , , , 
DataValue, 0.04, 0.25, 9.000000000000001E-13, 4.8640000000000006E-11, , , , 
DataValue, 0.08, 0.25, 5.4E-13, 5.3910000000000004E-11, , , , 
DataValue, 0.12, 0.25, 9.5E-13, 5.783E-11, , , , 
DataValue, 0.16, 0.25, 8.6000000000000007E-13, 5.98E-11, , , , 
DataValue, 0.2, 0.25, 4.8000000000000008E-13, 6.3450000000000011E-11, , , , 
DataValue, 0.24, 0.25, 7E-13, 6.846E-11, , , , 
DataValue, 0.28, 0.25, 5.4E-13, 7.497E-11, , , , 
DataValue, 0.32, 0.25, 1.22E-12, 7.8730000000000009E-11, , , , 
DataValue, 0.36, 0.25, 1.6100000000000002E-12, 8.278000000000001E-11, , , , 
DataValue, 0.4, 0.25, 7.4000000000000008E-13, 8.878E-11, , , , 
DataValue, 0.44, 0.25, 4.7E-13, 9.7260000000000008E-11, , , , 
DataValue, 0.48, 0.25, 7.4000000000000008E-13, 1.0612E-10, , , , 
DataValue, 0.52, 0.25, 1.78E-12, 1.1206000000000001E-10, , , , 
DataValue, 0.56, 0.25, 9.1000000000000016E-13, 1.1925E-10, , , , 
DataValue, 0.6, 0.25, 1.4300000000000002E-12, 1.297E-10, , , , 
DataValue, 0.64, 0.25, 1.31E-12, 1.4191E-10, , , , 
DataValue, 0.68, 0.25, 1.6300000000000001E-12, 1.5199E-10, , , , 
DataValue, 0.72, 0.25, 1.1100000000000001E-12, 1.6251000000000002E-10, , , , 
DataValue, 0.76, 0.25, 6.3E-13, 1.7502E-10, , , , 
DataValue, 0.8, 0.25, 8.1000000000000008E-13, 1.9147E-10, , , , 
DataValue, 0.84, 0.25, 8.2E-13, 2.0796000000000002E-10, , , , 
DataValue, 0.88, 0.25, 1.51E-12, 2.2294E-10, , , , 
DataValue, 0.92, 0.25, 7.5E-13, 2.4054000000000003E-10, , , , 
DataValue, 0.96, 0.25, 1.18E-12, 2.6105000000000004E-10, , , , 
DataValue, 1, 0.25, 1.5600000000000002E-12, 2.8593E-10, , , , 
DataValue, 1.04, 0.25, 1.6100000000000002E-12, 3.1045000000000005E-10, , , , 
DataValue, 1.08, 0.25, 1.13E-12, 3.3461000000000005E-10, , , , 
DataValue, 1.12, 0.25, 1.2000000000000001E-12, 3.6227000000000003E-10, , , , 
DataValue, 1.16, 0.25, 1.1000000000000002E-12, 3.9760000000000005E-10, , , , 
DataValue, 1.2, 0.25, 1.1500000000000002E-12, 4.3351000000000004E-10, , , , 
DataValue, 1.24, 0.25, 1.95E-12, 4.7057000000000006E-10, , , , 
DataValue, 1.28, 0.25, 5.8000000000000005E-13, 5.1133E-10, , , , 
DataValue, 1.32, 0.25, 1.8000000000000002E-12, 5.5703000000000009E-10, , , , 
DataValue, 1.36, 0.25, 1E-12, 6.0978E-10, , , , 
DataValue, 1.4000000000000001, 0.25, 2.09E-12, 6.6669E-10, , , , 
DataValue, 1.44, 0.25, 1.69E-12, 7.2635000000000008E-10, , , , 
DataValue, 1.48, 0.25, 8.9E-13, 7.9299000000000007E-10, , , , 
DataValue, 1.52, 0.25, 1.73E-12, 8.700000000000001E-10, , , , 
DataValue, 1.56, 0.25, 9.5E-13, 9.5639E-10, , , , 
DataValue, 1.6, 0.25, 1.45E-12, 1.04895E-09, , , , 
DataValue, 1.6400000000000001, 0.25, 1.46E-12, 1.2276E-09, , , , 
DataValue, 1.68, 0.25, 1.9900000000000002E-12, 1.3605E-09, , , , 
DataValue, 1.72, 0.25, 7.7000000000000005E-13, 1.4815E-09, , , , 
DataValue, 1.76, 0.25, 1.1900000000000002E-12, 1.6226E-09, , , , 
DataValue, 1.8, 0.25, 1.3000000000000001E-12, 1.7866E-09, , , , 
DataValue, 1.84, 0.25, 1.7700000000000001E-12, 1.9671E-09, , , , 
DataValue, 1.8800000000000001, 0.25, 1.2900000000000002E-12, 2.1719E-09, , , , 
DataValue, 1.92, 0.25, 1.8200000000000003E-12, 2.4061E-09, , , , 
DataValue, 1.96, 0.25, 1.5700000000000002E-12, 2.6695E-09, , , , 
DataValue, 2, 0.25, 1.4900000000000001E-12, 2.9854E-09, , , , 
DataValue, 2.04, 0.25, 1.4800000000000002E-12, 3.3374E-09, , , , 
DataValue, 2.08, 0.25, 1.1900000000000002E-12, 3.7409E-09, , , , 
DataValue, 2.12, 0.25, 1.5200000000000002E-12, 4.2094E-09, , , , 
DataValue, 2.16, 0.25, 9.3E-13, 4.7439E-09, , , , 
DataValue, 2.2, 0.25, 2.1200000000000003E-12, 5.3597E-09, , , , 
DataValue, 2.24, 0.25, 1.8000000000000002E-12, 6.0701E-09, , , , 
DataValue, 2.2800000000000002, 0.25, 1.3400000000000002E-12, 6.8891E-09, , , , 
DataValue, 2.32, 0.25, 1.2900000000000002E-12, 7.8648E-09, , , , 
DataValue, 2.36, 0.25, 1.9200000000000003E-12, 8.9788E-09, , , , 
DataValue, 2.4, 0.25, 1.5600000000000002E-12, 1.0297E-08, , , , 
DataValue, 2.44, 0.25, 1.5700000000000002E-12, 1.2582199999999999E-08, , , , 
DataValue, 2.48, 0.25, 1.7500000000000002E-12, 1.4429399999999998E-08, , , , 
DataValue, 2.52, 0.25, 2.13E-12, 1.66482E-08, , , , 
DataValue, 2.56, 0.25, 2.13E-12, 1.93102E-08, , , , 
DataValue, 2.6, 0.25, 1.51E-12, 2.2444E-08, , , , 
DataValue, 2.64, 0.25, 1.8100000000000002E-12, 2.6182999999999997E-08, , , , 
DataValue, 2.68, 0.25, 1.6200000000000002E-12, 3.05736E-08, , , , 
DataValue, 2.72, 0.25, 1.9900000000000002E-12, 3.5806199999999994E-08, , , , 
DataValue, 2.7600000000000002, 0.25, 1.9400000000000002E-12, 4.2007599999999993E-08, , , , 
DataValue, 2.8000000000000003, 0.25, 2.36E-12, 4.9405799999999995E-08, , , , 
DataValue, 2.84, 0.25, 1.6100000000000002E-12, 5.8309599999999996E-08, , , , 
DataValue, 2.88, 0.25, 2.24E-12, 6.90206E-08, , , , 
DataValue, 2.92, 0.25, 1.8100000000000002E-12, 8.1711599999999989E-08, , , , 
DataValue, 2.96, 0.25, 2.21E-12, 9.6794599999999992E-08, , , , 
DataValue, 3, 0.25, 1.6200000000000002E-12, 1.2503999999999999E-07, , , , 
DataValue, 3.04, 0.25, 2.23E-12, 1.5248E-07, , , , 
DataValue, 3.08, 0.25, 1.32E-12, 1.7688E-07, , , , 
DataValue, 3.12, 0.25, 1.7600000000000002E-12, 2.0578E-07, , , , 
DataValue, 3.16, 0.25, 1.6300000000000001E-12, 2.4056E-07, , , , 
DataValue, 3.2, 0.25, 1.8900000000000002E-12, 2.8218E-07, , , , 
DataValue, 3.24, 0.25, 1.8100000000000002E-12, 3.328E-07, , , , 
DataValue, 3.2800000000000002, 0.25, 2.79E-12, 3.9166E-07, , , , 
DataValue, 3.3200000000000003, 0.25, 2.2500000000000003E-12, 4.6136E-07, , , , 
DataValue, 3.36, 0.25, 2.21E-12, 5.4347999999999994E-07, , , , 
DataValue, 3.4, 0.25, 2.1700000000000002E-12, 6.4308E-07, , , , 
DataValue, 3.44, 0.25, 2.39E-12, 7.5994E-07, , , , 
DataValue, 3.48, 0.25, 2E-12, 8.9689999999999994E-07, , , , 
DataValue, 3.52, 0.25, 2.36E-12, 1.06134E-06, , , , 
DataValue, 3.56, 0.25, 2.04E-12, 1.4379000000000002E-06, , , , 
DataValue, 3.6, 0.25, 1.73E-12, 1.6716000000000002E-06, , , , 
DataValue, 3.64, 0.25, 2.16E-12, 1.9416E-06, , , , 
DataValue, 3.68, 0.25, 1.7700000000000001E-12, 2.2608E-06, , , , 
DataValue, 3.72, 0.25, 2.46E-12, 2.6286E-06, , , , 
DataValue, 3.7600000000000002, 0.25, 2.09E-12, 3.0531000000000005E-06, , , , 
DataValue, 3.8000000000000003, 0.25, 2E-12, 3.5415000000000003E-06, , , , 
DataValue, 3.84, 0.25, 2.26E-12, 4.0982E-06, , , , 
DataValue, 3.88, 0.25, 1.9E-12, 4.7401000000000006E-06, , , , 
DataValue, 3.92, 0.25, 2.23E-12, 5.4701E-06, , , , 
DataValue, 3.96, 0.25, 3.02E-12, 6.302100000000001E-06, , , , 
DataValue, 4, 0.25, 1.8700000000000003E-12, 7.2237000000000008E-06, , , , 
DataValue, 4.04, 0.25, 2.37E-12, 8.2475E-06, , , , 
DataValue, 4.08, 0.25, 2.2700000000000002E-12, 9.3836000000000011E-06, , , , 
DataValue, 4.12, 0.25, 2.59E-12, 1.06549E-05, , , , 
DataValue, 4.16, 0.25, 2.8E-12, 1.3252000000000001E-05, , , , 
DataValue, 4.2, 0.25, 2.46E-12, 1.479E-05, , , , 
DataValue, 4.24, 0.25, 2.6100000000000004E-12, 1.6512E-05, , , , 
DataValue, 4.28, 0.25, 2.4500000000000003E-12, 1.8370000000000002E-05, , , , 
DataValue, 4.32, 0.25, 2.39E-12, 2.0432E-05, , , , 
DataValue, 4.36, 0.25, 2.8400000000000004E-12, 2.2668E-05, , , , 
DataValue, 4.4, 0.25, 3.33E-12, 2.5092E-05, , , , 
DataValue, 4.44, 0.25, 3.25E-12, 2.7696E-05, , , , 
DataValue, 4.48, 0.25, 2.37E-12, 3.0542E-05, , , , 
DataValue, 4.5200000000000005, 0.25, 2.59E-12, 3.3588000000000004E-05, , , , 
DataValue, 4.5600000000000005, 0.25, 2.5300000000000003E-12, 3.6836000000000004E-05, , , , 
DataValue, 4.6000000000000005, 0.25, 2.82E-12, 4.0298E-05, , , , 
DataValue, 4.64, 0.25, 3.18E-12, 4.3944000000000005E-05, , , , 
DataValue, 4.68, 0.25, 3.25E-12, 4.7816000000000004E-05, , , , 
DataValue, 4.72, 0.25, 3.4200000000000004E-12, 5.181E-05, , , , 
DataValue, 4.76, 0.25, 3.02E-12, 5.5998E-05, , , , 
DataValue, 4.8, 0.25, 2.6000000000000002E-12, 6.0474000000000004E-05, , , , 
DataValue, 4.84, 0.25, 2.8100000000000003E-12, 6.5124000000000009E-05, , , , 
DataValue, 4.88, 0.25, 3.0800000000000002E-12, 6.9962E-05, , , , 
DataValue, 4.92, 0.25, 2.97E-12, 7.52E-05, , , , 
DataValue, 4.96, 0.25, 2.97E-12, 8.0368E-05, , , , 
DataValue, 5, 0.25, 3.07E-12, 8.5656000000000008E-05, , , , 
DataValue, 5.04, 0.25, 2.8900000000000004E-12, 9.1002000000000007E-05, , , , 
DataValue, 5.08, 0.25, 3.1200000000000004E-12, 9.6446E-05, , , , 
DataValue, 5.12, 0.25, 2.8100000000000003E-12, 0.00010206600000000001, , , , 
DataValue, 5.16, 0.25, 3.2600000000000002E-12, 0.00010775800000000001, , , , 
DataValue, 5.2, 0.25, 3.3E-12, 0.00011351200000000001, , , , 
DataValue, 5.24, 0.25, 3.2700000000000004E-12, 0.00012188, , , , 
DataValue, 5.28, 0.25, 3.1400000000000004E-12, 0.00012756, , , , 
DataValue, 5.32, 0.25, 2.7100000000000004E-12, 0.00013324000000000002, , , , 
DataValue, 5.36, 0.25, 3.3600000000000002E-12, 0.00013918, , , , 
DataValue, 5.4, 0.25, 3.2200000000000004E-12, 0.00014514, , , , 
DataValue, 5.44, 0.25, 2.9E-12, 0.00015122, , , , 
DataValue, 5.48, 0.25, 3.8800000000000004E-12, 0.0001573, , , , 
DataValue, 5.5200000000000005, 0.25, 4.07E-12, 0.00016346, , , , 
DataValue, 5.5600000000000005, 0.25, 3.8300000000000004E-12, 0.00016958, , , , 
DataValue, 5.6000000000000005, 0.25, 3.38E-12, 0.00017562, , , , 
DataValue, 5.64, 0.25, 3.5500000000000004E-12, 0.00018178, , , , 
DataValue, 5.68, 0.25, 3.5000000000000004E-12, 0.00018794000000000002, , , , 
DataValue, 5.72, 0.25, 2.97E-12, 0.00019406000000000002, , , , 
DataValue, 5.76, 0.25, 3.65E-12, 0.00020004000000000002, , , , 
DataValue, 5.8, 0.25, 4.06E-12, 0.00020620000000000003, , , , 
DataValue, 5.84, 0.25, 3.7400000000000006E-12, 0.00021234000000000002, , , , 
DataValue, 5.88, 0.25, 3.3700000000000004E-12, 0.00021846000000000002, , , , 
DataValue, 5.92, 0.25, 4.22E-12, 0.00022458000000000002, , , , 
DataValue, 5.96, 0.25, 3.5400000000000003E-12, 0.00023064, , , , 
DataValue, 6, 0.25, 3.2E-12, 0.0002368, , , , 
DataValue, 6, 0.25, 4.47E-12, 0.00023772000000000002, , , , 
DataValue, 5.96, 0.25, 3.6800000000000005E-12, 0.0002424, , , , 
DataValue, 5.92, 0.25, 3.1700000000000004E-12, 0.00024658000000000004, , , , 
DataValue, 5.88, 0.25, 2.9E-12, 0.00025004000000000004, , , , 
DataValue, 5.84, 0.25, 2.4800000000000003E-12, 0.00025302, , , , 
DataValue, 5.8, 0.25, 2.3000000000000003E-12, 0.00025554, , , , 
DataValue, 5.76, 0.25, 2.31E-12, 0.00025770000000000003, , , , 
