
SetupTitle, ID-VG Postbreak
PrimitiveTest, I/V Sweep
TestParameter, Context.MainFrame, B1500A
TestParameter, Channel.UnitType, SMU, SMU
TestParameter, Channel.Unit, SMU1:MP, SMU2:MP
TestParameter, Channel.IName, I1, I2
TestParameter, Channel.VName, V1, V2
TestParameter, Channel.Mode, V, V
TestParameter, Channel.Func, VAR1, CONST
TestParameter, Channel.Index, 
TestParameter, Channel.Time, 
TestParameter, Measurement.Port.Unit, SMU1:MP, SMU2:MP
TestParameter, Measurement.Port.SeriesResistor, NONE, NONE
TestParameter, Measurement.Port.Filter, ON, ON
TestParameter, Measurement.Port.OutputVoltageComparison, 0, 0
TestParameter, Measurement.Primary.Locus, Double
TestParameter, Measurement.Primary.Scale, LINEAR
TestParameter, Measurement.Primary.Start, -2
TestParameter, Measurement.Primary.Stop, 6
TestParameter, Measurement.Primary.Step, 0.04
TestParameter, Measurement.Primary.Compliance, 0.1
TestParameter, Measurement.Primary.PowerCompliance, 0
TestParameter, Measurement.Aborting.Condition, CONTINUE AT ANY
TestParameter, Measurement.PostOutput.Value, START
TestParameter, Measurement.PostOutput.Retention, OFF
TestParameter, Measurement.Bias.Source, -2, 0.25
TestParameter, Measurement.Bias.Compliance, 0.1, 0.1
TestParameter, Measurement.Monitor.Unit, SMU1:MP, SMU2:MP
TestParameter, Measurement.Monitor.Adc, HR ADC, HR ADC
TestParameter, Measurement.Monitor.Measurement, Compliance Side, Compliance Side
TestParameter, Measurement.Monitor.RangingMode, LIMITED, LIMITED
TestParameter, Measurement.Monitor.RangeBoundary, 1nA, 1nA
TestParameter, Measurement.Monitor.RangeRating, BY FULL RANGE, BY FULL RANGE
TestParameter, Measurement.Monitor.RangeRatingCoeff, 50, 50
TestParameter, Measurement.Timing.Hold, 0
TestParameter, Measurement.Timing.Delay, 0
TestParameter, Measurement.Adc.HighSpeed.Mode, AUTO
TestParameter, Measurement.Adc.HighSpeed.Coeff, 1
TestParameter, Measurement.Adc.HighResolution.AutoZero, OFF
TestParameter, Measurement.Adc.HighResolution.Mode, AUTO
TestParameter, Measurement.Adc.HighResolution.Coeff, 6
TestParameter, Measurement.WaitTime.Source.Coeff, 1
TestParameter, Measurement.WaitTime.Source.Offset, 0
TestParameter, Measurement.WaitTime.Monitor.Coeff, 1
TestParameter, Measurement.WaitTime.Monitor.Offset, 0
TestParameter, Output.Graph.Enabled, true
TestParameter, Output.Graph.AutoScaling, false
TestParameter, Output.Graph.XAxis.Data, V1
TestParameter, Output.Graph.XAxis.Scale, Linear
TestParameter, Output.Graph.XAxis.Left, -2
TestParameter, Output.Graph.XAxis.Right, 6
TestParameter, Output.Graph.XAxis.RunTimeAutoScale, true
TestParameter, Output.Graph.YAxis.Data, I2
TestParameter, Output.Graph.YAxis.Scale, Linear
TestParameter, Output.Graph.YAxis.Bottom, -0.1
TestParameter, Output.Graph.YAxis.Top, 0.1
TestParameter, Output.Graph.YAxis.Group, 
TestParameter, Output.Graph.YAxis.RunTimeAutoScale, true
TestParameter, Output.List.Data, V1, I1, V2, I2, V3, I3, V4, I4
TestParameter, AutoAnalysis.Interpolation, false
TestParameter, AutoAnalysis.Line1.Enabled, false
TestParameter, AutoAnalysis.Line1.Type, 1
TestParameter, AutoAnalysis.Line1.Fix, True
TestParameter, AutoAnalysis.Line1.YAxis, 0
TestParameter, AutoAnalysis.Line1.Point1.Type, 0
TestParameter, AutoAnalysis.Line1.Point1.XY.X, 
TestParameter, AutoAnalysis.Line1.Point1.XY.Y, 
TestParameter, AutoAnalysis.Line1.Point1.Data.Var, 
TestParameter, AutoAnalysis.Line1.Point1.Data.Condition, 
TestParameter, AutoAnalysis.Line1.Point1.Data.Start, false
TestParameter, AutoAnalysis.Line1.Point1.Data.StartVar, 
TestParameter, AutoAnalysis.Line1.Point1.Data.StartCondition, 
TestParameter, AutoAnalysis.Line1.Point2.Type, 0
TestParameter, AutoAnalysis.Line1.Point2.XY.X, 
TestParameter, AutoAnalysis.Line1.Point2.XY.Y, 
TestParameter, AutoAnalysis.Line1.Point2.Data.Var, 
TestParameter, AutoAnalysis.Line1.Point2.Data.Condition, 
TestParameter, AutoAnalysis.Line1.Point2.Data.Start, false
TestParameter, AutoAnalysis.Line1.Point2.Data.StartVar, 
TestParameter, AutoAnalysis.Line1.Point2.Data.StartCondition, 
TestParameter, AutoAnalysis.Line1.GradientExpr, 0
TestParameter, AutoAnalysis.Line2.Enabled, false
TestParameter, AutoAnalysis.Line2.Type, 1
TestParameter, AutoAnalysis.Line2.Fix, True
TestParameter, AutoAnalysis.Line2.YAxis, 0
TestParameter, AutoAnalysis.Line2.Point1.Type, 0
TestParameter, AutoAnalysis.Line2.Point1.XY.X, 
TestParameter, AutoAnalysis.Line2.Point1.XY.Y, 
TestParameter, AutoAnalysis.Line2.Point1.Data.Var, 
TestParameter, AutoAnalysis.Line2.Point1.Data.Condition, 
TestParameter, AutoAnalysis.Line2.Point1.Data.Start, false
TestParameter, AutoAnalysis.Line2.Point1.Data.StartVar, 
TestParameter, AutoAnalysis.Line2.Point1.Data.StartCondition, 
TestParameter, AutoAnalysis.Line2.Point2.Type, 0
TestParameter, AutoAnalysis.Line2.Point2.XY.X, 
TestParameter, AutoAnalysis.Line2.Point2.XY.Y, 
TestParameter, AutoAnalysis.Line2.Point2.Data.Var, 
TestParameter, AutoAnalysis.Line2.Point2.Data.Condition, 
TestParameter, AutoAnalysis.Line2.Point2.Data.Start, false
TestParameter, AutoAnalysis.Line2.Point2.Data.StartVar, 
TestParameter, AutoAnalysis.Line2.Point2.Data.StartCondition, 
TestParameter, AutoAnalysis.Line2.GradientExpr, 0
TestParameter, AutoAnalysis.Marker.Enabled, false
TestParameter, AutoAnalysis.Marker.Data.Var, 
TestParameter, AutoAnalysis.Marker.Data.Condition, 
TestParameter, AutoAnalysis.Marker.Data.Start, false
TestParameter, AutoAnalysis.Marker.Data.StartVar, 
TestParameter, AutoAnalysis.Marker.Data.StartCondition, 
MetaData, TestRecord.EntryPoint, true
MetaData, TestRecord.RecordTime, 03/10/2023 17:23:05
MetaData, TestRecord.TestTarget, 
MetaData, TestRecord.IterationIndex, 59
MetaData, TestRecord.Preservation, true
MetaData, TestRecord.Flag, 
MetaData, TestRecord.Remarks, 
MetaData, TestRecord.LinkKey, cf1cd67d-767f-4bb3-873e-b5632cc17b01
Dimension1, 402, 402, 402, 402, 402, 402, 402, 402
Dimension2, 1, 1, 1, 1, 1, 1, 1, 1
DataName, V1, V2, I1, I2, V3, I3, V4, I4
DataValue, -2, 0.25, -5.9E-12, 1.622E-11, , , , 
DataValue, -1.96, 0.25, -3.2E-12, 1.541E-11, , , , 
DataValue, -1.92, 0.25, -2.52E-12, 1.424E-11, , , , 
DataValue, -1.8800000000000001, 0.25, -1.5300000000000001E-12, 1.548E-11, , , , 
DataValue, -1.84, 0.25, -1.8900000000000002E-12, 1.6430000000000002E-11, , , , 
DataValue, -1.8, 0.25, -1.41E-12, 1.519E-11, , , , 
DataValue, -1.76, 0.25, -1.36E-12, 1.4920000000000002E-11, , , , 
DataValue, -1.72, 0.25, -2.01E-12, 1.5340000000000002E-11, , , , 
DataValue, -1.68, 0.25, -5E-13, 1.5870000000000002E-11, , , , 
DataValue, -1.6400000000000001, 0.25, -1.22E-12, 1.6140000000000002E-11, , , , 
DataValue, -1.6, 0.25, -8.300000000000001E-13, 1.4920000000000002E-11, , , , 
DataValue, -1.56, 0.25, -8.6000000000000007E-13, 1.393E-11, , , , 
DataValue, -1.52, 0.25, -1.1000000000000001E-13, 1.57E-11, , , , 
DataValue, -1.48, 0.25, -7.100000000000001E-13, 1.644E-11, , , , 
DataValue, -1.44, 0.25, -1.9000000000000002E-13, 1.537E-11, , , , 
DataValue, -1.4000000000000001, 0.25, 4.0000000000000006E-14, 1.4160000000000001E-11, , , , 
DataValue, -1.36, 0.25, -7.100000000000001E-13, 1.568E-11, , , , 
DataValue, -1.32, 0.25, 2.9000000000000003E-13, 1.5940000000000002E-11, , , , 
DataValue, -1.28, 0.25, -4.9E-13, 1.632E-11, , , , 
DataValue, -1.24, 0.25, 2.3000000000000003E-13, 1.432E-11, , , , 
DataValue, -1.2, 0.25, 2.0000000000000003E-14, 1.3980000000000001E-11, , , , 
DataValue, -1.16, 0.25, -2E-13, 1.533E-11, , , , 
DataValue, -1.12, 0.25, -1.1000000000000001E-13, 1.653E-11, , , , 
DataValue, -1.08, 0.25, 7.4000000000000008E-13, 1.595E-11, , , , 
DataValue, -1.04, 0.25, 7.2000000000000006E-13, 1.478E-11, , , , 
DataValue, -1, 0.25, -4.2000000000000003E-13, 1.4630000000000002E-11, , , , 
DataValue, -0.96, 0.25, 9.3E-13, 1.6200000000000003E-11, , , , 
DataValue, -0.92, 0.25, 1.4E-13, 1.604E-11, , , , 
DataValue, -0.88, 0.25, 8.8000000000000009E-13, 1.502E-11, , , , 
DataValue, -0.84, 0.25, 2.6E-13, 1.4160000000000001E-11, , , , 
DataValue, -0.8, 0.25, -1.2000000000000002E-13, 1.469E-11, , , , 
DataValue, -0.76, 0.25, 1.1000000000000002E-12, 1.6030000000000002E-11, , , , 
DataValue, -0.72, 0.25, -4.6000000000000006E-13, 1.6070000000000002E-11, , , , 
DataValue, -0.68, 0.25, 1.13E-12, 1.506E-11, , , , 
DataValue, -0.64, 0.25, 8.4000000000000006E-13, 1.341E-11, , , , 
DataValue, -0.6, 0.25, 4.6000000000000006E-13, 1.528E-11, , , , 
DataValue, -0.56, 0.25, 9.000000000000001E-13, 1.5980000000000003E-11, , , , 
DataValue, -0.52, 0.25, 7E-13, 1.506E-11, , , , 
DataValue, -0.48, 0.25, 1.0100000000000001E-12, 1.423E-11, , , , 
DataValue, -0.44, 0.25, 2.7E-13, 1.5050000000000002E-11, , , , 
DataValue, -0.4, 0.25, 8.4000000000000006E-13, 1.6140000000000002E-11, , , , 
DataValue, -0.36, 0.25, 6.0000000000000007E-13, 1.612E-11, , , , 
DataValue, -0.32, 0.25, 1.6E-12, 1.57E-11, , , , 
DataValue, -0.28, 0.25, 9.4E-13, 1.4170000000000001E-11, , , , 
DataValue, -0.24, 0.25, 3.7000000000000004E-13, 1.5760000000000002E-11, , , , 
DataValue, -0.2, 0.25, 1.5200000000000002E-12, 1.648E-11, , , , 
DataValue, -0.16, 0.25, 1.3300000000000002E-12, 1.675E-11, , , , 
DataValue, -0.12, 0.25, 1.4E-12, 1.595E-11, , , , 
DataValue, -0.08, 0.25, 8.6000000000000007E-13, 1.3980000000000001E-11, , , , 
DataValue, -0.04, 0.25, 5.1E-13, 1.526E-11, , , , 
DataValue, 0, 0.25, 1.07E-12, 1.573E-11, , , , 
DataValue, 0.04, 0.25, 7.100000000000001E-13, 1.5960000000000002E-11, , , , 
DataValue, 0.08, 0.25, 1.31E-12, 1.5360000000000002E-11, , , , 
DataValue, 0.12, 0.25, 6.1E-13, 1.4470000000000001E-11, , , , 
DataValue, 0.16, 0.25, 1.6200000000000002E-12, 1.5980000000000003E-11, , , , 
DataValue, 0.2, 0.25, 1.5800000000000001E-12, 1.701E-11, , , , 
DataValue, 0.24, 0.25, 1.7200000000000001E-12, 1.54E-11, , , , 
DataValue, 0.28, 0.25, 1.4300000000000002E-12, 1.3850000000000001E-11, , , , 
DataValue, 0.32, 0.25, 1.6200000000000002E-12, 1.519E-11, , , , 
DataValue, 0.36, 0.25, 1.5300000000000001E-12, 1.672E-11, , , , 
DataValue, 0.4, 0.25, 9.4E-13, 1.704E-11, , , , 
DataValue, 0.44, 0.25, 1.1100000000000001E-12, 1.6270000000000002E-11, , , , 
DataValue, 0.48, 0.25, 7.2000000000000006E-13, 1.529E-11, , , , 
DataValue, 0.52, 0.25, 6.6E-13, 1.6360000000000002E-11, , , , 
DataValue, 0.56, 0.25, 2.16E-12, 1.71E-11, , , , 
DataValue, 0.6, 0.25, 1.9200000000000003E-12, 1.692E-11, , , , 
DataValue, 0.64, 0.25, 2E-12, 1.5210000000000002E-11, , , , 
DataValue, 0.68, 0.25, 1.7500000000000002E-12, 1.4630000000000002E-11, , , , 
DataValue, 0.72, 0.25, 1.5800000000000001E-12, 1.635E-11, , , , 
DataValue, 0.76, 0.25, 1.3000000000000001E-12, 1.7160000000000002E-11, , , , 
DataValue, 0.8, 0.25, 1.45E-12, 1.668E-11, , , , 
DataValue, 0.84, 0.25, 2.01E-12, 1.548E-11, , , , 
DataValue, 0.88, 0.25, 1.1500000000000002E-12, 1.566E-11, , , , 
DataValue, 0.92, 0.25, 1.8700000000000003E-12, 1.7510000000000003E-11, , , , 
DataValue, 0.96, 0.25, 2.0700000000000003E-12, 1.794E-11, , , , 
DataValue, 1, 0.25, 2.39E-12, 1.702E-11, , , , 
DataValue, 1.04, 0.25, 2.1700000000000002E-12, 1.612E-11, , , , 
DataValue, 1.08, 0.25, 1.7000000000000002E-12, 1.653E-11, , , , 
DataValue, 1.12, 0.25, 2.09E-12, 1.814E-11, , , , 
DataValue, 1.16, 0.25, 1.14E-12, 1.83E-11, , , , 
DataValue, 1.2, 0.25, 2.6300000000000003E-12, 1.775E-11, , , , 
DataValue, 1.24, 0.25, 1.6200000000000002E-12, 1.661E-11, , , , 
DataValue, 1.28, 0.25, 1.4E-12, 1.801E-11, , , , 
DataValue, 1.32, 0.25, 2.0700000000000003E-12, 1.881E-11, , , , 
DataValue, 1.36, 0.25, 2.28E-12, 1.925E-11, , , , 
DataValue, 1.4000000000000001, 0.25, 2.6300000000000003E-12, 1.872E-11, , , , 
DataValue, 1.44, 0.25, 1.95E-12, 1.8930000000000003E-11, , , , 
DataValue, 1.48, 0.25, 2.51E-12, 2.1020000000000002E-11, , , , 
DataValue, 1.52, 0.25, 2.2500000000000003E-12, 2.227E-11, , , , 
DataValue, 1.56, 0.25, 2.51E-12, 2.2220000000000002E-11, , , , 
DataValue, 1.6, 0.25, 2.3500000000000003E-12, 2.2190000000000003E-11, , , , 
DataValue, 1.6400000000000001, 0.25, 2.19E-12, 2.3640000000000002E-11, , , , 
DataValue, 1.68, 0.25, 2.5000000000000003E-12, 2.6300000000000002E-11, , , , 
DataValue, 1.72, 0.25, 2.77E-12, 2.7850000000000003E-11, , , , 
DataValue, 1.76, 0.25, 3.23E-12, 2.7960000000000003E-11, , , , 
DataValue, 1.8, 0.25, 2.2700000000000002E-12, 2.8120000000000002E-11, , , , 
DataValue, 1.84, 0.25, 2.5000000000000003E-12, 3.3450000000000005E-11, , , , 
DataValue, 1.8800000000000001, 0.25, 2.62E-12, 3.645E-11, , , , 
DataValue, 1.92, 0.25, 2.4500000000000003E-12, 3.914E-11, , , , 
DataValue, 1.96, 0.25, 2.79E-12, 4.196E-11, , , , 
DataValue, 2, 0.25, 2.5300000000000003E-12, 4.6740000000000005E-11, , , , 
DataValue, 2.04, 0.25, 3.23E-12, 5.1510000000000005E-11, , , , 
DataValue, 2.08, 0.25, 2.9E-12, 5.7190000000000005E-11, , , , 
DataValue, 2.12, 0.25, 3.15E-12, 6.313E-11, , , , 
DataValue, 2.16, 0.25, 2.14E-12, 7.0430000000000009E-11, , , , 
DataValue, 2.2, 0.25, 2.79E-12, 8.164E-11, , , , 
DataValue, 2.24, 0.25, 3.43E-12, 9.38E-11, , , , 
DataValue, 2.2800000000000002, 0.25, 3.1600000000000003E-12, 1.0425E-10, , , , 
DataValue, 2.32, 0.25, 2.77E-12, 1.1845000000000002E-10, , , , 
DataValue, 2.36, 0.25, 3.5000000000000004E-12, 1.3694000000000002E-10, , , , 
DataValue, 2.4, 0.25, 3.9300000000000004E-12, 1.5886E-10, , , , 
DataValue, 2.44, 0.25, 2.9400000000000004E-12, 1.8416000000000001E-10, , , , 
DataValue, 2.48, 0.25, 3.76E-12, 2.1202E-10, , , , 
DataValue, 2.52, 0.25, 2.9400000000000004E-12, 2.4520000000000004E-10, , , , 
DataValue, 2.56, 0.25, 3.1600000000000003E-12, 2.8888000000000004E-10, , , , 
DataValue, 2.6, 0.25, 3.6800000000000005E-12, 3.3863000000000005E-10, , , , 
DataValue, 2.64, 0.25, 3.72E-12, 3.9487000000000005E-10, , , , 
DataValue, 2.68, 0.25, 3.3900000000000003E-12, 4.6383000000000004E-10, , , , 
DataValue, 2.72, 0.25, 3.6000000000000004E-12, 5.4569E-10, , , , 
DataValue, 2.7600000000000002, 0.25, 3.4000000000000005E-12, 6.4418E-10, , , , 
DataValue, 2.8000000000000003, 0.25, 4.37E-12, 7.6075000000000009E-10, , , , 
DataValue, 2.84, 0.25, 3.87E-12, 8.9907000000000008E-10, , , , 
DataValue, 2.88, 0.25, 4.6500000000000006E-12, 1.06802E-09, , , , 
DataValue, 2.92, 0.25, 3.5400000000000003E-12, 1.463E-09, , , , 
DataValue, 2.96, 0.25, 4.36E-12, 1.729E-09, , , , 
DataValue, 3, 0.25, 3.8400000000000006E-12, 2.0523E-09, , , , 
DataValue, 3.04, 0.25, 4.17E-12, 2.4432E-09, , , , 
DataValue, 3.08, 0.25, 4.42E-12, 2.9175E-09, , , , 
DataValue, 3.12, 0.25, 4.38E-12, 3.4953E-09, , , , 
DataValue, 3.16, 0.25, 4.27E-12, 4.2018E-09, , , , 
DataValue, 3.2, 0.25, 4.57E-12, 5.0389E-09, , , , 
DataValue, 3.24, 0.25, 4.12E-12, 6.0632E-09, , , , 
DataValue, 3.2800000000000002, 0.25, 4.0400000000000006E-12, 7.3505E-09, , , , 
DataValue, 3.3200000000000003, 0.25, 3.7300000000000005E-12, 8.9394E-09, , , , 
DataValue, 3.36, 0.25, 4.3900000000000005E-12, 1.0877E-08, , , , 
DataValue, 3.4, 0.25, 4.26E-12, 1.38566E-08, , , , 
DataValue, 3.44, 0.25, 4.8600000000000007E-12, 1.71152E-08, , , , 
DataValue, 3.48, 0.25, 4.42E-12, 2.1164999999999998E-08, , , , 
DataValue, 3.52, 0.25, 4.79E-12, 2.6203799999999997E-08, , , , 
DataValue, 3.56, 0.25, 5.38E-12, 3.24874E-08, , , , 
DataValue, 3.6, 0.25, 5.03E-12, 4.0267E-08, , , , 
DataValue, 3.64, 0.25, 4.93E-12, 4.9922799999999992E-08, , , , 
DataValue, 3.68, 0.25, 4.68E-12, 6.18024E-08, , , , 
DataValue, 3.72, 0.25, 5.08E-12, 7.66626E-08, , , , 
DataValue, 3.7600000000000002, 0.25, 4.4400000000000005E-12, 9.4959999999999985E-08, , , , 
DataValue, 3.8000000000000003, 0.25, 4.3900000000000005E-12, 1.245E-07, , , , 
DataValue, 3.84, 0.25, 5.08E-12, 1.5022E-07, , , , 
DataValue, 3.88, 0.25, 5.19E-12, 1.8098E-07, , , , 
DataValue, 3.92, 0.25, 5.33E-12, 2.1816E-07, , , , 
DataValue, 3.96, 0.25, 5.44E-12, 2.6276E-07, , , , 
DataValue, 4, 0.25, 5.4100000000000006E-12, 3.1498E-07, , , , 
DataValue, 4.04, 0.25, 5.5E-12, 3.768E-07, , , , 
DataValue, 4.08, 0.25, 5.23E-12, 4.4993999999999996E-07, , , , 
DataValue, 4.12, 0.25, 5.9800000000000008E-12, 5.3815999999999994E-07, , , , 
DataValue, 4.16, 0.25, 5.7200000000000007E-12, 6.411E-07, , , , 
DataValue, 4.2, 0.25, 6.31E-12, 7.6228E-07, , , , 
DataValue, 4.24, 0.25, 5.8700000000000006E-12, 9.0292E-07, , , , 
DataValue, 4.28, 0.25, 5.79E-12, 1.06414E-06, , , , 
DataValue, 4.32, 0.25, 6.5900000000000008E-12, 1.45E-06, , , , 
DataValue, 4.36, 0.25, 5.8800000000000008E-12, 1.6719000000000003E-06, , , , 
DataValue, 4.4, 0.25, 6.4700000000000005E-12, 1.9224E-06, , , , 
DataValue, 4.44, 0.25, 5.79E-12, 2.2041E-06, , , , 
DataValue, 4.48, 0.25, 6.2400000000000009E-12, 2.5206E-06, , , , 
DataValue, 4.5200000000000005, 0.25, 7.0900000000000007E-12, 2.8708E-06, , , , 
DataValue, 4.5600000000000005, 0.25, 6.9300000000000006E-12, 3.2548E-06, , , , 
DataValue, 4.6000000000000005, 0.25, 7.33E-12, 3.6841000000000004E-06, , , , 
DataValue, 4.64, 0.25, 7.0000000000000009E-12, 4.1525000000000005E-06, , , , 
DataValue, 4.68, 0.25, 6.2200000000000006E-12, 4.6595000000000009E-06, , , , 
DataValue, 4.72, 0.25, 6.8900000000000007E-12, 5.2127000000000009E-06, , , , 
DataValue, 4.76, 0.25, 6.7400000000000008E-12, 5.8035000000000004E-06, , , , 
DataValue, 4.8, 0.25, 7.0900000000000007E-12, 6.4451E-06, , , , 
DataValue, 4.84, 0.25, 7.2300000000000005E-12, 7.1295000000000009E-06, , , , 
DataValue, 4.88, 0.25, 7.17E-12, 7.8598E-06, , , , 
DataValue, 4.92, 0.25, 6.71E-12, 8.6352000000000016E-06, , , , 
DataValue, 4.96, 0.25, 8.380000000000001E-12, 9.4418000000000017E-06, , , , 
DataValue, 5, 0.25, 7.41E-12, 1.0299E-05, , , , 
DataValue, 5.04, 0.25, 8.1700000000000009E-12, 1.1229500000000002E-05, , , , 
DataValue, 5.08, 0.25, 7.39E-12, 1.2784E-05, , , , 
DataValue, 5.12, 0.25, 7.73E-12, 1.3764E-05, , , , 
DataValue, 5.16, 0.25, 7.53E-12, 1.4784000000000001E-05, , , , 
DataValue, 5.2, 0.25, 8.03E-12, 1.5854E-05, , , , 
DataValue, 5.24, 0.25, 8.7900000000000011E-12, 1.6966E-05, , , , 
DataValue, 5.28, 0.25, 8.55E-12, 1.8112000000000002E-05, , , , 
DataValue, 5.32, 0.25, 8.680000000000001E-12, 1.9294000000000002E-05, , , , 
DataValue, 5.36, 0.25, 8.53E-12, 2.0528E-05, , , , 
DataValue, 5.4, 0.25, 8.65E-12, 2.179E-05, , , , 
DataValue, 5.44, 0.25, 8.8800000000000009E-12, 2.3088E-05, , , , 
DataValue, 5.48, 0.25, 9.5100000000000013E-12, 2.4472000000000002E-05, , , , 
DataValue, 5.5200000000000005, 0.25, 8.94E-12, 2.5836E-05, , , , 
DataValue, 5.5600000000000005, 0.25, 8.3900000000000012E-12, 2.7228E-05, , , , 
DataValue, 5.6000000000000005, 0.25, 9.5100000000000013E-12, 2.8652E-05, , , , 
DataValue, 5.64, 0.25, 8.87E-12, 3.0104000000000002E-05, , , , 
DataValue, 5.68, 0.25, 9.36E-12, 3.1578E-05, , , , 
DataValue, 5.72, 0.25, 9.490000000000001E-12, 3.3086E-05, , , , 
DataValue, 5.76, 0.25, 8.94E-12, 3.4612E-05, , , , 
DataValue, 5.8, 0.25, 8.82E-12, 3.618E-05, , , , 
DataValue, 5.84, 0.25, 9.7900000000000009E-12, 3.7758E-05, , , , 
DataValue, 5.88, 0.25, 9.9300000000000015E-12, 3.9352E-05, , , , 
DataValue, 5.92, 0.25, 9.2200000000000015E-12, 4.097E-05, , , , 
DataValue, 5.96, 0.25, 9.8900000000000009E-12, 4.2598E-05, , , , 
DataValue, 6, 0.25, 1.004E-11, 4.4214E-05, , , , 
DataValue, 6, 0.25, 9.5100000000000013E-12, 4.4502E-05, , , , 
DataValue, 5.96, 0.25, 8.9000000000000013E-12, 4.5864E-05, , , , 
DataValue, 5.92, 0.25, 8.36E-12, 4.7068000000000004E-05, , , , 
DataValue, 5.88, 0.25, 6.97E-12, 4.8122000000000004E-05, , , , 
DataValue, 5.84, 0.25, 7.44E-12, 4.9046000000000004E-05, , , , 
DataValue, 5.8, 0.25, 7.01E-12, 4.9834000000000004E-05, , , , 
DataValue, 5.76, 0.25, 6.3800000000000007E-12, 5.0546E-05, , , , 
DataValue, 5.72, 0.25, 4.8500000000000005E-12, 5.1160000000000005E-05, , , , 
DataValue, 5.68, 0.25, 5.9E-12, 5.1684E-05, , , , 
DataValue, 5.64, 0.25, 5.14E-12, 5.2122E-05, , , , 
