
SetupTitle, ID-VG Postbreak
PrimitiveTest, I/V Sweep
TestParameter, Context.MainFrame, B1500A
TestParameter, Channel.UnitType, SMU, SMU
TestParameter, Channel.Unit, SMU1:MP, SMU2:MP
TestParameter, Channel.IName, I1, I2
TestParameter, Channel.VName, V1, V2
TestParameter, Channel.Mode, V, V
TestParameter, Channel.Func, VAR1, CONST
TestParameter, Channel.Index, 
TestParameter, Channel.Time, 
TestParameter, Measurement.Port.Unit, SMU1:MP, SMU2:MP
TestParameter, Measurement.Port.SeriesResistor, NONE, NONE
TestParameter, Measurement.Port.Filter, ON, ON
TestParameter, Measurement.Port.OutputVoltageComparison, 0, 0
TestParameter, Measurement.Primary.Locus, Double
TestParameter, Measurement.Primary.Scale, LINEAR
TestParameter, Measurement.Primary.Start, -2
TestParameter, Measurement.Primary.Stop, 6
TestParameter, Measurement.Primary.Step, 0.04
TestParameter, Measurement.Primary.Compliance, 0.1
TestParameter, Measurement.Primary.PowerCompliance, 0
TestParameter, Measurement.Aborting.Condition, CONTINUE AT ANY
TestParameter, Measurement.PostOutput.Value, START
TestParameter, Measurement.PostOutput.Retention, OFF
TestParameter, Measurement.Bias.Source, -2, 0.25
TestParameter, Measurement.Bias.Compliance, 0.1, 0.1
TestParameter, Measurement.Monitor.Unit, SMU1:MP, SMU2:MP
TestParameter, Measurement.Monitor.Adc, HR ADC, HR ADC
TestParameter, Measurement.Monitor.Measurement, Compliance Side, Compliance Side
TestParameter, Measurement.Monitor.RangingMode, LIMITED, LIMITED
TestParameter, Measurement.Monitor.RangeBoundary, 1nA, 1nA
TestParameter, Measurement.Monitor.RangeRating, BY FULL RANGE, BY FULL RANGE
TestParameter, Measurement.Monitor.RangeRatingCoeff, 50, 50
TestParameter, Measurement.Timing.Hold, 0
TestParameter, Measurement.Timing.Delay, 0
TestParameter, Measurement.Adc.HighSpeed.Mode, AUTO
TestParameter, Measurement.Adc.HighSpeed.Coeff, 1
TestParameter, Measurement.Adc.HighResolution.AutoZero, OFF
TestParameter, Measurement.Adc.HighResolution.Mode, AUTO
TestParameter, Measurement.Adc.HighResolution.Coeff, 6
TestParameter, Measurement.WaitTime.Source.Coeff, 1
TestParameter, Measurement.WaitTime.Source.Offset, 0
TestParameter, Measurement.WaitTime.Monitor.Coeff, 1
TestParameter, Measurement.WaitTime.Monitor.Offset, 0
TestParameter, Output.Graph.Enabled, true
TestParameter, Output.Graph.AutoScaling, false
TestParameter, Output.Graph.XAxis.Data, V1
TestParameter, Output.Graph.XAxis.Scale, Linear
TestParameter, Output.Graph.XAxis.Left, -2
TestParameter, Output.Graph.XAxis.Right, 6
TestParameter, Output.Graph.XAxis.RunTimeAutoScale, true
TestParameter, Output.Graph.YAxis.Data, I2
TestParameter, Output.Graph.YAxis.Scale, Linear
TestParameter, Output.Graph.YAxis.Bottom, -0.1
TestParameter, Output.Graph.YAxis.Top, 0.1
TestParameter, Output.Graph.YAxis.Group, 
TestParameter, Output.Graph.YAxis.RunTimeAutoScale, true
TestParameter, Output.List.Data, V1, I1, V2, I2, V3, I3, V4, I4
TestParameter, AutoAnalysis.Interpolation, false
TestParameter, AutoAnalysis.Line1.Enabled, false
TestParameter, AutoAnalysis.Line1.Type, 1
TestParameter, AutoAnalysis.Line1.Fix, True
TestParameter, AutoAnalysis.Line1.YAxis, 0
TestParameter, AutoAnalysis.Line1.Point1.Type, 0
TestParameter, AutoAnalysis.Line1.Point1.XY.X, 
TestParameter, AutoAnalysis.Line1.Point1.XY.Y, 
TestParameter, AutoAnalysis.Line1.Point1.Data.Var, 
TestParameter, AutoAnalysis.Line1.Point1.Data.Condition, 
TestParameter, AutoAnalysis.Line1.Point1.Data.Start, false
TestParameter, AutoAnalysis.Line1.Point1.Data.StartVar, 
TestParameter, AutoAnalysis.Line1.Point1.Data.StartCondition, 
TestParameter, AutoAnalysis.Line1.Point2.Type, 0
TestParameter, AutoAnalysis.Line1.Point2.XY.X, 
TestParameter, AutoAnalysis.Line1.Point2.XY.Y, 
TestParameter, AutoAnalysis.Line1.Point2.Data.Var, 
TestParameter, AutoAnalysis.Line1.Point2.Data.Condition, 
TestParameter, AutoAnalysis.Line1.Point2.Data.Start, false
TestParameter, AutoAnalysis.Line1.Point2.Data.StartVar, 
TestParameter, AutoAnalysis.Line1.Point2.Data.StartCondition, 
TestParameter, AutoAnalysis.Line1.GradientExpr, 0
TestParameter, AutoAnalysis.Line2.Enabled, false
TestParameter, AutoAnalysis.Line2.Type, 1
TestParameter, AutoAnalysis.Line2.Fix, True
TestParameter, AutoAnalysis.Line2.YAxis, 0
TestParameter, AutoAnalysis.Line2.Point1.Type, 0
TestParameter, AutoAnalysis.Line2.Point1.XY.X, 
TestParameter, AutoAnalysis.Line2.Point1.XY.Y, 
TestParameter, AutoAnalysis.Line2.Point1.Data.Var, 
TestParameter, AutoAnalysis.Line2.Point1.Data.Condition, 
TestParameter, AutoAnalysis.Line2.Point1.Data.Start, false
TestParameter, AutoAnalysis.Line2.Point1.Data.StartVar, 
TestParameter, AutoAnalysis.Line2.Point1.Data.StartCondition, 
TestParameter, AutoAnalysis.Line2.Point2.Type, 0
TestParameter, AutoAnalysis.Line2.Point2.XY.X, 
TestParameter, AutoAnalysis.Line2.Point2.XY.Y, 
TestParameter, AutoAnalysis.Line2.Point2.Data.Var, 
TestParameter, AutoAnalysis.Line2.Point2.Data.Condition, 
TestParameter, AutoAnalysis.Line2.Point2.Data.Start, false
TestParameter, AutoAnalysis.Line2.Point2.Data.StartVar, 
TestParameter, AutoAnalysis.Line2.Point2.Data.StartCondition, 
TestParameter, AutoAnalysis.Line2.GradientExpr, 0
TestParameter, AutoAnalysis.Marker.Enabled, false
TestParameter, AutoAnalysis.Marker.Data.Var, 
TestParameter, AutoAnalysis.Marker.Data.Condition, 
TestParameter, AutoAnalysis.Marker.Data.Start, false
TestParameter, AutoAnalysis.Marker.Data.StartVar, 
TestParameter, AutoAnalysis.Marker.Data.StartCondition, 
MetaData, TestRecord.EntryPoint, true
MetaData, TestRecord.RecordTime, 03/10/2023 17:21:21
MetaData, TestRecord.TestTarget, 
MetaData, TestRecord.IterationIndex, 57
MetaData, TestRecord.Preservation, true
MetaData, TestRecord.Flag, 
MetaData, TestRecord.Remarks, 
MetaData, TestRecord.LinkKey, f732f891-4f42-43e4-a7ff-fb85b3e043e5
Dimension1, 402, 402, 402, 402, 402, 402, 402, 402
Dimension2, 1, 1, 1, 1, 1, 1, 1, 1
DataName, V1, V2, I1, I2, V3, I3, V4, I4
DataValue, -2, 0.25, -1.2850000000000001E-11, 1.3460000000000001E-11, , , , 
DataValue, -1.96, 0.25, -6.71E-12, 1.3480000000000002E-11, , , , 
DataValue, -1.92, 0.25, -5.54E-12, 1.3350000000000001E-11, , , , 
DataValue, -1.8800000000000001, 0.25, -4.7600000000000007E-12, 1.466E-11, , , , 
DataValue, -1.84, 0.25, -3.5400000000000003E-12, 1.4720000000000002E-11, , , , 
DataValue, -1.8, 0.25, -3.1600000000000003E-12, 1.3340000000000001E-11, , , , 
DataValue, -1.76, 0.25, -3.3E-12, 1.2340000000000001E-11, , , , 
DataValue, -1.72, 0.25, -3.3100000000000002E-12, 1.3540000000000001E-11, , , , 
DataValue, -1.68, 0.25, -2.0500000000000004E-12, 1.4830000000000002E-11, , , , 
DataValue, -1.6400000000000001, 0.25, -2.16E-12, 1.3070000000000002E-11, , , , 
DataValue, -1.6, 0.25, -1.4700000000000002E-12, 1.2870000000000002E-11, , , , 
DataValue, -1.56, 0.25, -1.0600000000000001E-12, 1.2870000000000002E-11, , , , 
DataValue, -1.52, 0.25, -8.5000000000000011E-13, 1.4080000000000001E-11, , , , 
DataValue, -1.48, 0.25, -3.0000000000000003E-13, 1.5E-11, , , , 
DataValue, -1.44, 0.25, -7.6000000000000009E-13, 1.3090000000000002E-11, , , , 
DataValue, -1.4000000000000001, 0.25, -4.8000000000000008E-13, 1.24E-11, , , , 
DataValue, -1.36, 0.25, -4.9E-13, 1.34E-11, , , , 
DataValue, -1.32, 0.25, 7E-14, 1.5120000000000002E-11, , , , 
DataValue, -1.28, 0.25, 4.8000000000000008E-13, 1.341E-11, , , , 
DataValue, -1.24, 0.25, 6.2000000000000008E-13, 1.291E-11, , , , 
DataValue, -1.2, 0.25, 4.2000000000000003E-13, 1.2370000000000002E-11, , , , 
DataValue, -1.16, 0.25, 1.3E-13, 1.3600000000000002E-11, , , , 
DataValue, -1.12, 0.25, 4.3000000000000004E-13, 1.509E-11, , , , 
DataValue, -1.08, 0.25, 2.8E-13, 1.4050000000000001E-11, , , , 
DataValue, -1.04, 0.25, 1.0500000000000002E-12, 1.282E-11, , , , 
DataValue, -1, 0.25, 6.5000000000000006E-13, 1.2870000000000002E-11, , , , 
DataValue, -0.96, 0.25, 2.4000000000000004E-13, 1.4370000000000001E-11, , , , 
DataValue, -0.92, 0.25, 1.5800000000000001E-12, 1.529E-11, , , , 
DataValue, -0.88, 0.25, 8.300000000000001E-13, 1.342E-11, , , , 
DataValue, -0.84, 0.25, 1.7500000000000002E-12, 1.2140000000000001E-11, , , , 
DataValue, -0.8, 0.25, 6.400000000000001E-13, 1.31E-11, , , , 
DataValue, -0.76, 0.25, 1.9900000000000002E-12, 1.3870000000000001E-11, , , , 
DataValue, -0.72, 0.25, 1.36E-12, 1.433E-11, , , , 
DataValue, -0.68, 0.25, 1.83E-12, 1.3350000000000001E-11, , , , 
DataValue, -0.64, 0.25, 1.4300000000000002E-12, 1.259E-11, , , , 
DataValue, -0.6, 0.25, 1.3500000000000001E-12, 1.3550000000000001E-11, , , , 
DataValue, -0.56, 0.25, 2.26E-12, 1.4670000000000003E-11, , , , 
DataValue, -0.52, 0.25, 1.59E-12, 1.3180000000000002E-11, , , , 
DataValue, -0.48, 0.25, 1.5800000000000001E-12, 1.2240000000000001E-11, , , , 
DataValue, -0.44, 0.25, 9.7000000000000011E-13, 1.2640000000000001E-11, , , , 
DataValue, -0.4, 0.25, 2.3200000000000002E-12, 1.524E-11, , , , 
DataValue, -0.36, 0.25, 2E-12, 1.5140000000000002E-11, , , , 
DataValue, -0.32, 0.25, 2.44E-12, 1.3270000000000001E-11, , , , 
DataValue, -0.28, 0.25, 2.4800000000000003E-12, 1.272E-11, , , , 
DataValue, -0.24, 0.25, 1.78E-12, 1.3760000000000001E-11, , , , 
DataValue, -0.2, 0.25, 2.2000000000000003E-12, 1.499E-11, , , , 
DataValue, -0.16, 0.25, 2.37E-12, 1.3900000000000002E-11, , , , 
DataValue, -0.12, 0.25, 2.11E-12, 1.2260000000000002E-11, , , , 
DataValue, -0.08, 0.25, 2.21E-12, 1.241E-11, , , , 
DataValue, -0.04, 0.25, 2.1200000000000003E-12, 1.361E-11, , , , 
DataValue, 0, 0.25, 2.8800000000000002E-12, 1.4920000000000002E-11, , , , 
DataValue, 0.04, 0.25, 2.2500000000000003E-12, 1.413E-11, , , , 
DataValue, 0.08, 0.25, 2.7800000000000003E-12, 1.391E-11, , , , 
DataValue, 0.12, 0.25, 2.9100000000000003E-12, 1.2130000000000001E-11, , , , 
DataValue, 0.16, 0.25, 2.5500000000000002E-12, 1.422E-11, , , , 
DataValue, 0.2, 0.25, 3.2700000000000004E-12, 1.535E-11, , , , 
DataValue, 0.24, 0.25, 2.64E-12, 1.4180000000000001E-11, , , , 
DataValue, 0.28, 0.25, 2.9600000000000003E-12, 1.3090000000000002E-11, , , , 
DataValue, 0.32, 0.25, 3.0400000000000004E-12, 1.3030000000000001E-11, , , , 
DataValue, 0.36, 0.25, 2.5600000000000004E-12, 1.5160000000000002E-11, , , , 
DataValue, 0.4, 0.25, 3.4900000000000003E-12, 1.524E-11, , , , 
DataValue, 0.44, 0.25, 3.4200000000000004E-12, 1.3790000000000002E-11, , , , 
DataValue, 0.48, 0.25, 3.23E-12, 1.2160000000000002E-11, , , , 
DataValue, 0.52, 0.25, 2.77E-12, 1.47E-11, , , , 
DataValue, 0.56, 0.25, 3.53E-12, 1.5270000000000003E-11, , , , 
DataValue, 0.6, 0.25, 2.8800000000000002E-12, 1.3160000000000001E-11, , , , 
DataValue, 0.64, 0.25, 3.5900000000000003E-12, 1.3070000000000002E-11, , , , 
DataValue, 0.68, 0.25, 2.5600000000000004E-12, 1.239E-11, , , , 
DataValue, 0.72, 0.25, 3.35E-12, 1.469E-11, , , , 
DataValue, 0.76, 0.25, 3.4100000000000002E-12, 1.548E-11, , , , 
DataValue, 0.8, 0.25, 2.6600000000000004E-12, 1.4200000000000002E-11, , , , 
DataValue, 0.84, 0.25, 3.8400000000000006E-12, 1.412E-11, , , , 
DataValue, 0.88, 0.25, 2.8600000000000003E-12, 1.382E-11, , , , 
DataValue, 0.92, 0.25, 3.8400000000000006E-12, 1.52E-11, , , , 
DataValue, 0.96, 0.25, 4E-12, 1.519E-11, , , , 
DataValue, 1, 0.25, 4.22E-12, 1.432E-11, , , , 
DataValue, 1.04, 0.25, 4.28E-12, 1.219E-11, , , , 
DataValue, 1.08, 0.25, 3.4900000000000003E-12, 1.4200000000000002E-11, , , , 
DataValue, 1.12, 0.25, 4.78E-12, 1.539E-11, , , , 
DataValue, 1.16, 0.25, 3.71E-12, 1.459E-11, , , , 
DataValue, 1.2, 0.25, 3.67E-12, 1.332E-11, , , , 
DataValue, 1.24, 0.25, 3.81E-12, 1.269E-11, , , , 
DataValue, 1.28, 0.25, 3.9300000000000004E-12, 1.471E-11, , , , 
DataValue, 1.32, 0.25, 4.73E-12, 1.564E-11, , , , 
DataValue, 1.36, 0.25, 4.6100000000000008E-12, 1.4630000000000002E-11, , , , 
DataValue, 1.4000000000000001, 0.25, 4.88E-12, 1.3690000000000002E-11, , , , 
DataValue, 1.44, 0.25, 3.8300000000000004E-12, 1.3580000000000002E-11, , , , 
DataValue, 1.48, 0.25, 5.38E-12, 1.5120000000000002E-11, , , , 
DataValue, 1.52, 0.25, 4.48E-12, 1.4870000000000003E-11, , , , 
DataValue, 1.56, 0.25, 5.23E-12, 1.4470000000000001E-11, , , , 
DataValue, 1.6, 0.25, 4.48E-12, 1.2990000000000002E-11, , , , 
DataValue, 1.6400000000000001, 0.25, 4.68E-12, 1.537E-11, , , , 
DataValue, 1.68, 0.25, 5.3200000000000008E-12, 1.5760000000000002E-11, , , , 
DataValue, 1.72, 0.25, 5.4600000000000006E-12, 1.4370000000000001E-11, , , , 
DataValue, 1.76, 0.25, 5.4000000000000004E-12, 1.46E-11, , , , 
DataValue, 1.8, 0.25, 5.5700000000000007E-12, 1.3870000000000001E-11, , , , 
DataValue, 1.84, 0.25, 5.8800000000000008E-12, 1.5850000000000002E-11, , , , 
DataValue, 1.8800000000000001, 0.25, 5.28E-12, 1.6160000000000002E-11, , , , 
DataValue, 1.92, 0.25, 6.36E-12, 1.537E-11, , , , 
DataValue, 1.96, 0.25, 6.1200000000000006E-12, 1.392E-11, , , , 
DataValue, 2, 0.25, 6.04E-12, 1.582E-11, , , , 
DataValue, 2.04, 0.25, 6.7300000000000006E-12, 1.6690000000000003E-11, , , , 
DataValue, 2.08, 0.25, 6.6200000000000005E-12, 1.8400000000000002E-11, , , , 
DataValue, 2.12, 0.25, 6.56E-12, 1.6430000000000002E-11, , , , 
DataValue, 2.16, 0.25, 7.1400000000000007E-12, 1.595E-11, , , , 
DataValue, 2.2, 0.25, 6.6E-12, 1.8130000000000003E-11, , , , 
DataValue, 2.24, 0.25, 7.5800000000000012E-12, 1.916E-11, , , , 
DataValue, 2.2800000000000002, 0.25, 6.6900000000000008E-12, 2.016E-11, , , , 
DataValue, 2.32, 0.25, 7.83E-12, 2.0040000000000003E-11, , , , 
DataValue, 2.36, 0.25, 7.1500000000000008E-12, 2.103E-11, , , , 
DataValue, 2.4, 0.25, 7.7800000000000012E-12, 2.36E-11, , , , 
DataValue, 2.44, 0.25, 8.24E-12, 2.7300000000000002E-11, , , , 
DataValue, 2.48, 0.25, 8.04E-12, 2.788E-11, , , , 
DataValue, 2.52, 0.25, 7.84E-12, 2.983E-11, , , , 
DataValue, 2.56, 0.25, 8.11E-12, 3.419E-11, , , , 
DataValue, 2.6, 0.25, 8.76E-12, 3.923E-11, , , , 
DataValue, 2.64, 0.25, 9.07E-12, 4.4270000000000006E-11, , , , 
DataValue, 2.68, 0.25, 8.6900000000000011E-12, 4.8790000000000007E-11, , , , 
DataValue, 2.72, 0.25, 7.7900000000000013E-12, 5.441E-11, , , , 
DataValue, 2.7600000000000002, 0.25, 9.6200000000000014E-12, 6.4420000000000009E-11, , , , 
DataValue, 2.8000000000000003, 0.25, 9.3800000000000008E-12, 7.5670000000000009E-11, , , , 
DataValue, 2.84, 0.25, 9.900000000000001E-12, 8.6620000000000007E-11, , , , 
DataValue, 2.88, 0.25, 9.5900000000000009E-12, 9.9880000000000008E-11, , , , 
DataValue, 2.92, 0.25, 8.94E-12, 1.1827000000000002E-10, , , , 
DataValue, 2.96, 0.25, 9.85E-12, 1.4016E-10, , , , 
DataValue, 3, 0.25, 1.0020000000000001E-11, 1.6424000000000002E-10, , , , 
DataValue, 3.04, 0.25, 1.036E-11, 1.9386000000000002E-10, , , , 
DataValue, 3.08, 0.25, 9.24E-12, 2.3062000000000003E-10, , , , 
DataValue, 3.12, 0.25, 1.0500000000000001E-11, 2.7714000000000004E-10, , , , 
DataValue, 3.16, 0.25, 1.038E-11, 3.321E-10, , , , 
DataValue, 3.2, 0.25, 1.0710000000000001E-11, 3.9705000000000004E-10, , , , 
DataValue, 3.24, 0.25, 1.106E-11, 4.7876E-10, , , , 
DataValue, 3.2800000000000002, 0.25, 1.0340000000000002E-11, 5.7564000000000009E-10, , , , 
DataValue, 3.3200000000000003, 0.25, 1.158E-11, 6.9773E-10, , , , 
DataValue, 3.36, 0.25, 1.1760000000000002E-11, 8.4799000000000009E-10, , , , 
DataValue, 3.4, 0.25, 1.171E-11, 1.03203E-09, , , , 
DataValue, 3.44, 0.25, 1.099E-11, 1.5208E-09, , , , 
DataValue, 3.48, 0.25, 1.065E-11, 1.8419E-09, , , , 
DataValue, 3.52, 0.25, 1.17E-11, 2.2414E-09, , , , 
DataValue, 3.56, 0.25, 1.199E-11, 2.735E-09, , , , 
DataValue, 3.6, 0.25, 1.2480000000000002E-11, 3.3512E-09, , , , 
DataValue, 3.64, 0.25, 1.261E-11, 4.1135E-09, , , , 
DataValue, 3.68, 0.25, 1.2440000000000001E-11, 5.0661E-09, , , , 
DataValue, 3.72, 0.25, 1.2880000000000002E-11, 6.2974E-09, , , , 
DataValue, 3.7600000000000002, 0.25, 1.2940000000000001E-11, 7.7874E-09, , , , 
DataValue, 3.8000000000000003, 0.25, 1.2880000000000002E-11, 9.6548E-09, , , , 
DataValue, 3.84, 0.25, 1.342E-11, 1.3665799999999999E-08, , , , 
DataValue, 3.88, 0.25, 1.302E-11, 1.7041199999999998E-08, , , , 
DataValue, 3.92, 0.25, 1.3670000000000001E-11, 2.1198399999999997E-08, , , , 
DataValue, 3.96, 0.25, 1.413E-11, 2.65006E-08, , , , 
DataValue, 4, 0.25, 1.4180000000000001E-11, 3.30524E-08, , , , 
DataValue, 4.04, 0.25, 1.3880000000000001E-11, 4.1164E-08, , , , 
DataValue, 4.08, 0.25, 1.444E-11, 5.1105599999999993E-08, , , , 
DataValue, 4.12, 0.25, 1.557E-11, 6.32358E-08, , , , 
DataValue, 4.16, 0.25, 1.5120000000000002E-11, 7.7956999999999988E-08, , , , 
DataValue, 4.2, 0.25, 1.544E-11, 9.57412E-08, , , , 
DataValue, 4.24, 0.25, 1.544E-11, 1.2386E-07, , , , 
DataValue, 4.28, 0.25, 1.488E-11, 1.4716E-07, , , , 
DataValue, 4.32, 0.25, 1.641E-11, 1.7447999999999999E-07, , , , 
DataValue, 4.36, 0.25, 1.6090000000000003E-11, 2.0616E-07, , , , 
DataValue, 4.4, 0.25, 1.597E-11, 2.4276E-07, , , , 
DataValue, 4.44, 0.25, 1.7250000000000002E-11, 2.8476E-07, , , , 
DataValue, 4.48, 0.25, 1.7090000000000003E-11, 3.3292E-07, , , , 
DataValue, 4.5200000000000005, 0.25, 1.784E-11, 3.8764E-07, , , , 
DataValue, 4.5600000000000005, 0.25, 1.7140000000000002E-11, 4.4944E-07, , , , 
DataValue, 4.6000000000000005, 0.25, 1.7800000000000003E-11, 5.1928E-07, , , , 
DataValue, 4.64, 0.25, 1.797E-11, 5.9738E-07, , , , 
DataValue, 4.68, 0.25, 1.8840000000000003E-11, 6.8406E-07, , , , 
DataValue, 4.72, 0.25, 1.9440000000000003E-11, 7.808E-07, , , , 
DataValue, 4.76, 0.25, 1.9200000000000002E-11, 8.8726E-07, , , , 
DataValue, 4.8, 0.25, 1.8490000000000002E-11, 1.00402E-06, , , , 
DataValue, 4.84, 0.25, 1.9930000000000003E-11, 1.13156E-06, , , , 
DataValue, 4.88, 0.25, 2.0490000000000002E-11, 1.3970000000000001E-06, , , , 
DataValue, 4.92, 0.25, 1.9910000000000002E-11, 1.5497000000000002E-06, , , , 
DataValue, 4.96, 0.25, 2.0020000000000002E-11, 1.7143000000000003E-06, , , , 
DataValue, 5, 0.25, 2.065E-11, 1.8903000000000001E-06, , , , 
DataValue, 5.04, 0.25, 2.065E-11, 2.0769000000000004E-06, , , , 
DataValue, 5.08, 0.25, 2.2020000000000002E-11, 2.2758000000000003E-06, , , , 
DataValue, 5.12, 0.25, 2.149E-11, 2.4859E-06, , , , 
DataValue, 5.16, 0.25, 2.2590000000000003E-11, 2.7067000000000003E-06, , , , 
DataValue, 5.2, 0.25, 2.2770000000000003E-11, 2.9396E-06, , , , 
DataValue, 5.24, 0.25, 2.258E-11, 3.1837E-06, , , , 
DataValue, 5.28, 0.25, 2.3330000000000002E-11, 3.4388000000000004E-06, , , , 
DataValue, 5.32, 0.25, 2.3520000000000003E-11, 3.7044000000000005E-06, , , , 
DataValue, 5.36, 0.25, 2.347E-11, 3.9817E-06, , , , 
DataValue, 5.4, 0.25, 2.5210000000000003E-11, 4.2682E-06, , , , 
DataValue, 5.44, 0.25, 2.5260000000000002E-11, 4.5669E-06, , , , 
DataValue, 5.48, 0.25, 2.482E-11, 4.8861000000000005E-06, , , , 
DataValue, 5.5200000000000005, 0.25, 2.4900000000000003E-11, 5.2049000000000008E-06, , , , 
DataValue, 5.5600000000000005, 0.25, 2.5470000000000004E-11, 5.5326E-06, , , , 
DataValue, 5.6000000000000005, 0.25, 2.615E-11, 5.870200000000001E-06, , , , 
DataValue, 5.64, 0.25, 2.6070000000000003E-11, 6.2163000000000009E-06, , , , 
DataValue, 5.68, 0.25, 2.589E-11, 6.5709000000000009E-06, , , , 
DataValue, 5.72, 0.25, 2.684E-11, 6.9340000000000009E-06, , , , 
DataValue, 5.76, 0.25, 2.706E-11, 7.3056000000000008E-06, , , , 
DataValue, 5.8, 0.25, 2.7800000000000004E-11, 7.6844E-06, , , , 
DataValue, 5.84, 0.25, 2.8270000000000003E-11, 8.0707E-06, , , , 
DataValue, 5.88, 0.25, 2.7610000000000002E-11, 8.4646E-06, , , , 
DataValue, 5.92, 0.25, 2.8200000000000003E-11, 8.8649E-06, , , , 
DataValue, 5.96, 0.25, 2.8780000000000003E-11, 9.2712E-06, , , , 
DataValue, 6, 0.25, 2.968E-11, 9.684E-06, , , , 
DataValue, 6, 0.25, 2.8930000000000004E-11, 9.7505000000000009E-06, , , , 
DataValue, 5.96, 0.25, 2.6080000000000002E-11, 1.0095E-05, , , , 
DataValue, 5.92, 0.25, 2.453E-11, 1.0409000000000002E-05, , , , 
