
SetupTitle, ID-VG Postbreak
PrimitiveTest, I/V Sweep
TestParameter, Context.MainFrame, B1500A
TestParameter, Channel.UnitType, SMU, SMU
TestParameter, Channel.Unit, SMU1:MP, SMU2:MP
TestParameter, Channel.IName, I1, I2
TestParameter, Channel.VName, V1, V2
TestParameter, Channel.Mode, V, V
TestParameter, Channel.Func, VAR1, CONST
TestParameter, Channel.Index, 
TestParameter, Channel.Time, 
TestParameter, Measurement.Port.Unit, SMU1:MP, SMU2:MP
TestParameter, Measurement.Port.SeriesResistor, NONE, NONE
TestParameter, Measurement.Port.Filter, ON, ON
TestParameter, Measurement.Port.OutputVoltageComparison, 0, 0
TestParameter, Measurement.Primary.Locus, Double
TestParameter, Measurement.Primary.Scale, LINEAR
TestParameter, Measurement.Primary.Start, -2
TestParameter, Measurement.Primary.Stop, 6
TestParameter, Measurement.Primary.Step, 0.04
TestParameter, Measurement.Primary.Compliance, 0.1
TestParameter, Measurement.Primary.PowerCompliance, 0
TestParameter, Measurement.Aborting.Condition, CONTINUE AT ANY
TestParameter, Measurement.PostOutput.Value, START
TestParameter, Measurement.PostOutput.Retention, OFF
TestParameter, Measurement.Bias.Source, -2, 0.25
TestParameter, Measurement.Bias.Compliance, 0.1, 0.1
TestParameter, Measurement.Monitor.Unit, SMU1:MP, SMU2:MP
TestParameter, Measurement.Monitor.Adc, HR ADC, HR ADC
TestParameter, Measurement.Monitor.Measurement, Compliance Side, Compliance Side
TestParameter, Measurement.Monitor.RangingMode, LIMITED, LIMITED
TestParameter, Measurement.Monitor.RangeBoundary, 1nA, 1nA
TestParameter, Measurement.Monitor.RangeRating, BY FULL RANGE, BY FULL RANGE
TestParameter, Measurement.Monitor.RangeRatingCoeff, 50, 50
TestParameter, Measurement.Timing.Hold, 0
TestParameter, Measurement.Timing.Delay, 0
TestParameter, Measurement.Adc.HighSpeed.Mode, AUTO
TestParameter, Measurement.Adc.HighSpeed.Coeff, 1
TestParameter, Measurement.Adc.HighResolution.AutoZero, OFF
TestParameter, Measurement.Adc.HighResolution.Mode, AUTO
TestParameter, Measurement.Adc.HighResolution.Coeff, 6
TestParameter, Measurement.WaitTime.Source.Coeff, 1
TestParameter, Measurement.WaitTime.Source.Offset, 0
TestParameter, Measurement.WaitTime.Monitor.Coeff, 1
TestParameter, Measurement.WaitTime.Monitor.Offset, 0
TestParameter, Output.Graph.Enabled, true
TestParameter, Output.Graph.AutoScaling, false
TestParameter, Output.Graph.XAxis.Data, V1
TestParameter, Output.Graph.XAxis.Scale, Linear
TestParameter, Output.Graph.XAxis.Left, -2
TestParameter, Output.Graph.XAxis.Right, 6
TestParameter, Output.Graph.XAxis.RunTimeAutoScale, true
TestParameter, Output.Graph.YAxis.Data, I2
TestParameter, Output.Graph.YAxis.Scale, Linear
TestParameter, Output.Graph.YAxis.Bottom, -0.1
TestParameter, Output.Graph.YAxis.Top, 0.1
TestParameter, Output.Graph.YAxis.Group, 
TestParameter, Output.Graph.YAxis.RunTimeAutoScale, true
TestParameter, Output.List.Data, V1, I1, V2, I2, V3, I3, V4, I4
TestParameter, AutoAnalysis.Interpolation, false
TestParameter, AutoAnalysis.Line1.Enabled, false
TestParameter, AutoAnalysis.Line1.Type, 1
TestParameter, AutoAnalysis.Line1.Fix, True
TestParameter, AutoAnalysis.Line1.YAxis, 0
TestParameter, AutoAnalysis.Line1.Point1.Type, 0
TestParameter, AutoAnalysis.Line1.Point1.XY.X, 
TestParameter, AutoAnalysis.Line1.Point1.XY.Y, 
TestParameter, AutoAnalysis.Line1.Point1.Data.Var, 
TestParameter, AutoAnalysis.Line1.Point1.Data.Condition, 
TestParameter, AutoAnalysis.Line1.Point1.Data.Start, false
TestParameter, AutoAnalysis.Line1.Point1.Data.StartVar, 
TestParameter, AutoAnalysis.Line1.Point1.Data.StartCondition, 
TestParameter, AutoAnalysis.Line1.Point2.Type, 0
TestParameter, AutoAnalysis.Line1.Point2.XY.X, 
TestParameter, AutoAnalysis.Line1.Point2.XY.Y, 
TestParameter, AutoAnalysis.Line1.Point2.Data.Var, 
TestParameter, AutoAnalysis.Line1.Point2.Data.Condition, 
TestParameter, AutoAnalysis.Line1.Point2.Data.Start, false
TestParameter, AutoAnalysis.Line1.Point2.Data.StartVar, 
TestParameter, AutoAnalysis.Line1.Point2.Data.StartCondition, 
TestParameter, AutoAnalysis.Line1.GradientExpr, 0
TestParameter, AutoAnalysis.Line2.Enabled, false
TestParameter, AutoAnalysis.Line2.Type, 1
TestParameter, AutoAnalysis.Line2.Fix, True
TestParameter, AutoAnalysis.Line2.YAxis, 0
TestParameter, AutoAnalysis.Line2.Point1.Type, 0
TestParameter, AutoAnalysis.Line2.Point1.XY.X, 
TestParameter, AutoAnalysis.Line2.Point1.XY.Y, 
TestParameter, AutoAnalysis.Line2.Point1.Data.Var, 
TestParameter, AutoAnalysis.Line2.Point1.Data.Condition, 
TestParameter, AutoAnalysis.Line2.Point1.Data.Start, false
TestParameter, AutoAnalysis.Line2.Point1.Data.StartVar, 
TestParameter, AutoAnalysis.Line2.Point1.Data.StartCondition, 
TestParameter, AutoAnalysis.Line2.Point2.Type, 0
TestParameter, AutoAnalysis.Line2.Point2.XY.X, 
TestParameter, AutoAnalysis.Line2.Point2.XY.Y, 
TestParameter, AutoAnalysis.Line2.Point2.Data.Var, 
TestParameter, AutoAnalysis.Line2.Point2.Data.Condition, 
TestParameter, AutoAnalysis.Line2.Point2.Data.Start, false
TestParameter, AutoAnalysis.Line2.Point2.Data.StartVar, 
TestParameter, AutoAnalysis.Line2.Point2.Data.StartCondition, 
TestParameter, AutoAnalysis.Line2.GradientExpr, 0
TestParameter, AutoAnalysis.Marker.Enabled, false
TestParameter, AutoAnalysis.Marker.Data.Var, 
TestParameter, AutoAnalysis.Marker.Data.Condition, 
TestParameter, AutoAnalysis.Marker.Data.Start, false
TestParameter, AutoAnalysis.Marker.Data.StartVar, 
TestParameter, AutoAnalysis.Marker.Data.StartCondition, 
MetaData, TestRecord.EntryPoint, true
MetaData, TestRecord.RecordTime, 03/10/2023 16:34:45
MetaData, TestRecord.TestTarget, 
MetaData, TestRecord.IterationIndex, 18
MetaData, TestRecord.Preservation, true
MetaData, TestRecord.Flag, 
MetaData, TestRecord.Remarks, 
MetaData, TestRecord.LinkKey, b8a9b9a9-8e36-4615-88de-09d5f5b47360
Dimension1, 402, 402, 402, 402, 402, 402, 402, 402
Dimension2, 1, 1, 1, 1, 1, 1, 1, 1
DataName, V1, V2, I1, I2, V3, I3, V4, I4
DataValue, -2, 0.25, -4.8500000000000005E-12, 2.8380000000000003E-11, , , , 
DataValue, -1.96, 0.25, -2.6600000000000004E-12, 2.8890000000000003E-11, , , , 
DataValue, -1.92, 0.25, -2.5600000000000004E-12, 2.6880000000000002E-11, , , , 
DataValue, -1.8800000000000001, 0.25, -2.0200000000000003E-12, 2.6470000000000003E-11, , , , 
DataValue, -1.84, 0.25, -2.4300000000000003E-12, 2.7510000000000004E-11, , , , 
DataValue, -1.8, 0.25, -1.51E-12, 2.8630000000000002E-11, , , , 
DataValue, -1.76, 0.25, -1.4300000000000002E-12, 2.7670000000000003E-11, , , , 
DataValue, -1.72, 0.25, -1.12E-12, 2.7230000000000003E-11, , , , 
DataValue, -1.68, 0.25, -9.9E-13, 2.5850000000000003E-11, , , , 
DataValue, -1.6400000000000001, 0.25, -1.79E-12, 2.7720000000000002E-11, , , , 
DataValue, -1.6, 0.25, -1.4E-13, 2.8540000000000002E-11, , , , 
DataValue, -1.56, 0.25, -5.7E-13, 2.724E-11, , , , 
DataValue, -1.52, 0.25, -6.9000000000000009E-13, 2.7250000000000003E-11, , , , 
DataValue, -1.48, 0.25, -4.1E-13, 2.704E-11, , , , 
DataValue, -1.44, 0.25, -1.6000000000000003E-13, 2.8420000000000004E-11, , , , 
DataValue, -1.4000000000000001, 0.25, -5.5000000000000008E-13, 2.7610000000000002E-11, , , , 
DataValue, -1.36, 0.25, 2.5E-13, 2.755E-11, , , , 
DataValue, -1.32, 0.25, 3.0000000000000005E-14, 2.591E-11, , , , 
DataValue, -1.28, 0.25, -1E-12, 2.7920000000000002E-11, , , , 
DataValue, -1.24, 0.25, 6.3E-13, 2.8780000000000003E-11, , , , 
DataValue, -1.2, 0.25, -9.7000000000000011E-13, 2.766E-11, , , , 
DataValue, -1.16, 0.25, 5.7E-13, 2.7560000000000003E-11, , , , 
DataValue, -1.12, 0.25, -1.3E-13, 2.7140000000000003E-11, , , , 
DataValue, -1.08, 0.25, 2.4000000000000004E-13, 2.968E-11, , , , 
DataValue, -1.04, 0.25, 1.2000000000000002E-13, 2.98E-11, , , , 
DataValue, -1, 0.25, 2E-13, 2.879E-11, , , , 
DataValue, -0.96, 0.25, 5E-14, 2.733E-11, , , , 
DataValue, -0.92, 0.25, -2.2000000000000002E-13, 2.8120000000000002E-11, , , , 
DataValue, -0.88, 0.25, 5.8000000000000005E-13, 2.986E-11, , , , 
DataValue, -0.84, 0.25, 1.17E-12, 2.9510000000000003E-11, , , , 
DataValue, -0.8, 0.25, 7.7000000000000005E-13, 2.917E-11, , , , 
DataValue, -0.76, 0.25, 8.6000000000000007E-13, 2.8820000000000004E-11, , , , 
DataValue, -0.72, 0.25, -3.5E-13, 2.914E-11, , , , 
DataValue, -0.68, 0.25, 4.7E-13, 3.124E-11, , , , 
DataValue, -0.64, 0.25, -1.3E-13, 3.037E-11, , , , 
DataValue, -0.6, 0.25, 3.0000000000000005E-14, 3.0320000000000005E-11, , , , 
DataValue, -0.56, 0.25, 6.3E-13, 3.0100000000000005E-11, , , , 
DataValue, -0.52, 0.25, 7.5E-13, 3.1890000000000006E-11, , , , 
DataValue, -0.48, 0.25, 1.13E-12, 3.2580000000000005E-11, , , , 
DataValue, -0.44, 0.25, 7E-13, 3.1770000000000004E-11, , , , 
DataValue, -0.4, 0.25, 1.18E-12, 3.271E-11, , , , 
DataValue, -0.36, 0.25, 1.7E-13, 3.215E-11, , , , 
DataValue, -0.32, 0.25, 7.100000000000001E-13, 3.406E-11, , , , 
DataValue, -0.28, 0.25, 3.2000000000000005E-13, 3.5020000000000005E-11, , , , 
DataValue, -0.24, 0.25, 4.6000000000000006E-13, 3.497E-11, , , , 
DataValue, -0.2, 0.25, 9.3E-13, 3.3700000000000004E-11, , , , 
DataValue, -0.16, 0.25, 5.8000000000000005E-13, 3.617E-11, , , , 
DataValue, -0.12, 0.25, 1.59E-12, 3.7200000000000005E-11, , , , 
DataValue, -0.08, 0.25, 7.2000000000000006E-13, 3.7200000000000005E-11, , , , 
DataValue, -0.04, 0.25, 9.1000000000000016E-13, 3.7740000000000004E-11, , , , 
DataValue, 0, 0.25, 1.0500000000000002E-12, 3.7670000000000004E-11, , , , 
DataValue, 0.04, 0.25, 1.37E-12, 4.1140000000000006E-11, , , , 
DataValue, 0.08, 0.25, 7.100000000000001E-13, 4.1870000000000006E-11, , , , 
DataValue, 0.12, 0.25, 1.4400000000000001E-12, 4.203E-11, , , , 
DataValue, 0.16, 0.25, 1.3800000000000002E-12, 4.199E-11, , , , 
DataValue, 0.2, 0.25, 3.3E-13, 4.403E-11, , , , 
DataValue, 0.24, 0.25, 1.2500000000000001E-12, 4.589E-11, , , , 
DataValue, 0.28, 0.25, 9.9E-13, 4.6260000000000004E-11, , , , 
DataValue, 0.32, 0.25, 1.95E-12, 4.719E-11, , , , 
DataValue, 0.36, 0.25, 1.27E-12, 4.967E-11, , , , 
DataValue, 0.4, 0.25, 1.3000000000000001E-12, 5.2610000000000006E-11, , , , 
DataValue, 0.44, 0.25, 1E-12, 5.379E-11, , , , 
DataValue, 0.48, 0.25, 1.3300000000000002E-12, 5.4750000000000005E-11, , , , 
DataValue, 0.52, 0.25, 1.4200000000000002E-12, 5.6000000000000007E-11, , , , 
DataValue, 0.56, 0.25, 1.09E-12, 5.8060000000000004E-11, , , , 
DataValue, 0.6, 0.25, 2.23E-12, 6.303E-11, , , , 
DataValue, 0.64, 0.25, 1.4900000000000001E-12, 6.433E-11, , , , 
DataValue, 0.68, 0.25, 1.4900000000000001E-12, 6.716E-11, , , , 
DataValue, 0.72, 0.25, 1.03E-12, 6.8800000000000011E-11, , , , 
DataValue, 0.76, 0.25, 8.8000000000000009E-13, 7.3900000000000011E-11, , , , 
DataValue, 0.8, 0.25, 1.6300000000000001E-12, 7.7380000000000008E-11, , , , 
DataValue, 0.84, 0.25, 1.32E-12, 7.968E-11, , , , 
DataValue, 0.88, 0.25, 1.6300000000000001E-12, 8.28E-11, , , , 
DataValue, 0.92, 0.25, 4.3000000000000004E-13, 8.803E-11, , , , 
DataValue, 0.96, 0.25, 2.0700000000000003E-12, 9.3760000000000008E-11, , , , 
DataValue, 1, 0.25, 1.5600000000000002E-12, 9.813E-11, , , , 
DataValue, 1.04, 0.25, 1.7000000000000002E-12, 1.0244000000000001E-10, , , , 
DataValue, 1.08, 0.25, 1.31E-12, 1.0656E-10, , , , 
DataValue, 1.12, 0.25, 1E-12, 1.1405000000000001E-10, , , , 
DataValue, 1.16, 0.25, 1.9700000000000003E-12, 1.2141E-10, , , , 
DataValue, 1.2, 0.25, 1.73E-12, 1.2751E-10, , , , 
DataValue, 1.24, 0.25, 2.01E-12, 1.3434E-10, , , , 
DataValue, 1.28, 0.25, 1.3000000000000001E-12, 1.4241E-10, , , , 
DataValue, 1.32, 0.25, 1.79E-12, 1.5312E-10, , , , 
DataValue, 1.36, 0.25, 1.8000000000000002E-12, 1.6255000000000002E-10, , , , 
DataValue, 1.4000000000000001, 0.25, 1.3500000000000001E-12, 1.7352E-10, , , , 
DataValue, 1.44, 0.25, 1.9400000000000002E-12, 1.8289000000000003E-10, , , , 
DataValue, 1.48, 0.25, 8.9E-13, 1.9723000000000003E-10, , , , 
DataValue, 1.52, 0.25, 2.37E-12, 2.1243E-10, , , , 
DataValue, 1.56, 0.25, 1.9200000000000003E-12, 2.2654000000000003E-10, , , , 
DataValue, 1.6, 0.25, 2.59E-12, 2.4431E-10, , , , 
DataValue, 1.6400000000000001, 0.25, 1.6600000000000002E-12, 2.6174E-10, , , , 
DataValue, 1.68, 0.25, 2.29E-12, 2.8360000000000003E-10, , , , 
DataValue, 1.72, 0.25, 1.3500000000000001E-12, 3.0723000000000003E-10, , , , 
DataValue, 1.76, 0.25, 2.18E-12, 3.3263E-10, , , , 
DataValue, 1.8, 0.25, 2.16E-12, 3.6006000000000005E-10, , , , 
DataValue, 1.84, 0.25, 1.9900000000000002E-12, 3.9318000000000003E-10, , , , 
DataValue, 1.8800000000000001, 0.25, 2.24E-12, 4.3011000000000003E-10, , , , 
DataValue, 1.92, 0.25, 2.24E-12, 4.6925E-10, , , , 
DataValue, 1.96, 0.25, 2.5600000000000004E-12, 5.1316E-10, , , , 
DataValue, 2, 0.25, 2.06E-12, 5.6181E-10, , , , 
DataValue, 2.04, 0.25, 1.4300000000000002E-12, 6.2132000000000008E-10, , , , 
DataValue, 2.08, 0.25, 1.9900000000000002E-12, 6.8725000000000008E-10, , , , 
DataValue, 2.12, 0.25, 1.3900000000000001E-12, 7.6141000000000006E-10, , , , 
DataValue, 2.16, 0.25, 2.2700000000000002E-12, 8.4671000000000007E-10, , , , 
DataValue, 2.2, 0.25, 2.29E-12, 9.428E-10, , , , 
DataValue, 2.24, 0.25, 2.1700000000000002E-12, 1.05672E-09, , , , 
DataValue, 2.2800000000000002, 0.25, 2.4000000000000003E-12, 1.2928E-09, , , , 
DataValue, 2.32, 0.25, 2.34E-12, 1.4364E-09, , , , 
DataValue, 2.36, 0.25, 1.5400000000000001E-12, 1.6068E-09, , , , 
DataValue, 2.4, 0.25, 2.4800000000000003E-12, 1.8033E-09, , , , 
DataValue, 2.44, 0.25, 1.6700000000000002E-12, 2.0371E-09, , , , 
DataValue, 2.48, 0.25, 2.5500000000000002E-12, 2.3041E-09, , , , 
DataValue, 2.52, 0.25, 1.78E-12, 2.6131E-09, , , , 
DataValue, 2.56, 0.25, 2.51E-12, 2.9763E-09, , , , 
DataValue, 2.6, 0.25, 1.6200000000000002E-12, 3.3972E-09, , , , 
DataValue, 2.64, 0.25, 2.5000000000000003E-12, 3.8889E-09, , , , 
DataValue, 2.68, 0.25, 1.6E-12, 4.4552E-09, , , , 
DataValue, 2.72, 0.25, 2.46E-12, 5.1154E-09, , , , 
DataValue, 2.7600000000000002, 0.25, 1.65E-12, 5.8866E-09, , , , 
DataValue, 2.8000000000000003, 0.25, 2.3000000000000003E-12, 6.8174E-09, , , , 
DataValue, 2.84, 0.25, 1.4400000000000001E-12, 7.928E-09, , , , 
DataValue, 2.88, 0.25, 2.39E-12, 9.2032E-09, , , , 
DataValue, 2.92, 0.25, 2.3300000000000004E-12, 1.07405E-08, , , , 
DataValue, 2.96, 0.25, 1.7600000000000002E-12, 1.2921799999999999E-08, , , , 
DataValue, 3, 0.25, 1.9200000000000003E-12, 1.52592E-08, , , , 
DataValue, 3.04, 0.25, 2E-12, 1.8071199999999998E-08, , , , 
DataValue, 3.08, 0.25, 2.3000000000000003E-12, 2.13776E-08, , , , 
DataValue, 3.12, 0.25, 2.29E-12, 2.52838E-08, , , , 
DataValue, 3.16, 0.25, 2.87E-12, 3.0055399999999995E-08, , , , 
DataValue, 3.2, 0.25, 1.45E-12, 3.5816599999999994E-08, , , , 
DataValue, 3.24, 0.25, 3.07E-12, 4.26908E-08, , , , 
DataValue, 3.2800000000000002, 0.25, 1.9E-12, 5.1081799999999996E-08, , , , 
DataValue, 3.3200000000000003, 0.25, 3.1700000000000004E-12, 6.1039E-08, , , , 
DataValue, 3.36, 0.25, 2.42E-12, 7.2969E-08, , , , 
DataValue, 3.4, 0.25, 2.0500000000000004E-12, 8.751139999999999E-08, , , , 
DataValue, 3.44, 0.25, 2.8E-12, 1.0546699999999999E-07, , , , 
DataValue, 3.48, 0.25, 2.5500000000000002E-12, 1.2598E-07, , , , 
DataValue, 3.52, 0.25, 2.5500000000000002E-12, 1.4984E-07, , , , 
DataValue, 3.56, 0.25, 3.02E-12, 1.7836E-07, , , , 
DataValue, 3.6, 0.25, 2.4000000000000003E-12, 2.1292E-07, , , , 
DataValue, 3.64, 0.25, 2.69E-12, 2.5426E-07, , , , 
DataValue, 3.68, 0.25, 3.07E-12, 3.0268E-07, , , , 
DataValue, 3.72, 0.25, 3.0400000000000004E-12, 3.6144E-07, , , , 
DataValue, 3.7600000000000002, 0.25, 2.2200000000000002E-12, 4.3396E-07, , , , 
DataValue, 3.8000000000000003, 0.25, 2.9800000000000002E-12, 5.1966E-07, , , , 
DataValue, 3.84, 0.25, 3.23E-12, 6.229E-07, , , , 
DataValue, 3.88, 0.25, 3.5500000000000004E-12, 7.4584E-07, , , , 
DataValue, 3.92, 0.25, 3.2700000000000004E-12, 8.9068E-07, , , , 
DataValue, 3.96, 0.25, 3.8400000000000006E-12, 1.06304E-06, , , , 
DataValue, 4, 0.25, 3E-12, 1.4618000000000001E-06, , , , 
DataValue, 4.04, 0.25, 3.4100000000000002E-12, 1.7149E-06, , , , 
DataValue, 4.08, 0.25, 2.92E-12, 2.0111E-06, , , , 
DataValue, 4.12, 0.25, 3.6900000000000006E-12, 2.3568E-06, , , , 
DataValue, 4.16, 0.25, 3.48E-12, 2.7593000000000004E-06, , , , 
DataValue, 4.2, 0.25, 3E-12, 3.2269000000000004E-06, , , , 
DataValue, 4.24, 0.25, 3.1100000000000003E-12, 3.7671000000000003E-06, , , , 
DataValue, 4.28, 0.25, 3.6800000000000005E-12, 4.3752E-06, , , , 
DataValue, 4.32, 0.25, 3.3E-12, 5.0632000000000009E-06, , , , 
DataValue, 4.36, 0.25, 4.0400000000000006E-12, 5.833100000000001E-06, , , , 
DataValue, 4.4, 0.25, 3.18E-12, 6.7112000000000011E-06, , , , 
DataValue, 4.44, 0.25, 2.42E-12, 7.7048000000000012E-06, , , , 
DataValue, 4.48, 0.25, 4.07E-12, 8.8301E-06, , , , 
DataValue, 4.5200000000000005, 0.25, 3.9E-12, 1.0075100000000001E-05, , , , 
DataValue, 4.5600000000000005, 0.25, 3.4500000000000004E-12, 1.1468300000000002E-05, , , , 
DataValue, 4.6000000000000005, 0.25, 3.3900000000000003E-12, 1.4636E-05, , , , 
DataValue, 4.64, 0.25, 3.18E-12, 1.6304000000000002E-05, , , , 
DataValue, 4.68, 0.25, 3.9300000000000004E-12, 1.812E-05, , , , 
DataValue, 4.72, 0.25, 3.72E-12, 2.01E-05, , , , 
DataValue, 4.76, 0.25, 3.63E-12, 2.2264000000000002E-05, , , , 
DataValue, 4.8, 0.25, 2.9600000000000003E-12, 2.4622000000000002E-05, , , , 
DataValue, 4.84, 0.25, 4.08E-12, 2.7154E-05, , , , 
DataValue, 4.88, 0.25, 4E-12, 2.9898E-05, , , , 
DataValue, 4.92, 0.25, 3.3E-12, 3.277E-05, , , , 
DataValue, 4.96, 0.25, 3.63E-12, 3.5812E-05, , , , 
DataValue, 5, 0.25, 4.6000000000000006E-12, 3.906E-05, , , , 
DataValue, 5.04, 0.25, 3.76E-12, 4.248E-05, , , , 
DataValue, 5.08, 0.25, 3.4700000000000004E-12, 4.5998E-05, , , , 
DataValue, 5.12, 0.25, 3.6800000000000005E-12, 4.9668E-05, , , , 
DataValue, 5.16, 0.25, 4.07E-12, 5.3538E-05, , , , 
DataValue, 5.2, 0.25, 3.97E-12, 5.7534E-05, , , , 
DataValue, 5.24, 0.25, 3.7900000000000006E-12, 6.1562E-05, , , , 
DataValue, 5.28, 0.25, 4.5000000000000006E-12, 6.5698000000000007E-05, , , , 
DataValue, 5.32, 0.25, 3.8E-12, 6.9956E-05, , , , 
DataValue, 5.36, 0.25, 4.22E-12, 7.4290000000000009E-05, , , , 
DataValue, 5.4, 0.25, 4.6900000000000004E-12, 7.8618E-05, , , , 
DataValue, 5.44, 0.25, 4.2000000000000007E-12, 8.308E-05, , , , 
DataValue, 5.48, 0.25, 4.38E-12, 8.7618E-05, , , , 
DataValue, 5.5200000000000005, 0.25, 4.6400000000000004E-12, 9.218E-05, , , , 
DataValue, 5.5600000000000005, 0.25, 4.37E-12, 9.6802E-05, , , , 
DataValue, 5.6000000000000005, 0.25, 4.2000000000000007E-12, 0.000101468, , , , 
DataValue, 5.64, 0.25, 4.9000000000000005E-12, 0.00010615, , , , 
DataValue, 5.68, 0.25, 4.4900000000000005E-12, 0.000110946, , , , 
DataValue, 5.72, 0.25, 4.0900000000000005E-12, 0.00012008, , , , 
DataValue, 5.76, 0.25, 4.48E-12, 0.00012458, , , , 
DataValue, 5.8, 0.25, 4.1900000000000005E-12, 0.0001292, , , , 
DataValue, 5.84, 0.25, 3.92E-12, 0.00013374, , , , 
DataValue, 5.88, 0.25, 4.73E-12, 0.00013834, , , , 
DataValue, 5.92, 0.25, 4.3000000000000007E-12, 0.000143, , , , 
DataValue, 5.96, 0.25, 4.4900000000000005E-12, 0.00014774000000000002, , , , 
DataValue, 6, 0.25, 5.39E-12, 0.00015252, , , , 
DataValue, 6, 0.25, 4.58E-12, 0.0001533, , , , 
DataValue, 5.96, 0.25, 3.8900000000000006E-12, 0.00015706000000000002, , , , 
DataValue, 5.92, 0.25, 4.07E-12, 0.00016012, , , , 
DataValue, 5.88, 0.25, 3.65E-12, 0.00016288, , , , 
DataValue, 5.84, 0.25, 4.22E-12, 0.00016514, , , , 
DataValue, 5.8, 0.25, 3.4200000000000004E-12, 0.00016712, , , , 
DataValue, 5.76, 0.25, 2.5800000000000003E-12, 0.00016882, , , , 
DataValue, 5.72, 0.25, 2.8900000000000004E-12, 0.00017018, , , , 
DataValue, 5.68, 0.25, 2.37E-12, 0.00017128, , , , 
DataValue, 5.64, 0.25, 3.3100000000000002E-12, 0.00017224000000000002, , , , 
DataValue, 5.6000000000000005, 0.25, 2.29E-12, 0.00017304, , , , 
