
SetupTitle, ID-VG Postbreak
PrimitiveTest, I/V Sweep
TestParameter, Context.MainFrame, B1500A
TestParameter, Channel.UnitType, SMU, SMU
TestParameter, Channel.Unit, SMU1:MP, SMU2:MP
TestParameter, Channel.IName, I1, I2
TestParameter, Channel.VName, V1, V2
TestParameter, Channel.Mode, V, V
TestParameter, Channel.Func, VAR1, CONST
TestParameter, Channel.Index, 
TestParameter, Channel.Time, 
TestParameter, Measurement.Port.Unit, SMU1:MP, SMU2:MP
TestParameter, Measurement.Port.SeriesResistor, NONE, NONE
TestParameter, Measurement.Port.Filter, ON, ON
TestParameter, Measurement.Port.OutputVoltageComparison, 0, 0
TestParameter, Measurement.Primary.Locus, Double
TestParameter, Measurement.Primary.Scale, LINEAR
TestParameter, Measurement.Primary.Start, -2
TestParameter, Measurement.Primary.Stop, 6
TestParameter, Measurement.Primary.Step, 0.04
TestParameter, Measurement.Primary.Compliance, 0.1
TestParameter, Measurement.Primary.PowerCompliance, 0
TestParameter, Measurement.Aborting.Condition, CONTINUE AT ANY
TestParameter, Measurement.PostOutput.Value, START
TestParameter, Measurement.PostOutput.Retention, OFF
TestParameter, Measurement.Bias.Source, -2, 0.25
TestParameter, Measurement.Bias.Compliance, 0.1, 0.1
TestParameter, Measurement.Monitor.Unit, SMU1:MP, SMU2:MP
TestParameter, Measurement.Monitor.Adc, HR ADC, HR ADC
TestParameter, Measurement.Monitor.Measurement, Compliance Side, Compliance Side
TestParameter, Measurement.Monitor.RangingMode, LIMITED, LIMITED
TestParameter, Measurement.Monitor.RangeBoundary, 1nA, 1nA
TestParameter, Measurement.Monitor.RangeRating, BY FULL RANGE, BY FULL RANGE
TestParameter, Measurement.Monitor.RangeRatingCoeff, 50, 50
TestParameter, Measurement.Timing.Hold, 0
TestParameter, Measurement.Timing.Delay, 0
TestParameter, Measurement.Adc.HighSpeed.Mode, AUTO
TestParameter, Measurement.Adc.HighSpeed.Coeff, 1
TestParameter, Measurement.Adc.HighResolution.AutoZero, OFF
TestParameter, Measurement.Adc.HighResolution.Mode, AUTO
TestParameter, Measurement.Adc.HighResolution.Coeff, 6
TestParameter, Measurement.WaitTime.Source.Coeff, 1
TestParameter, Measurement.WaitTime.Source.Offset, 0
TestParameter, Measurement.WaitTime.Monitor.Coeff, 1
TestParameter, Measurement.WaitTime.Monitor.Offset, 0
TestParameter, Output.Graph.Enabled, true
TestParameter, Output.Graph.AutoScaling, false
TestParameter, Output.Graph.XAxis.Data, V1
TestParameter, Output.Graph.XAxis.Scale, Linear
TestParameter, Output.Graph.XAxis.Left, -2
TestParameter, Output.Graph.XAxis.Right, 6
TestParameter, Output.Graph.XAxis.RunTimeAutoScale, true
TestParameter, Output.Graph.YAxis.Data, I2
TestParameter, Output.Graph.YAxis.Scale, Linear
TestParameter, Output.Graph.YAxis.Bottom, -0.1
TestParameter, Output.Graph.YAxis.Top, 0.1
TestParameter, Output.Graph.YAxis.Group, 
TestParameter, Output.Graph.YAxis.RunTimeAutoScale, true
TestParameter, Output.List.Data, V1, I1, V2, I2, V3, I3, V4, I4
TestParameter, AutoAnalysis.Interpolation, false
TestParameter, AutoAnalysis.Line1.Enabled, false
TestParameter, AutoAnalysis.Line1.Type, 1
TestParameter, AutoAnalysis.Line1.Fix, True
TestParameter, AutoAnalysis.Line1.YAxis, 0
TestParameter, AutoAnalysis.Line1.Point1.Type, 0
TestParameter, AutoAnalysis.Line1.Point1.XY.X, 
TestParameter, AutoAnalysis.Line1.Point1.XY.Y, 
TestParameter, AutoAnalysis.Line1.Point1.Data.Var, 
TestParameter, AutoAnalysis.Line1.Point1.Data.Condition, 
TestParameter, AutoAnalysis.Line1.Point1.Data.Start, false
TestParameter, AutoAnalysis.Line1.Point1.Data.StartVar, 
TestParameter, AutoAnalysis.Line1.Point1.Data.StartCondition, 
TestParameter, AutoAnalysis.Line1.Point2.Type, 0
TestParameter, AutoAnalysis.Line1.Point2.XY.X, 
TestParameter, AutoAnalysis.Line1.Point2.XY.Y, 
TestParameter, AutoAnalysis.Line1.Point2.Data.Var, 
TestParameter, AutoAnalysis.Line1.Point2.Data.Condition, 
TestParameter, AutoAnalysis.Line1.Point2.Data.Start, false
TestParameter, AutoAnalysis.Line1.Point2.Data.StartVar, 
TestParameter, AutoAnalysis.Line1.Point2.Data.StartCondition, 
TestParameter, AutoAnalysis.Line1.GradientExpr, 0
TestParameter, AutoAnalysis.Line2.Enabled, false
TestParameter, AutoAnalysis.Line2.Type, 1
TestParameter, AutoAnalysis.Line2.Fix, True
TestParameter, AutoAnalysis.Line2.YAxis, 0
TestParameter, AutoAnalysis.Line2.Point1.Type, 0
TestParameter, AutoAnalysis.Line2.Point1.XY.X, 
TestParameter, AutoAnalysis.Line2.Point1.XY.Y, 
TestParameter, AutoAnalysis.Line2.Point1.Data.Var, 
TestParameter, AutoAnalysis.Line2.Point1.Data.Condition, 
TestParameter, AutoAnalysis.Line2.Point1.Data.Start, false
TestParameter, AutoAnalysis.Line2.Point1.Data.StartVar, 
TestParameter, AutoAnalysis.Line2.Point1.Data.StartCondition, 
TestParameter, AutoAnalysis.Line2.Point2.Type, 0
TestParameter, AutoAnalysis.Line2.Point2.XY.X, 
TestParameter, AutoAnalysis.Line2.Point2.XY.Y, 
TestParameter, AutoAnalysis.Line2.Point2.Data.Var, 
TestParameter, AutoAnalysis.Line2.Point2.Data.Condition, 
TestParameter, AutoAnalysis.Line2.Point2.Data.Start, false
TestParameter, AutoAnalysis.Line2.Point2.Data.StartVar, 
TestParameter, AutoAnalysis.Line2.Point2.Data.StartCondition, 
TestParameter, AutoAnalysis.Line2.GradientExpr, 0
TestParameter, AutoAnalysis.Marker.Enabled, false
TestParameter, AutoAnalysis.Marker.Data.Var, 
TestParameter, AutoAnalysis.Marker.Data.Condition, 
TestParameter, AutoAnalysis.Marker.Data.Start, false
TestParameter, AutoAnalysis.Marker.Data.StartVar, 
TestParameter, AutoAnalysis.Marker.Data.StartCondition, 
MetaData, TestRecord.EntryPoint, true
MetaData, TestRecord.RecordTime, 03/10/2023 16:35:23
MetaData, TestRecord.TestTarget, 
MetaData, TestRecord.IterationIndex, 19
MetaData, TestRecord.Preservation, true
MetaData, TestRecord.Flag, 
MetaData, TestRecord.Remarks, 
MetaData, TestRecord.LinkKey, cae99ea3-7da2-4f58-9fd9-2447f52667cf
Dimension1, 402, 402, 402, 402, 402, 402, 402, 402
Dimension2, 1, 1, 1, 1, 1, 1, 1, 1
DataName, V1, V2, I1, I2, V3, I3, V4, I4
DataValue, -2, 0.25, -4.02E-12, 2.7100000000000002E-11, , , , 
DataValue, -1.96, 0.25, -2.46E-12, 2.655E-11, , , , 
DataValue, -1.92, 0.25, -1.74E-12, 2.5250000000000003E-11, , , , 
DataValue, -1.8800000000000001, 0.25, -1.95E-12, 2.6490000000000004E-11, , , , 
DataValue, -1.84, 0.25, -1.4400000000000001E-12, 2.7490000000000003E-11, , , , 
DataValue, -1.8, 0.25, -9.8E-13, 2.684E-11, , , , 
DataValue, -1.76, 0.25, -1.2400000000000002E-12, 2.6980000000000003E-11, , , , 
DataValue, -1.72, 0.25, -1E-12, 2.6360000000000003E-11, , , , 
DataValue, -1.68, 0.25, -8.300000000000001E-13, 2.7850000000000003E-11, , , , 
DataValue, -1.6400000000000001, 0.25, -3.4E-13, 2.7720000000000002E-11, , , , 
DataValue, -1.6, 0.25, -5.2E-13, 2.6320000000000003E-11, , , , 
DataValue, -1.56, 0.25, -7.6000000000000009E-13, 2.575E-11, , , , 
DataValue, -1.52, 0.25, -9.9E-13, 2.673E-11, , , , 
DataValue, -1.48, 0.25, -8.2E-13, 2.868E-11, , , , 
DataValue, -1.44, 0.25, -3.2000000000000005E-13, 2.808E-11, , , , 
DataValue, -1.4000000000000001, 0.25, -6.1E-13, 2.722E-11, , , , 
DataValue, -1.36, 0.25, -4.5000000000000005E-13, 2.633E-11, , , , 
DataValue, -1.32, 0.25, 0, 2.8310000000000004E-11, , , , 
DataValue, -1.28, 0.25, -1.3E-13, 2.899E-11, , , , 
DataValue, -1.24, 0.25, 1.0000000000000002E-14, 2.797E-11, , , , 
DataValue, -1.2, 0.25, 1.4E-13, 2.773E-11, , , , 
DataValue, -1.16, 0.25, 7E-14, 2.904E-11, , , , 
DataValue, -1.12, 0.25, -1.9000000000000002E-13, 3.0460000000000004E-11, , , , 
DataValue, -1.08, 0.25, 4.7E-13, 2.98E-11, , , , 
DataValue, -1.04, 0.25, -4.0000000000000006E-14, 2.9300000000000005E-11, , , , 
DataValue, -1, 0.25, 3.0000000000000005E-14, 3.051E-11, , , , 
DataValue, -0.96, 0.25, -3.9000000000000005E-13, 3.107E-11, , , , 
DataValue, -0.92, 0.25, 2.4000000000000004E-13, 3.136E-11, , , , 
DataValue, -0.88, 0.25, 4E-13, 3.1520000000000005E-11, , , , 
DataValue, -0.84, 0.25, 1.2000000000000002E-13, 3.0460000000000004E-11, , , , 
DataValue, -0.8, 0.25, 3.0000000000000005E-14, 3.1770000000000004E-11, , , , 
DataValue, -0.76, 0.25, 1.3E-13, 3.322E-11, , , , 
DataValue, -0.72, 0.25, 6.0000000000000007E-13, 3.277E-11, , , , 
DataValue, -0.68, 0.25, 1.8000000000000002E-13, 3.3670000000000005E-11, , , , 
DataValue, -0.64, 0.25, 6.3E-13, 3.3600000000000005E-11, , , , 
DataValue, -0.6, 0.25, -5E-14, 3.591E-11, , , , 
DataValue, -0.56, 0.25, 1E-12, 3.679E-11, , , , 
DataValue, -0.52, 0.25, 6.0000000000000007E-13, 3.659E-11, , , , 
DataValue, -0.48, 0.25, 4.1E-13, 3.73E-11, , , , 
DataValue, -0.44, 0.25, 4.1E-13, 3.846E-11, , , , 
DataValue, -0.4, 0.25, 5E-13, 4.0520000000000006E-11, , , , 
DataValue, -0.36, 0.25, 1.5800000000000001E-12, 4.057E-11, , , , 
DataValue, -0.32, 0.25, 8.7E-13, 4.094E-11, , , , 
DataValue, -0.28, 0.25, 9.2000000000000012E-13, 4.1650000000000006E-11, , , , 
DataValue, -0.24, 0.25, 4.1E-13, 4.5130000000000003E-11, , , , 
DataValue, -0.2, 0.25, 4.1E-13, 4.603E-11, , , , 
DataValue, -0.16, 0.25, 9.2000000000000012E-13, 4.7180000000000005E-11, , , , 
DataValue, -0.12, 0.25, 6.3E-13, 4.8060000000000006E-11, , , , 
DataValue, -0.08, 0.25, 1.2400000000000002E-12, 4.9910000000000005E-11, , , , 
DataValue, -0.04, 0.25, 7.3E-13, 5.1870000000000004E-11, , , , 
DataValue, 0, 0.25, 1.73E-12, 5.2960000000000004E-11, , , , 
DataValue, 0.04, 0.25, 1.3000000000000001E-12, 5.4320000000000006E-11, , , , 
DataValue, 0.08, 0.25, 1.37E-12, 5.579E-11, , , , 
DataValue, 0.12, 0.25, 8.4000000000000006E-13, 6.013E-11, , , , 
DataValue, 0.16, 0.25, 1.55E-12, 6.25E-11, , , , 
DataValue, 0.2, 0.25, 7.7000000000000005E-13, 6.4340000000000007E-11, , , , 
DataValue, 0.24, 0.25, 8.6000000000000007E-13, 6.656E-11, , , , 
DataValue, 0.28, 0.25, 1.04E-12, 6.876E-11, , , , 
DataValue, 0.32, 0.25, 1.3000000000000001E-12, 7.345E-11, , , , 
DataValue, 0.36, 0.25, 1.4700000000000002E-12, 7.585E-11, , , , 
DataValue, 0.4, 0.25, 3.7000000000000004E-13, 7.927E-11, , , , 
DataValue, 0.44, 0.25, 1.5600000000000002E-12, 8.1960000000000007E-11, , , , 
DataValue, 0.48, 0.25, 8.4000000000000006E-13, 8.762E-11, , , , 
DataValue, 0.52, 0.25, 1.1900000000000002E-12, 9.2850000000000008E-11, , , , 
DataValue, 0.56, 0.25, 8.7E-13, 9.548E-11, , , , 
DataValue, 0.6, 0.25, 1.14E-12, 9.967E-11, , , , 
DataValue, 0.64, 0.25, 1.09E-12, 1.0497000000000001E-10, , , , 
DataValue, 0.68, 0.25, 7.2000000000000006E-13, 1.1196000000000001E-10, , , , 
DataValue, 0.72, 0.25, 1.74E-12, 1.173E-10, , , , 
DataValue, 0.76, 0.25, 1.14E-12, 1.2289E-10, , , , 
DataValue, 0.8, 0.25, 1.0600000000000001E-12, 1.2951E-10, , , , 
DataValue, 0.84, 0.25, 7.6000000000000009E-13, 1.372E-10, , , , 
DataValue, 0.88, 0.25, 1.36E-12, 1.463E-10, , , , 
DataValue, 0.92, 0.25, 1.5300000000000001E-12, 1.5388000000000002E-10, , , , 
DataValue, 0.96, 0.25, 8.4000000000000006E-13, 1.6176000000000002E-10, , , , 
DataValue, 1, 0.25, 1.5E-12, 1.7031E-10, , , , 
DataValue, 1.04, 0.25, 1.5E-12, 1.8189E-10, , , , 
DataValue, 1.08, 0.25, 1.07E-12, 1.9293000000000003E-10, , , , 
DataValue, 1.12, 0.25, 1.5800000000000001E-12, 2.0378000000000002E-10, , , , 
DataValue, 1.16, 0.25, 1.0500000000000002E-12, 2.1585E-10, , , , 
DataValue, 1.2, 0.25, 1.3900000000000001E-12, 2.29E-10, , , , 
DataValue, 1.24, 0.25, 7.3E-13, 2.4445E-10, , , , 
DataValue, 1.28, 0.25, 1.6200000000000002E-12, 2.6129000000000004E-10, , , , 
DataValue, 1.32, 0.25, 1.3800000000000002E-12, 2.7671E-10, , , , 
DataValue, 1.36, 0.25, 1.3800000000000002E-12, 2.9489E-10, , , , 
DataValue, 1.4000000000000001, 0.25, 2.01E-12, 3.1485E-10, , , , 
DataValue, 1.44, 0.25, 1.74E-12, 3.3709E-10, , , , 
DataValue, 1.48, 0.25, 2.52E-12, 3.599E-10, , , , 
DataValue, 1.52, 0.25, 1.69E-12, 3.8562E-10, , , , 
DataValue, 1.56, 0.25, 1.85E-12, 4.1274E-10, , , , 
DataValue, 1.6, 0.25, 1.74E-12, 4.4451000000000005E-10, , , , 
DataValue, 1.6400000000000001, 0.25, 1.7200000000000001E-12, 4.7713000000000009E-10, , , , 
DataValue, 1.68, 0.25, 2.1700000000000002E-12, 5.1164E-10, , , , 
DataValue, 1.72, 0.25, 2.08E-12, 5.5091E-10, , , , 
DataValue, 1.76, 0.25, 1.88E-12, 5.9327000000000006E-10, , , , 
DataValue, 1.8, 0.25, 1.78E-12, 6.4340000000000007E-10, , , , 
DataValue, 1.84, 0.25, 2.37E-12, 6.949E-10, , , , 
DataValue, 1.8800000000000001, 0.25, 1.6300000000000001E-12, 7.5328E-10, , , , 
DataValue, 1.92, 0.25, 1.8400000000000002E-12, 8.1705000000000009E-10, , , , 
DataValue, 1.96, 0.25, 1.2500000000000001E-12, 8.9331000000000009E-10, , , , 
DataValue, 2, 0.25, 1.73E-12, 9.7441000000000015E-10, , , , 
DataValue, 2.04, 0.25, 1.86E-12, 1.06024E-09, , , , 
DataValue, 2.08, 0.25, 1.59E-12, 1.2335E-09, , , , 
DataValue, 2.12, 0.25, 1.7500000000000002E-12, 1.3387E-09, , , , 
DataValue, 2.16, 0.25, 2.37E-12, 1.4599E-09, , , , 
DataValue, 2.2, 0.25, 1.6300000000000001E-12, 1.5957E-09, , , , 
DataValue, 2.24, 0.25, 2.26E-12, 1.7548E-09, , , , 
DataValue, 2.2800000000000002, 0.25, 1.73E-12, 1.9292E-09, , , , 
DataValue, 2.32, 0.25, 1.8400000000000002E-12, 2.1244E-09, , , , 
DataValue, 2.36, 0.25, 1.5E-12, 2.3568E-09, , , , 
DataValue, 2.4, 0.25, 2.11E-12, 2.6125E-09, , , , 
DataValue, 2.44, 0.25, 1.93E-12, 2.9095E-09, , , , 
DataValue, 2.48, 0.25, 2.14E-12, 3.2432E-09, , , , 
DataValue, 2.52, 0.25, 2.21E-12, 3.6264E-09, , , , 
DataValue, 2.56, 0.25, 1.59E-12, 4.0692E-09, , , , 
DataValue, 2.6, 0.25, 2.6000000000000002E-12, 4.581E-09, , , , 
DataValue, 2.64, 0.25, 1.6100000000000002E-12, 5.1525E-09, , , , 
DataValue, 2.68, 0.25, 2.31E-12, 5.7951E-09, , , , 
DataValue, 2.72, 0.25, 1.73E-12, 6.5732E-09, , , , 
DataValue, 2.7600000000000002, 0.25, 2.2000000000000003E-12, 7.4799E-09, , , , 
DataValue, 2.8000000000000003, 0.25, 2.1200000000000003E-12, 8.5307E-09, , , , 
DataValue, 2.84, 0.25, 2.57E-12, 9.744E-09, , , , 
DataValue, 2.88, 0.25, 2.39E-12, 1.11356E-08, , , , 
DataValue, 2.92, 0.25, 2.41E-12, 1.3096799999999999E-08, , , , 
DataValue, 2.96, 0.25, 1.7000000000000002E-12, 1.5139799999999998E-08, , , , 
DataValue, 3, 0.25, 2.2500000000000003E-12, 1.7512599999999998E-08, , , , 
DataValue, 3.04, 0.25, 2.1700000000000002E-12, 2.0339599999999997E-08, , , , 
DataValue, 3.08, 0.25, 2.2500000000000003E-12, 2.3704599999999998E-08, , , , 
DataValue, 3.12, 0.25, 2.47E-12, 2.7665999999999998E-08, , , , 
DataValue, 3.16, 0.25, 2.51E-12, 3.2321599999999995E-08, , , , 
DataValue, 3.2, 0.25, 2.26E-12, 3.7879E-08, , , , 
DataValue, 3.24, 0.25, 2.08E-12, 4.44368E-08, , , , 
DataValue, 3.2800000000000002, 0.25, 2.87E-12, 5.21262E-08, , , , 
DataValue, 3.3200000000000003, 0.25, 2.18E-12, 6.1396999999999991E-08, , , , 
DataValue, 3.36, 0.25, 2.6500000000000002E-12, 7.23914E-08, , , , 
DataValue, 3.4, 0.25, 2.57E-12, 8.55082E-08, , , , 
DataValue, 3.44, 0.25, 1.65E-12, 1.013256E-07, , , , 
DataValue, 3.48, 0.25, 1.9400000000000002E-12, 1.2302E-07, , , , 
DataValue, 3.52, 0.25, 2.3800000000000004E-12, 1.437E-07, , , , 
DataValue, 3.56, 0.25, 2.42E-12, 1.6808E-07, , , , 
DataValue, 3.6, 0.25, 2.1000000000000003E-12, 1.9708E-07, , , , 
DataValue, 3.64, 0.25, 2.4000000000000003E-12, 2.3187999999999998E-07, , , , 
DataValue, 3.68, 0.25, 2.6600000000000004E-12, 2.7299999999999997E-07, , , , 
DataValue, 3.72, 0.25, 2.8300000000000003E-12, 3.2186E-07, , , , 
DataValue, 3.7600000000000002, 0.25, 2.8600000000000003E-12, 3.792E-07, , , , 
DataValue, 3.8000000000000003, 0.25, 2.9900000000000004E-12, 4.4992E-07, , , , 
DataValue, 3.84, 0.25, 3.4400000000000003E-12, 5.3385999999999994E-07, , , , 
DataValue, 3.88, 0.25, 3.0900000000000004E-12, 6.3423999999999994E-07, , , , 
DataValue, 3.92, 0.25, 2.82E-12, 7.5122E-07, , , , 
DataValue, 3.96, 0.25, 2.5500000000000002E-12, 8.8904E-07, , , , 
DataValue, 4, 0.25, 2.6000000000000002E-12, 1.05106E-06, , , , 
DataValue, 4.04, 0.25, 2.8400000000000004E-12, 1.4387E-06, , , , 
DataValue, 4.08, 0.25, 2.52E-12, 1.6770000000000002E-06, , , , 
DataValue, 4.12, 0.25, 2.8600000000000003E-12, 1.9529000000000004E-06, , , , 
DataValue, 4.16, 0.25, 1.9400000000000002E-12, 2.2728E-06, , , , 
DataValue, 4.2, 0.25, 2.85E-12, 2.6423E-06, , , , 
DataValue, 4.24, 0.25, 3.71E-12, 3.0669000000000002E-06, , , , 
DataValue, 4.28, 0.25, 2.5500000000000002E-12, 3.5590000000000006E-06, , , , 
DataValue, 4.32, 0.25, 2.7000000000000002E-12, 4.1172E-06, , , , 
DataValue, 4.36, 0.25, 3E-12, 4.7559000000000005E-06, , , , 
DataValue, 4.4, 0.25, 3.5200000000000003E-12, 5.4836E-06, , , , 
DataValue, 4.44, 0.25, 3.9300000000000004E-12, 6.3108000000000006E-06, , , , 
DataValue, 4.48, 0.25, 2.95E-12, 7.246200000000001E-06, , , , 
DataValue, 4.5200000000000005, 0.25, 3.18E-12, 8.2966000000000012E-06, , , , 
DataValue, 4.5600000000000005, 0.25, 3.3400000000000003E-12, 9.4896000000000014E-06, , , , 
DataValue, 4.6000000000000005, 0.25, 3.1200000000000004E-12, 1.0807700000000002E-05, , , , 
DataValue, 4.64, 0.25, 3.2700000000000004E-12, 1.3378E-05, , , , 
DataValue, 4.68, 0.25, 3.8400000000000006E-12, 1.5074E-05, , , , 
DataValue, 4.72, 0.25, 3.3700000000000004E-12, 1.6844E-05, , , , 
DataValue, 4.76, 0.25, 3.4000000000000005E-12, 1.877E-05, , , , 
DataValue, 4.8, 0.25, 3.4200000000000004E-12, 2.0926E-05, , , , 
DataValue, 4.84, 0.25, 3.7900000000000006E-12, 2.3290000000000002E-05, , , , 
DataValue, 4.88, 0.25, 3.46E-12, 2.5832E-05, , , , 
DataValue, 4.92, 0.25, 3.1700000000000004E-12, 2.854E-05, , , , 
DataValue, 4.96, 0.25, 4.1000000000000007E-12, 3.1528E-05, , , , 
DataValue, 5, 0.25, 3.5900000000000003E-12, 3.4652E-05, , , , 
DataValue, 5.04, 0.25, 3.96E-12, 3.8022E-05, , , , 
DataValue, 5.08, 0.25, 3.43E-12, 4.1636E-05, , , , 
DataValue, 5.12, 0.25, 3.3600000000000002E-12, 4.541E-05, , , , 
DataValue, 5.16, 0.25, 3.3400000000000003E-12, 4.9364000000000004E-05, , , , 
DataValue, 5.2, 0.25, 3.0800000000000002E-12, 5.3558000000000005E-05, , , , 
DataValue, 5.24, 0.25, 3.66E-12, 5.7866000000000005E-05, , , , 
DataValue, 5.28, 0.25, 3.82E-12, 6.2356E-05, , , , 
DataValue, 5.32, 0.25, 3.9900000000000006E-12, 6.7026E-05, , , , 
DataValue, 5.36, 0.25, 3.6400000000000006E-12, 7.1926E-05, , , , 
DataValue, 5.4, 0.25, 3.61E-12, 7.6944E-05, , , , 
DataValue, 5.44, 0.25, 3.5900000000000003E-12, 8.2032E-05, , , , 
DataValue, 5.48, 0.25, 3.87E-12, 8.725E-05, , , , 
DataValue, 5.5200000000000005, 0.25, 4.18E-12, 9.2446E-05, , , , 
DataValue, 5.5600000000000005, 0.25, 4.02E-12, 9.772800000000001E-05, , , , 
DataValue, 5.6000000000000005, 0.25, 3.5200000000000003E-12, 0.000103038, , , , 
DataValue, 5.64, 0.25, 4.43E-12, 0.00010838, , , , 
DataValue, 5.68, 0.25, 4.0500000000000007E-12, 0.00011369800000000001, , , , 
DataValue, 5.72, 0.25, 4.4000000000000006E-12, 0.00012128, , , , 
DataValue, 5.76, 0.25, 3.7400000000000006E-12, 0.00012646, , , , 
DataValue, 5.8, 0.25, 4.82E-12, 0.0001317, , , , 
DataValue, 5.84, 0.25, 4.77E-12, 0.00013696000000000002, , , , 
DataValue, 5.88, 0.25, 3.9800000000000004E-12, 0.00014222, , , , 
DataValue, 5.92, 0.25, 4.36E-12, 0.00014746, , , , 
DataValue, 5.96, 0.25, 3.8E-12, 0.00015282000000000002, , , , 
DataValue, 6, 0.25, 3.76E-12, 0.00015824, , , , 
DataValue, 6, 0.25, 4.6100000000000008E-12, 0.00015916000000000001, , , , 
DataValue, 5.96, 0.25, 3.7300000000000005E-12, 0.00016334000000000002, , , , 
DataValue, 5.92, 0.25, 3.15E-12, 0.00016700000000000002, , , , 
DataValue, 5.88, 0.25, 3.5200000000000003E-12, 0.00017012, , , , 
DataValue, 5.84, 0.25, 3.2600000000000002E-12, 0.00017288, , , , 
DataValue, 5.8, 0.25, 2.34E-12, 0.00017518, , , , 
DataValue, 5.76, 0.25, 2.57E-12, 0.00017712, , , , 
DataValue, 5.72, 0.25, 2.72E-12, 0.00017874, , , , 
DataValue, 5.68, 0.25, 2.8400000000000004E-12, 0.00018018, , , , 
DataValue, 5.64, 0.25, 2.34E-12, 0.00018134000000000002, , , , 
DataValue, 5.6000000000000005, 0.25, 2.4800000000000003E-12, 0.00018226, , , , 
DataValue, 5.5600000000000005, 0.25, 1.9700000000000003E-12, 0.00018292000000000002, , , , 
