
SetupTitle, ID-VG Postbreak
PrimitiveTest, I/V Sweep
TestParameter, Context.MainFrame, B1500A
TestParameter, Channel.UnitType, SMU, SMU
TestParameter, Channel.Unit, SMU1:MP, SMU2:MP
TestParameter, Channel.IName, I1, I2
TestParameter, Channel.VName, V1, V2
TestParameter, Channel.Mode, V, V
TestParameter, Channel.Func, VAR1, CONST
TestParameter, Channel.Index, 
TestParameter, Channel.Time, 
TestParameter, Measurement.Port.Unit, SMU1:MP, SMU2:MP
TestParameter, Measurement.Port.SeriesResistor, NONE, NONE
TestParameter, Measurement.Port.Filter, ON, ON
TestParameter, Measurement.Port.OutputVoltageComparison, 0, 0
TestParameter, Measurement.Primary.Locus, Double
TestParameter, Measurement.Primary.Scale, LINEAR
TestParameter, Measurement.Primary.Start, -2
TestParameter, Measurement.Primary.Stop, 6
TestParameter, Measurement.Primary.Step, 0.04
TestParameter, Measurement.Primary.Compliance, 0.1
TestParameter, Measurement.Primary.PowerCompliance, 0
TestParameter, Measurement.Aborting.Condition, CONTINUE AT ANY
TestParameter, Measurement.PostOutput.Value, START
TestParameter, Measurement.PostOutput.Retention, OFF
TestParameter, Measurement.Bias.Source, -2, 0.25
TestParameter, Measurement.Bias.Compliance, 0.1, 0.1
TestParameter, Measurement.Monitor.Unit, SMU1:MP, SMU2:MP
TestParameter, Measurement.Monitor.Adc, HR ADC, HR ADC
TestParameter, Measurement.Monitor.Measurement, Compliance Side, Compliance Side
TestParameter, Measurement.Monitor.RangingMode, LIMITED, LIMITED
TestParameter, Measurement.Monitor.RangeBoundary, 1nA, 1nA
TestParameter, Measurement.Monitor.RangeRating, BY FULL RANGE, BY FULL RANGE
TestParameter, Measurement.Monitor.RangeRatingCoeff, 50, 50
TestParameter, Measurement.Timing.Hold, 0
TestParameter, Measurement.Timing.Delay, 0
TestParameter, Measurement.Adc.HighSpeed.Mode, AUTO
TestParameter, Measurement.Adc.HighSpeed.Coeff, 1
TestParameter, Measurement.Adc.HighResolution.AutoZero, OFF
TestParameter, Measurement.Adc.HighResolution.Mode, AUTO
TestParameter, Measurement.Adc.HighResolution.Coeff, 6
TestParameter, Measurement.WaitTime.Source.Coeff, 1
TestParameter, Measurement.WaitTime.Source.Offset, 0
TestParameter, Measurement.WaitTime.Monitor.Coeff, 1
TestParameter, Measurement.WaitTime.Monitor.Offset, 0
TestParameter, Output.Graph.Enabled, true
TestParameter, Output.Graph.AutoScaling, false
TestParameter, Output.Graph.XAxis.Data, V1
TestParameter, Output.Graph.XAxis.Scale, Linear
TestParameter, Output.Graph.XAxis.Left, -2
TestParameter, Output.Graph.XAxis.Right, 6
TestParameter, Output.Graph.XAxis.RunTimeAutoScale, true
TestParameter, Output.Graph.YAxis.Data, I2
TestParameter, Output.Graph.YAxis.Scale, Linear
TestParameter, Output.Graph.YAxis.Bottom, -0.1
TestParameter, Output.Graph.YAxis.Top, 0.1
TestParameter, Output.Graph.YAxis.Group, 
TestParameter, Output.Graph.YAxis.RunTimeAutoScale, true
TestParameter, Output.List.Data, V1, I1, V2, I2, V3, I3, V4, I4
TestParameter, AutoAnalysis.Interpolation, false
TestParameter, AutoAnalysis.Line1.Enabled, false
TestParameter, AutoAnalysis.Line1.Type, 1
TestParameter, AutoAnalysis.Line1.Fix, True
TestParameter, AutoAnalysis.Line1.YAxis, 0
TestParameter, AutoAnalysis.Line1.Point1.Type, 0
TestParameter, AutoAnalysis.Line1.Point1.XY.X, 
TestParameter, AutoAnalysis.Line1.Point1.XY.Y, 
TestParameter, AutoAnalysis.Line1.Point1.Data.Var, 
TestParameter, AutoAnalysis.Line1.Point1.Data.Condition, 
TestParameter, AutoAnalysis.Line1.Point1.Data.Start, false
TestParameter, AutoAnalysis.Line1.Point1.Data.StartVar, 
TestParameter, AutoAnalysis.Line1.Point1.Data.StartCondition, 
TestParameter, AutoAnalysis.Line1.Point2.Type, 0
TestParameter, AutoAnalysis.Line1.Point2.XY.X, 
TestParameter, AutoAnalysis.Line1.Point2.XY.Y, 
TestParameter, AutoAnalysis.Line1.Point2.Data.Var, 
TestParameter, AutoAnalysis.Line1.Point2.Data.Condition, 
TestParameter, AutoAnalysis.Line1.Point2.Data.Start, false
TestParameter, AutoAnalysis.Line1.Point2.Data.StartVar, 
TestParameter, AutoAnalysis.Line1.Point2.Data.StartCondition, 
TestParameter, AutoAnalysis.Line1.GradientExpr, 0
TestParameter, AutoAnalysis.Line2.Enabled, false
TestParameter, AutoAnalysis.Line2.Type, 1
TestParameter, AutoAnalysis.Line2.Fix, True
TestParameter, AutoAnalysis.Line2.YAxis, 0
TestParameter, AutoAnalysis.Line2.Point1.Type, 0
TestParameter, AutoAnalysis.Line2.Point1.XY.X, 
TestParameter, AutoAnalysis.Line2.Point1.XY.Y, 
TestParameter, AutoAnalysis.Line2.Point1.Data.Var, 
TestParameter, AutoAnalysis.Line2.Point1.Data.Condition, 
TestParameter, AutoAnalysis.Line2.Point1.Data.Start, false
TestParameter, AutoAnalysis.Line2.Point1.Data.StartVar, 
TestParameter, AutoAnalysis.Line2.Point1.Data.StartCondition, 
TestParameter, AutoAnalysis.Line2.Point2.Type, 0
TestParameter, AutoAnalysis.Line2.Point2.XY.X, 
TestParameter, AutoAnalysis.Line2.Point2.XY.Y, 
TestParameter, AutoAnalysis.Line2.Point2.Data.Var, 
TestParameter, AutoAnalysis.Line2.Point2.Data.Condition, 
TestParameter, AutoAnalysis.Line2.Point2.Data.Start, false
TestParameter, AutoAnalysis.Line2.Point2.Data.StartVar, 
TestParameter, AutoAnalysis.Line2.Point2.Data.StartCondition, 
TestParameter, AutoAnalysis.Line2.GradientExpr, 0
TestParameter, AutoAnalysis.Marker.Enabled, false
TestParameter, AutoAnalysis.Marker.Data.Var, 
TestParameter, AutoAnalysis.Marker.Data.Condition, 
TestParameter, AutoAnalysis.Marker.Data.Start, false
TestParameter, AutoAnalysis.Marker.Data.StartVar, 
TestParameter, AutoAnalysis.Marker.Data.StartCondition, 
MetaData, TestRecord.EntryPoint, true
MetaData, TestRecord.RecordTime, 03/10/2023 16:33:34
MetaData, TestRecord.TestTarget, 
MetaData, TestRecord.IterationIndex, 17
MetaData, TestRecord.Preservation, true
MetaData, TestRecord.Flag, 
MetaData, TestRecord.Remarks, 
MetaData, TestRecord.LinkKey, 5230101b-6bf5-4ff2-ba2b-1e9a8963a66b
Dimension1, 402, 402, 402, 402, 402, 402, 402, 402
Dimension2, 1, 1, 1, 1, 1, 1, 1, 1
DataName, V1, V2, I1, I2, V3, I3, V4, I4
DataValue, -2, 0.25, -5.14E-12, 2.655E-11, , , , 
DataValue, -1.96, 0.25, -2.69E-12, 2.7430000000000002E-11, , , , 
DataValue, -1.92, 0.25, -1.5200000000000002E-12, 2.7030000000000003E-11, , , , 
DataValue, -1.8800000000000001, 0.25, -1.6600000000000002E-12, 2.5320000000000003E-11, , , , 
DataValue, -1.84, 0.25, -1.6300000000000001E-12, 2.5790000000000002E-11, , , , 
DataValue, -1.8, 0.25, -1.3500000000000001E-12, 2.6500000000000002E-11, , , , 
DataValue, -1.76, 0.25, -1.27E-12, 2.7140000000000003E-11, , , , 
DataValue, -1.72, 0.25, -1.5300000000000001E-12, 2.6680000000000002E-11, , , , 
DataValue, -1.68, 0.25, -2.08E-12, 2.504E-11, , , , 
DataValue, -1.6400000000000001, 0.25, -1.45E-12, 2.604E-11, , , , 
DataValue, -1.6, 0.25, -1.12E-12, 2.653E-11, , , , 
DataValue, -1.56, 0.25, -1.0100000000000001E-12, 2.7290000000000003E-11, , , , 
DataValue, -1.52, 0.25, -1.2000000000000002E-13, 2.6320000000000003E-11, , , , 
DataValue, -1.48, 0.25, -7.9000000000000007E-13, 2.458E-11, , , , 
DataValue, -1.44, 0.25, -2.5E-13, 2.6580000000000003E-11, , , , 
DataValue, -1.4000000000000001, 0.25, 0, 2.6900000000000002E-11, , , , 
DataValue, -1.36, 0.25, -3.5E-13, 2.704E-11, , , , 
DataValue, -1.32, 0.25, -5.7E-13, 2.5520000000000003E-11, , , , 
DataValue, -1.28, 0.25, -4.8000000000000008E-13, 2.5370000000000002E-11, , , , 
DataValue, -1.24, 0.25, -3.0000000000000005E-14, 2.6770000000000002E-11, , , , 
DataValue, -1.2, 0.25, 1.6000000000000003E-13, 2.6690000000000004E-11, , , , 
DataValue, -1.16, 0.25, 3.7000000000000004E-13, 2.5700000000000002E-11, , , , 
DataValue, -1.12, 0.25, -2.6E-13, 2.507E-11, , , , 
DataValue, -1.08, 0.25, 5.5000000000000008E-13, 2.631E-11, , , , 
DataValue, -1.04, 0.25, -8.0000000000000013E-14, 2.7500000000000002E-11, , , , 
DataValue, -1, 0.25, 4.1E-13, 2.726E-11, , , , 
DataValue, -0.96, 0.25, 1.3E-13, 2.5430000000000003E-11, , , , 
DataValue, -0.92, 0.25, -6.0000000000000009E-14, 2.573E-11, , , , 
DataValue, -0.88, 0.25, 6.8E-13, 2.6880000000000002E-11, , , , 
DataValue, -0.84, 0.25, 2.0000000000000003E-14, 2.717E-11, , , , 
DataValue, -0.8, 0.25, 1.1900000000000002E-12, 2.7180000000000003E-11, , , , 
DataValue, -0.76, 0.25, 5.2E-13, 2.6390000000000002E-11, , , , 
DataValue, -0.72, 0.25, 5.6E-13, 2.6580000000000003E-11, , , , 
DataValue, -0.68, 0.25, 2.1000000000000001E-13, 2.7270000000000003E-11, , , , 
DataValue, -0.64, 0.25, 5.3000000000000006E-13, 2.7830000000000002E-11, , , , 
DataValue, -0.6, 0.25, 4.2000000000000003E-13, 2.6450000000000003E-11, , , , 
DataValue, -0.56, 0.25, 2E-13, 2.58E-11, , , , 
DataValue, -0.52, 0.25, 8.8000000000000009E-13, 2.7120000000000002E-11, , , , 
DataValue, -0.48, 0.25, 3.2000000000000005E-13, 2.762E-11, , , , 
DataValue, -0.44, 0.25, 9.5E-13, 2.6780000000000003E-11, , , , 
DataValue, -0.4, 0.25, 1.5000000000000002E-13, 2.549E-11, , , , 
DataValue, -0.36, 0.25, 7.100000000000001E-13, 2.644E-11, , , , 
DataValue, -0.32, 0.25, 9.4E-13, 2.7430000000000002E-11, , , , 
DataValue, -0.28, 0.25, 1.37E-12, 2.7510000000000004E-11, , , , 
DataValue, -0.24, 0.25, 7.100000000000001E-13, 2.655E-11, , , , 
DataValue, -0.2, 0.25, 8.1000000000000008E-13, 2.5170000000000002E-11, , , , 
DataValue, -0.16, 0.25, 8.7E-13, 2.6850000000000003E-11, , , , 
DataValue, -0.12, 0.25, 8.6000000000000007E-13, 2.6980000000000003E-11, , , , 
DataValue, -0.08, 0.25, 1.41E-12, 2.651E-11, , , , 
DataValue, -0.04, 0.25, 9.7000000000000011E-13, 2.595E-11, , , , 
DataValue, 0, 0.25, 9.000000000000001E-13, 2.7250000000000003E-11, , , , 
DataValue, 0.04, 0.25, 8.8000000000000009E-13, 2.786E-11, , , , 
DataValue, 0.08, 0.25, 1.69E-12, 2.7670000000000003E-11, , , , 
DataValue, 0.12, 0.25, 1.85E-12, 2.6670000000000003E-11, , , , 
DataValue, 0.16, 0.25, 5.2E-13, 2.551E-11, , , , 
DataValue, 0.2, 0.25, 1.4300000000000002E-12, 2.7380000000000003E-11, , , , 
DataValue, 0.24, 0.25, 7.5E-13, 2.7080000000000002E-11, , , , 
DataValue, 0.28, 0.25, 1.4400000000000001E-12, 2.8220000000000004E-11, , , , 
DataValue, 0.32, 0.25, 5.2E-13, 2.6380000000000004E-11, , , , 
DataValue, 0.36, 0.25, 1.0500000000000002E-12, 2.706E-11, , , , 
DataValue, 0.4, 0.25, 9.8E-13, 2.8700000000000002E-11, , , , 
DataValue, 0.44, 0.25, 1.4E-12, 2.8830000000000002E-11, , , , 
DataValue, 0.48, 0.25, 1.4200000000000002E-12, 2.775E-11, , , , 
DataValue, 0.52, 0.25, 8.1000000000000008E-13, 2.7510000000000004E-11, , , , 
DataValue, 0.56, 0.25, 9.5E-13, 2.8930000000000004E-11, , , , 
DataValue, 0.6, 0.25, 1.17E-12, 2.972E-11, , , , 
DataValue, 0.64, 0.25, 1.31E-12, 3.044E-11, , , , 
DataValue, 0.68, 0.25, 1.1100000000000001E-12, 2.8090000000000003E-11, , , , 
DataValue, 0.72, 0.25, 5.1E-13, 2.786E-11, , , , 
DataValue, 0.76, 0.25, 1.17E-12, 3.023E-11, , , , 
DataValue, 0.8, 0.25, 1.03E-12, 3.071E-11, , , , 
DataValue, 0.84, 0.25, 1.26E-12, 3.165E-11, , , , 
DataValue, 0.88, 0.25, 1.5200000000000002E-12, 3.073E-11, , , , 
DataValue, 0.92, 0.25, 1.9200000000000003E-12, 3.071E-11, , , , 
DataValue, 0.96, 0.25, 1.9E-12, 3.3120000000000004E-11, , , , 
DataValue, 1, 0.25, 1.6600000000000002E-12, 3.391E-11, , , , 
DataValue, 1.04, 0.25, 1.9200000000000003E-12, 3.46E-11, , , , 
DataValue, 1.08, 0.25, 1.2900000000000002E-12, 3.3160000000000005E-11, , , , 
DataValue, 1.12, 0.25, 1.4300000000000002E-12, 3.609E-11, , , , 
DataValue, 1.16, 0.25, 1.7700000000000001E-12, 3.788E-11, , , , 
DataValue, 1.2, 0.25, 2.23E-12, 3.8810000000000006E-11, , , , 
DataValue, 1.24, 0.25, 2.2500000000000003E-12, 3.879E-11, , , , 
DataValue, 1.28, 0.25, 9.9E-13, 3.816E-11, , , , 
DataValue, 1.32, 0.25, 1.2800000000000002E-12, 4.1360000000000006E-11, , , , 
DataValue, 1.36, 0.25, 1.4900000000000001E-12, 4.334E-11, , , , 
DataValue, 1.4000000000000001, 0.25, 1.9E-12, 4.476E-11, , , , 
DataValue, 1.44, 0.25, 1.41E-12, 4.6640000000000006E-11, , , , 
DataValue, 1.48, 0.25, 2.39E-12, 4.858E-11, , , , 
DataValue, 1.52, 0.25, 2.24E-12, 5.328E-11, , , , 
DataValue, 1.56, 0.25, 2.1000000000000003E-12, 5.6610000000000005E-11, , , , 
DataValue, 1.6, 0.25, 2.16E-12, 5.8570000000000011E-11, , , , 
DataValue, 1.6400000000000001, 0.25, 1.37E-12, 6.127E-11, , , , 
DataValue, 1.68, 0.25, 1.4700000000000002E-12, 6.741E-11, , , , 
DataValue, 1.72, 0.25, 1.2900000000000002E-12, 7.256E-11, , , , 
DataValue, 1.76, 0.25, 2E-12, 8.0190000000000009E-11, , , , 
DataValue, 1.8, 0.25, 1.46E-12, 8.471000000000001E-11, , , , 
DataValue, 1.84, 0.25, 2.42E-12, 9.302E-11, , , , 
DataValue, 1.8800000000000001, 0.25, 2.3300000000000004E-12, 1.0341000000000001E-10, , , , 
DataValue, 1.92, 0.25, 1.74E-12, 1.1471000000000001E-10, , , , 
DataValue, 1.96, 0.25, 2.1200000000000003E-12, 1.2746000000000002E-10, , , , 
DataValue, 2, 0.25, 2.1000000000000003E-12, 1.4271000000000002E-10, , , , 
DataValue, 2.04, 0.25, 1.8400000000000002E-12, 1.5999E-10, , , , 
DataValue, 2.08, 0.25, 2.11E-12, 1.8282000000000002E-10, , , , 
DataValue, 2.12, 0.25, 1.6E-12, 2.0795000000000002E-10, , , , 
DataValue, 2.16, 0.25, 2.18E-12, 2.3810000000000004E-10, , , , 
DataValue, 2.2, 0.25, 1.5E-12, 2.7235000000000005E-10, , , , 
DataValue, 2.24, 0.25, 2.4500000000000003E-12, 3.1507000000000003E-10, , , , 
DataValue, 2.2800000000000002, 0.25, 1.5800000000000001E-12, 3.6948000000000005E-10, , , , 
DataValue, 2.32, 0.25, 2.9400000000000004E-12, 4.3102000000000003E-10, , , , 
DataValue, 2.36, 0.25, 1.79E-12, 5.0365E-10, , , , 
DataValue, 2.4, 0.25, 2.0700000000000003E-12, 5.92E-10, , , , 
DataValue, 2.44, 0.25, 2.03E-12, 7.0097E-10, , , , 
DataValue, 2.48, 0.25, 2.8800000000000002E-12, 8.323100000000001E-10, , , , 
DataValue, 2.52, 0.25, 2.82E-12, 9.9074E-10, , , , 
DataValue, 2.56, 0.25, 1.9400000000000002E-12, 1.4022E-09, , , , 
DataValue, 2.6, 0.25, 2.3200000000000002E-12, 1.651E-09, , , , 
DataValue, 2.64, 0.25, 2.3300000000000004E-12, 1.9529E-09, , , , 
DataValue, 2.68, 0.25, 3.02E-12, 2.3204E-09, , , , 
DataValue, 2.72, 0.25, 1.8400000000000002E-12, 2.7679E-09, , , , 
DataValue, 2.7600000000000002, 0.25, 2.14E-12, 3.3316E-09, , , , 
DataValue, 2.8000000000000003, 0.25, 2.11E-12, 4.0166E-09, , , , 
DataValue, 2.84, 0.25, 3.2400000000000003E-12, 4.8469E-09, , , , 
DataValue, 2.88, 0.25, 2.29E-12, 5.8731E-09, , , , 
DataValue, 2.92, 0.25, 2.82E-12, 7.1356E-09, , , , 
DataValue, 2.96, 0.25, 2.1500000000000003E-12, 8.7206E-09, , , , 
DataValue, 3, 0.25, 2.49E-12, 1.06938E-08, , , , 
DataValue, 3.04, 0.25, 2.4800000000000003E-12, 1.36756E-08, , , , 
DataValue, 3.08, 0.25, 2.9900000000000004E-12, 1.69446E-08, , , , 
DataValue, 3.12, 0.25, 2.9E-12, 2.1052399999999997E-08, , , , 
DataValue, 3.16, 0.25, 3.0400000000000004E-12, 2.6122199999999998E-08, , , , 
DataValue, 3.2, 0.25, 2.9E-12, 3.2527799999999994E-08, , , , 
DataValue, 3.24, 0.25, 2.4800000000000003E-12, 4.0582E-08, , , , 
DataValue, 3.2800000000000002, 0.25, 2.9100000000000003E-12, 5.05742E-08, , , , 
DataValue, 3.3200000000000003, 0.25, 3.25E-12, 6.33114E-08, , , , 
DataValue, 3.36, 0.25, 3.3100000000000002E-12, 7.87724E-08, , , , 
DataValue, 3.4, 0.25, 2.8900000000000004E-12, 9.82338E-08, , , , 
DataValue, 3.44, 0.25, 2.59E-12, 1.2573999999999999E-07, , , , 
DataValue, 3.48, 0.25, 3.2200000000000004E-12, 1.5348E-07, , , , 
DataValue, 3.52, 0.25, 3.0800000000000002E-12, 1.8668E-07, , , , 
DataValue, 3.56, 0.25, 2.6800000000000003E-12, 2.2664E-07, , , , 
DataValue, 3.6, 0.25, 3.3900000000000003E-12, 2.7562E-07, , , , 
DataValue, 3.64, 0.25, 3.51E-12, 3.3566E-07, , , , 
DataValue, 3.68, 0.25, 2.3800000000000004E-12, 4.0644E-07, , , , 
DataValue, 3.72, 0.25, 3.25E-12, 4.9206E-07, , , , 
DataValue, 3.7600000000000002, 0.25, 3.3700000000000004E-12, 5.9392E-07, , , , 
DataValue, 3.8000000000000003, 0.25, 2.8400000000000004E-12, 7.1546E-07, , , , 
DataValue, 3.84, 0.25, 3.6900000000000006E-12, 8.5742E-07, , , , 
DataValue, 3.88, 0.25, 3.87E-12, 1.0196E-06, , , , 
DataValue, 3.92, 0.25, 2.19E-12, 1.4502000000000001E-06, , , , 
DataValue, 3.96, 0.25, 3.9400000000000006E-12, 1.6885000000000002E-06, , , , 
DataValue, 4, 0.25, 3E-12, 1.964E-06, , , , 
DataValue, 4.04, 0.25, 3.3900000000000003E-12, 2.2772000000000004E-06, , , , 
DataValue, 4.08, 0.25, 3.2900000000000003E-12, 2.6373E-06, , , , 
DataValue, 4.12, 0.25, 3.2900000000000003E-12, 3.0452000000000005E-06, , , , 
DataValue, 4.16, 0.25, 4.02E-12, 3.5027000000000004E-06, , , , 
DataValue, 4.2, 0.25, 3.9900000000000006E-12, 4.0298000000000008E-06, , , , 
DataValue, 4.24, 0.25, 2.8100000000000003E-12, 4.5980000000000007E-06, , , , 
DataValue, 4.28, 0.25, 4.37E-12, 5.2445E-06, , , , 
DataValue, 4.32, 0.25, 3.9900000000000006E-12, 5.9594000000000009E-06, , , , 
DataValue, 4.36, 0.25, 3.75E-12, 6.7605000000000007E-06, , , , 
DataValue, 4.4, 0.25, 4.36E-12, 7.6414000000000011E-06, , , , 
DataValue, 4.44, 0.25, 3.5500000000000004E-12, 8.635700000000001E-06, , , , 
DataValue, 4.48, 0.25, 3.33E-12, 9.7002E-06, , , , 
DataValue, 4.5200000000000005, 0.25, 3.4000000000000005E-12, 1.08559E-05, , , , 
DataValue, 4.5600000000000005, 0.25, 4.27E-12, 1.3136000000000001E-05, , , , 
DataValue, 4.6000000000000005, 0.25, 3.86E-12, 1.451E-05, , , , 
DataValue, 4.64, 0.25, 3.77E-12, 1.5988E-05, , , , 
DataValue, 4.68, 0.25, 4.6100000000000008E-12, 1.7554E-05, , , , 
DataValue, 4.72, 0.25, 4.32E-12, 1.9220000000000002E-05, , , , 
DataValue, 4.76, 0.25, 4.0500000000000007E-12, 2.0986000000000002E-05, , , , 
DataValue, 4.8, 0.25, 3.67E-12, 2.2818E-05, , , , 
DataValue, 4.84, 0.25, 4.6500000000000006E-12, 2.4804000000000002E-05, , , , 
DataValue, 4.88, 0.25, 4.08E-12, 2.6876E-05, , , , 
DataValue, 4.92, 0.25, 4.06E-12, 2.9036E-05, , , , 
DataValue, 4.96, 0.25, 4.94E-12, 3.1284E-05, , , , 
DataValue, 5, 0.25, 4.62E-12, 3.3602E-05, , , , 
DataValue, 5.04, 0.25, 3.56E-12, 3.5998E-05, , , , 
DataValue, 5.08, 0.25, 4.9600000000000007E-12, 3.8468E-05, , , , 
DataValue, 5.12, 0.25, 4.98E-12, 4.1020000000000004E-05, , , , 
DataValue, 5.16, 0.25, 5.13E-12, 4.363E-05, , , , 
DataValue, 5.2, 0.25, 4.7000000000000006E-12, 4.6306E-05, , , , 
DataValue, 5.24, 0.25, 5.8300000000000008E-12, 4.9086000000000004E-05, , , , 
DataValue, 5.28, 0.25, 5.6100000000000005E-12, 5.1914000000000005E-05, , , , 
DataValue, 5.32, 0.25, 4.6500000000000006E-12, 5.4808E-05, , , , 
DataValue, 5.36, 0.25, 4.6400000000000004E-12, 5.7744E-05, , , , 
DataValue, 5.4, 0.25, 5.23E-12, 6.0678000000000004E-05, , , , 
DataValue, 5.44, 0.25, 5.5100000000000006E-12, 6.3666E-05, , , , 
DataValue, 5.48, 0.25, 5.8600000000000005E-12, 6.6662E-05, , , , 
DataValue, 5.5200000000000005, 0.25, 5.7800000000000008E-12, 6.9664E-05, , , , 
DataValue, 5.5600000000000005, 0.25, 5.9300000000000008E-12, 7.2752E-05, , , , 
DataValue, 5.6000000000000005, 0.25, 4.6100000000000008E-12, 7.5912E-05, , , , 
DataValue, 5.64, 0.25, 5.85E-12, 7.9106E-05, , , , 
DataValue, 5.68, 0.25, 5.89E-12, 8.2296E-05, , , , 
DataValue, 5.72, 0.25, 5.5200000000000007E-12, 8.5534E-05, , , , 
DataValue, 5.76, 0.25, 6.3E-12, 8.878E-05, , , , 
DataValue, 5.8, 0.25, 5.9800000000000008E-12, 9.2068E-05, , , , 
DataValue, 5.84, 0.25, 6.26E-12, 9.5368E-05, , , , 
DataValue, 5.88, 0.25, 5.74E-12, 9.869200000000001E-05, , , , 
DataValue, 5.92, 0.25, 6.5900000000000008E-12, 0.00010205400000000001, , , , 
DataValue, 5.96, 0.25, 5.3100000000000006E-12, 0.0001054, , , , 
DataValue, 6, 0.25, 6.5800000000000006E-12, 0.00010876000000000001, , , , 
DataValue, 6, 0.25, 5.8700000000000006E-12, 0.000109362, , , , 
DataValue, 5.96, 0.25, 4.99E-12, 0.000112082, , , , 
DataValue, 5.92, 0.25, 5.0000000000000005E-12, 0.00011443, , , , 
DataValue, 5.88, 0.25, 4.11E-12, 0.00011750000000000001, , , , 
DataValue, 5.84, 0.25, 4.23E-12, 0.00011916, , , , 
DataValue, 5.8, 0.25, 4.26E-12, 0.00012062000000000001, , , , 
DataValue, 5.76, 0.25, 3.7800000000000005E-12, 0.00012186, , , , 
DataValue, 5.72, 0.25, 3.1600000000000003E-12, 0.00012286, , , , 
