
SetupTitle, ID-VG Postbreak
PrimitiveTest, I/V Sweep
TestParameter, Context.MainFrame, B1500A
TestParameter, Channel.UnitType, SMU, SMU
TestParameter, Channel.Unit, SMU1:MP, SMU2:MP
TestParameter, Channel.IName, I1, I2
TestParameter, Channel.VName, V1, V2
TestParameter, Channel.Mode, V, V
TestParameter, Channel.Func, VAR1, CONST
TestParameter, Channel.Index, 
TestParameter, Channel.Time, 
TestParameter, Measurement.Port.Unit, SMU1:MP, SMU2:MP
TestParameter, Measurement.Port.SeriesResistor, NONE, NONE
TestParameter, Measurement.Port.Filter, ON, ON
TestParameter, Measurement.Port.OutputVoltageComparison, 0, 0
TestParameter, Measurement.Primary.Locus, Double
TestParameter, Measurement.Primary.Scale, LINEAR
TestParameter, Measurement.Primary.Start, -2
TestParameter, Measurement.Primary.Stop, 6
TestParameter, Measurement.Primary.Step, 0.04
TestParameter, Measurement.Primary.Compliance, 0.1
TestParameter, Measurement.Primary.PowerCompliance, 0
TestParameter, Measurement.Aborting.Condition, CONTINUE AT ANY
TestParameter, Measurement.PostOutput.Value, START
TestParameter, Measurement.PostOutput.Retention, OFF
TestParameter, Measurement.Bias.Source, -2, 0.25
TestParameter, Measurement.Bias.Compliance, 0.1, 0.1
TestParameter, Measurement.Monitor.Unit, SMU1:MP, SMU2:MP
TestParameter, Measurement.Monitor.Adc, HR ADC, HR ADC
TestParameter, Measurement.Monitor.Measurement, Compliance Side, Compliance Side
TestParameter, Measurement.Monitor.RangingMode, LIMITED, LIMITED
TestParameter, Measurement.Monitor.RangeBoundary, 1nA, 1nA
TestParameter, Measurement.Monitor.RangeRating, BY FULL RANGE, BY FULL RANGE
TestParameter, Measurement.Monitor.RangeRatingCoeff, 50, 50
TestParameter, Measurement.Timing.Hold, 0
TestParameter, Measurement.Timing.Delay, 0
TestParameter, Measurement.Adc.HighSpeed.Mode, AUTO
TestParameter, Measurement.Adc.HighSpeed.Coeff, 1
TestParameter, Measurement.Adc.HighResolution.AutoZero, OFF
TestParameter, Measurement.Adc.HighResolution.Mode, AUTO
TestParameter, Measurement.Adc.HighResolution.Coeff, 6
TestParameter, Measurement.WaitTime.Source.Coeff, 1
TestParameter, Measurement.WaitTime.Source.Offset, 0
TestParameter, Measurement.WaitTime.Monitor.Coeff, 1
TestParameter, Measurement.WaitTime.Monitor.Offset, 0
TestParameter, Output.Graph.Enabled, true
TestParameter, Output.Graph.AutoScaling, false
TestParameter, Output.Graph.XAxis.Data, V1
TestParameter, Output.Graph.XAxis.Scale, Linear
TestParameter, Output.Graph.XAxis.Left, -2
TestParameter, Output.Graph.XAxis.Right, 6
TestParameter, Output.Graph.XAxis.RunTimeAutoScale, true
TestParameter, Output.Graph.YAxis.Data, I2
TestParameter, Output.Graph.YAxis.Scale, Linear
TestParameter, Output.Graph.YAxis.Bottom, -0.1
TestParameter, Output.Graph.YAxis.Top, 0.1
TestParameter, Output.Graph.YAxis.Group, 
TestParameter, Output.Graph.YAxis.RunTimeAutoScale, true
TestParameter, Output.List.Data, V1, I1, V2, I2, V3, I3, V4, I4
TestParameter, AutoAnalysis.Interpolation, false
TestParameter, AutoAnalysis.Line1.Enabled, false
TestParameter, AutoAnalysis.Line1.Type, 1
TestParameter, AutoAnalysis.Line1.Fix, True
TestParameter, AutoAnalysis.Line1.YAxis, 0
TestParameter, AutoAnalysis.Line1.Point1.Type, 0
TestParameter, AutoAnalysis.Line1.Point1.XY.X, 
TestParameter, AutoAnalysis.Line1.Point1.XY.Y, 
TestParameter, AutoAnalysis.Line1.Point1.Data.Var, 
TestParameter, AutoAnalysis.Line1.Point1.Data.Condition, 
TestParameter, AutoAnalysis.Line1.Point1.Data.Start, false
TestParameter, AutoAnalysis.Line1.Point1.Data.StartVar, 
TestParameter, AutoAnalysis.Line1.Point1.Data.StartCondition, 
TestParameter, AutoAnalysis.Line1.Point2.Type, 0
TestParameter, AutoAnalysis.Line1.Point2.XY.X, 
TestParameter, AutoAnalysis.Line1.Point2.XY.Y, 
TestParameter, AutoAnalysis.Line1.Point2.Data.Var, 
TestParameter, AutoAnalysis.Line1.Point2.Data.Condition, 
TestParameter, AutoAnalysis.Line1.Point2.Data.Start, false
TestParameter, AutoAnalysis.Line1.Point2.Data.StartVar, 
TestParameter, AutoAnalysis.Line1.Point2.Data.StartCondition, 
TestParameter, AutoAnalysis.Line1.GradientExpr, 0
TestParameter, AutoAnalysis.Line2.Enabled, false
TestParameter, AutoAnalysis.Line2.Type, 1
TestParameter, AutoAnalysis.Line2.Fix, True
TestParameter, AutoAnalysis.Line2.YAxis, 0
TestParameter, AutoAnalysis.Line2.Point1.Type, 0
TestParameter, AutoAnalysis.Line2.Point1.XY.X, 
TestParameter, AutoAnalysis.Line2.Point1.XY.Y, 
TestParameter, AutoAnalysis.Line2.Point1.Data.Var, 
TestParameter, AutoAnalysis.Line2.Point1.Data.Condition, 
TestParameter, AutoAnalysis.Line2.Point1.Data.Start, false
TestParameter, AutoAnalysis.Line2.Point1.Data.StartVar, 
TestParameter, AutoAnalysis.Line2.Point1.Data.StartCondition, 
TestParameter, AutoAnalysis.Line2.Point2.Type, 0
TestParameter, AutoAnalysis.Line2.Point2.XY.X, 
TestParameter, AutoAnalysis.Line2.Point2.XY.Y, 
TestParameter, AutoAnalysis.Line2.Point2.Data.Var, 
TestParameter, AutoAnalysis.Line2.Point2.Data.Condition, 
TestParameter, AutoAnalysis.Line2.Point2.Data.Start, false
TestParameter, AutoAnalysis.Line2.Point2.Data.StartVar, 
TestParameter, AutoAnalysis.Line2.Point2.Data.StartCondition, 
TestParameter, AutoAnalysis.Line2.GradientExpr, 0
TestParameter, AutoAnalysis.Marker.Enabled, false
TestParameter, AutoAnalysis.Marker.Data.Var, 
TestParameter, AutoAnalysis.Marker.Data.Condition, 
TestParameter, AutoAnalysis.Marker.Data.Start, false
TestParameter, AutoAnalysis.Marker.Data.StartVar, 
TestParameter, AutoAnalysis.Marker.Data.StartCondition, 
MetaData, TestRecord.EntryPoint, true
MetaData, TestRecord.RecordTime, 03/10/2023 16:31:24
MetaData, TestRecord.TestTarget, 
MetaData, TestRecord.IterationIndex, 15
MetaData, TestRecord.Preservation, true
MetaData, TestRecord.Flag, 
MetaData, TestRecord.Remarks, 
MetaData, TestRecord.LinkKey, 18963655-78f6-49f8-b878-df7baf26e86a
Dimension1, 402, 402, 402, 402, 402, 402, 402, 402
Dimension2, 1, 1, 1, 1, 1, 1, 1, 1
DataName, V1, V2, I1, I2, V3, I3, V4, I4
DataValue, -2, 0.25, -7.95E-12, 2.229E-11, , , , 
DataValue, -1.96, 0.25, -5.0500000000000005E-12, 2.107E-11, , , , 
DataValue, -1.92, 0.25, -3.2400000000000003E-12, 2.0090000000000002E-11, , , , 
DataValue, -1.8800000000000001, 0.25, -3.38E-12, 2.074E-11, , , , 
DataValue, -1.84, 0.25, -2.9400000000000004E-12, 2.22E-11, , , , 
DataValue, -1.8, 0.25, -2.6300000000000003E-12, 2.1950000000000002E-11, , , , 
DataValue, -1.76, 0.25, -1.5E-12, 2.1640000000000002E-11, , , , 
DataValue, -1.72, 0.25, -2.51E-12, 1.9220000000000003E-11, , , , 
DataValue, -1.68, 0.25, -1.69E-12, 2.112E-11, , , , 
DataValue, -1.6400000000000001, 0.25, -1.3000000000000001E-12, 2.0840000000000002E-11, , , , 
DataValue, -1.6, 0.25, -8.5000000000000011E-13, 2.271E-11, , , , 
DataValue, -1.56, 0.25, -6.5000000000000006E-13, 2.123E-11, , , , 
DataValue, -1.52, 0.25, -6.7000000000000007E-13, 1.9550000000000003E-11, , , , 
DataValue, -1.48, 0.25, -6.7000000000000007E-13, 2.1440000000000002E-11, , , , 
DataValue, -1.44, 0.25, -5.3000000000000006E-13, 2.2500000000000003E-11, , , , 
DataValue, -1.4000000000000001, 0.25, -3.0000000000000003E-13, 2.187E-11, , , , 
DataValue, -1.36, 0.25, -9.000000000000001E-13, 2.019E-11, , , , 
DataValue, -1.32, 0.25, -1.2000000000000002E-13, 2.1880000000000003E-11, , , , 
DataValue, -1.28, 0.25, 3.9000000000000005E-13, 2.2E-11, , , , 
DataValue, -1.24, 0.25, -1.8000000000000002E-13, 2.183E-11, , , , 
DataValue, -1.2, 0.25, 3.1000000000000004E-13, 2.0370000000000003E-11, , , , 
DataValue, -1.16, 0.25, 2.9000000000000003E-13, 2.054E-11, , , , 
DataValue, -1.12, 0.25, 2.7E-13, 2.1930000000000002E-11, , , , 
DataValue, -1.08, 0.25, 3.5E-13, 2.229E-11, , , , 
DataValue, -1.04, 0.25, 6.8E-13, 2.183E-11, , , , 
DataValue, -1, 0.25, 3.7000000000000004E-13, 1.967E-11, , , , 
DataValue, -0.96, 0.25, 8.4000000000000006E-13, 2.1530000000000002E-11, , , , 
DataValue, -0.92, 0.25, 5.4E-13, 2.1220000000000002E-11, , , , 
DataValue, -0.88, 0.25, 1.5400000000000001E-12, 2.1570000000000003E-11, , , , 
DataValue, -0.84, 0.25, 6.6E-13, 2.0090000000000002E-11, , , , 
DataValue, -0.8, 0.25, 4.3000000000000004E-13, 1.99E-11, , , , 
DataValue, -0.76, 0.25, 1.1000000000000002E-12, 2.216E-11, , , , 
DataValue, -0.72, 0.25, 4.7E-13, 2.152E-11, , , , 
DataValue, -0.68, 0.25, 1.26E-12, 2.0950000000000003E-11, , , , 
DataValue, -0.64, 0.25, 8.2E-13, 1.9660000000000003E-11, , , , 
DataValue, -0.6, 0.25, 3.6000000000000003E-13, 2.043E-11, , , , 
DataValue, -0.56, 0.25, 2.8E-13, 2.1460000000000003E-11, , , , 
DataValue, -0.52, 0.25, 1.5300000000000001E-12, 2.167E-11, , , , 
DataValue, -0.48, 0.25, 1.2000000000000001E-12, 2.025E-11, , , , 
DataValue, -0.44, 0.25, 1.1000000000000002E-12, 1.939E-11, , , , 
DataValue, -0.4, 0.25, 1.2800000000000002E-12, 2.1220000000000002E-11, , , , 
DataValue, -0.36, 0.25, 6.400000000000001E-13, 2.167E-11, , , , 
DataValue, -0.32, 0.25, 1.5200000000000002E-12, 2.0640000000000003E-11, , , , 
DataValue, -0.28, 0.25, 1.2000000000000001E-12, 2.0200000000000002E-11, , , , 
DataValue, -0.24, 0.25, 1.03E-12, 1.9980000000000002E-11, , , , 
DataValue, -0.2, 0.25, 1.46E-12, 2.1840000000000002E-11, , , , 
DataValue, -0.16, 0.25, 1.4200000000000002E-12, 2.192E-11, , , , 
DataValue, -0.12, 0.25, 2.16E-12, 2.136E-11, , , , 
DataValue, -0.08, 0.25, 1.03E-12, 1.977E-11, , , , 
DataValue, -0.04, 0.25, 1.2900000000000002E-12, 2.1600000000000002E-11, , , , 
DataValue, 0, 0.25, 1.1600000000000001E-12, 2.1550000000000002E-11, , , , 
DataValue, 0.04, 0.25, 2.09E-12, 2.1240000000000002E-11, , , , 
DataValue, 0.08, 0.25, 1.9200000000000003E-12, 2.099E-11, , , , 
DataValue, 0.12, 0.25, 6.0000000000000007E-13, 1.903E-11, , , , 
DataValue, 0.16, 0.25, 1.98E-12, 2.127E-11, , , , 
DataValue, 0.2, 0.25, 1.3000000000000001E-12, 2.0510000000000002E-11, , , , 
DataValue, 0.24, 0.25, 1.8900000000000002E-12, 2.0350000000000003E-11, , , , 
DataValue, 0.28, 0.25, 1.7500000000000002E-12, 2.039E-11, , , , 
DataValue, 0.32, 0.25, 1.6600000000000002E-12, 2.054E-11, , , , 
DataValue, 0.36, 0.25, 2.1000000000000003E-12, 2.1640000000000002E-11, , , , 
DataValue, 0.4, 0.25, 1.8000000000000002E-12, 2.147E-11, , , , 
DataValue, 0.44, 0.25, 2.34E-12, 2.098E-11, , , , 
DataValue, 0.48, 0.25, 1.8700000000000003E-12, 1.934E-11, , , , 
DataValue, 0.52, 0.25, 2.18E-12, 2.078E-11, , , , 
DataValue, 0.56, 0.25, 2.03E-12, 2.1880000000000003E-11, , , , 
DataValue, 0.6, 0.25, 2.7100000000000004E-12, 2.1510000000000002E-11, , , , 
DataValue, 0.64, 0.25, 1.79E-12, 2.112E-11, , , , 
DataValue, 0.68, 0.25, 1.13E-12, 1.9420000000000002E-11, , , , 
DataValue, 0.72, 0.25, 2.03E-12, 2.1330000000000002E-11, , , , 
DataValue, 0.76, 0.25, 1.7700000000000001E-12, 2.15E-11, , , , 
DataValue, 0.8, 0.25, 2.49E-12, 2.1820000000000002E-11, , , , 
DataValue, 0.84, 0.25, 2.92E-12, 1.959E-11, , , , 
DataValue, 0.88, 0.25, 2.3200000000000002E-12, 1.9930000000000003E-11, , , , 
DataValue, 0.92, 0.25, 1.98E-12, 2.141E-11, , , , 
DataValue, 0.96, 0.25, 1.8100000000000002E-12, 2.1020000000000002E-11, , , , 
DataValue, 1, 0.25, 2.39E-12, 2.05E-11, , , , 
DataValue, 1.04, 0.25, 2.08E-12, 1.9690000000000002E-11, , , , 
DataValue, 1.08, 0.25, 2.34E-12, 2.1080000000000003E-11, , , , 
DataValue, 1.12, 0.25, 2.3000000000000003E-12, 2.178E-11, , , , 
DataValue, 1.16, 0.25, 3.1100000000000003E-12, 2.0640000000000003E-11, , , , 
DataValue, 1.2, 0.25, 2.6600000000000004E-12, 2.014E-11, , , , 
DataValue, 1.24, 0.25, 2.8100000000000003E-12, 1.9400000000000002E-11, , , , 
DataValue, 1.28, 0.25, 2.5600000000000004E-12, 2.107E-11, , , , 
DataValue, 1.32, 0.25, 2.8400000000000004E-12, 2.1840000000000002E-11, , , , 
DataValue, 1.36, 0.25, 3.25E-12, 2.0690000000000002E-11, , , , 
DataValue, 1.4000000000000001, 0.25, 2.82E-12, 1.987E-11, , , , 
DataValue, 1.44, 0.25, 2.87E-12, 2.127E-11, , , , 
DataValue, 1.48, 0.25, 3.2E-12, 2.2130000000000002E-11, , , , 
DataValue, 1.52, 0.25, 3.5000000000000004E-12, 2.076E-11, , , , 
DataValue, 1.56, 0.25, 3.2700000000000004E-12, 2.014E-11, , , , 
DataValue, 1.6, 0.25, 3.1700000000000004E-12, 2.101E-11, , , , 
DataValue, 1.6400000000000001, 0.25, 2.85E-12, 2.192E-11, , , , 
DataValue, 1.68, 0.25, 3.28E-12, 2.1840000000000002E-11, , , , 
DataValue, 1.72, 0.25, 3.28E-12, 2.223E-11, , , , 
DataValue, 1.76, 0.25, 3.46E-12, 1.9930000000000003E-11, , , , 
DataValue, 1.8, 0.25, 3.6200000000000003E-12, 2.263E-11, , , , 
DataValue, 1.84, 0.25, 3.4700000000000004E-12, 2.283E-11, , , , 
DataValue, 1.8800000000000001, 0.25, 3.9E-12, 2.327E-11, , , , 
DataValue, 1.92, 0.25, 3.2E-12, 2.2460000000000002E-11, , , , 
DataValue, 1.96, 0.25, 3.7800000000000005E-12, 2.42E-11, , , , 
DataValue, 2, 0.25, 3.6400000000000006E-12, 2.6140000000000003E-11, , , , 
DataValue, 2.04, 0.25, 3.53E-12, 2.7490000000000003E-11, , , , 
DataValue, 2.08, 0.25, 4.4500000000000006E-12, 2.8560000000000003E-11, , , , 
DataValue, 2.12, 0.25, 3.67E-12, 3.0210000000000005E-11, , , , 
DataValue, 2.16, 0.25, 4.28E-12, 3.566E-11, , , , 
DataValue, 2.2, 0.25, 4.2400000000000005E-12, 4.0300000000000006E-11, , , , 
DataValue, 2.24, 0.25, 4.1000000000000007E-12, 4.679E-11, , , , 
DataValue, 2.2800000000000002, 0.25, 3.76E-12, 5.368E-11, , , , 
DataValue, 2.32, 0.25, 4.2900000000000005E-12, 6.5110000000000008E-11, , , , 
DataValue, 2.36, 0.25, 4.67E-12, 8.205E-11, , , , 
DataValue, 2.4, 0.25, 4.27E-12, 1.0326000000000001E-10, , , , 
DataValue, 2.44, 0.25, 5.3700000000000007E-12, 1.3175E-10, , , , 
DataValue, 2.48, 0.25, 4.5500000000000006E-12, 1.7074000000000002E-10, , , , 
DataValue, 2.52, 0.25, 5.1100000000000006E-12, 2.2791000000000002E-10, , , , 
DataValue, 2.56, 0.25, 4.56E-12, 3.0451E-10, , , , 
DataValue, 2.6, 0.25, 4.17E-12, 4.0821000000000003E-10, , , , 
DataValue, 2.64, 0.25, 5.94E-12, 5.5675000000000007E-10, , , , 
DataValue, 2.68, 0.25, 5.5700000000000007E-12, 7.6296E-10, , , , 
DataValue, 2.72, 0.25, 5.8300000000000008E-12, 1.0504900000000002E-09, , , , 
DataValue, 2.7600000000000002, 0.25, 5.63E-12, 1.8034E-09, , , , 
DataValue, 2.8000000000000003, 0.25, 4.9600000000000007E-12, 2.4513E-09, , , , 
DataValue, 2.84, 0.25, 5.1600000000000006E-12, 3.349E-09, , , , 
DataValue, 2.88, 0.25, 5.24E-12, 4.5886E-09, , , , 
DataValue, 2.92, 0.25, 5.5E-12, 6.3017E-09, , , , 
DataValue, 2.96, 0.25, 5.7E-12, 8.6384E-09, , , , 
DataValue, 3, 0.25, 5.5600000000000005E-12, 1.3923799999999999E-08, , , , 
DataValue, 3.04, 0.25, 6.0100000000000004E-12, 1.9003399999999997E-08, , , , 
DataValue, 3.08, 0.25, 5.23E-12, 2.58014E-08, , , , 
DataValue, 3.12, 0.25, 5.94E-12, 3.4790199999999993E-08, , , , 
DataValue, 3.16, 0.25, 5.7100000000000005E-12, 4.6610799999999995E-08, , , , 
DataValue, 3.2, 0.25, 6.9800000000000006E-12, 6.1898999999999991E-08, , , , 
DataValue, 3.24, 0.25, 5.99E-12, 8.123359999999999E-08, , , , 
DataValue, 3.2800000000000002, 0.25, 6.61E-12, 1.0560619999999998E-07, , , , 
DataValue, 3.3200000000000003, 0.25, 6.3800000000000007E-12, 1.3408E-07, , , , 
DataValue, 3.36, 0.25, 6.46E-12, 1.6744E-07, , , , 
DataValue, 3.4, 0.25, 7.42E-12, 2.0766E-07, , , , 
DataValue, 3.44, 0.25, 6.9900000000000007E-12, 2.5608E-07, , , , 
DataValue, 3.48, 0.25, 6.8800000000000006E-12, 3.1328E-07, , , , 
DataValue, 3.52, 0.25, 6.6900000000000008E-12, 3.7925999999999997E-07, , , , 
DataValue, 3.56, 0.25, 6.9900000000000007E-12, 4.5784E-07, , , , 
DataValue, 3.6, 0.25, 6.8500000000000009E-12, 5.4948E-07, , , , 
DataValue, 3.64, 0.25, 7.5600000000000009E-12, 6.5477999999999994E-07, , , , 
DataValue, 3.68, 0.25, 8.42E-12, 7.7912E-07, , , , 
DataValue, 3.72, 0.25, 8.03E-12, 9.1706E-07, , , , 
DataValue, 3.7600000000000002, 0.25, 8.380000000000001E-12, 1.07198E-06, , , , 
DataValue, 3.8000000000000003, 0.25, 8.14E-12, 1.4214E-06, , , , 
DataValue, 3.84, 0.25, 8.83E-12, 1.6232000000000002E-06, , , , 
DataValue, 3.88, 0.25, 7.95E-12, 1.8465000000000002E-06, , , , 
DataValue, 3.92, 0.25, 8.1800000000000011E-12, 2.0952000000000003E-06, , , , 
DataValue, 3.96, 0.25, 8.75E-12, 2.3683000000000003E-06, , , , 
DataValue, 4, 0.25, 8.87E-12, 2.6668000000000005E-06, , , , 
DataValue, 4.04, 0.25, 8.780000000000001E-12, 2.9916000000000003E-06, , , , 
DataValue, 4.08, 0.25, 9.8100000000000012E-12, 3.3441000000000003E-06, , , , 
DataValue, 4.12, 0.25, 8.87E-12, 3.7238000000000002E-06, , , , 
DataValue, 4.16, 0.25, 9.190000000000001E-12, 4.1334E-06, , , , 
DataValue, 4.2, 0.25, 9.66E-12, 4.5711E-06, , , , 
DataValue, 4.24, 0.25, 9.78E-12, 5.0498E-06, , , , 
DataValue, 4.28, 0.25, 1.028E-11, 5.5414000000000008E-06, , , , 
DataValue, 4.32, 0.25, 9.97E-12, 6.0558000000000005E-06, , , , 
DataValue, 4.36, 0.25, 1.048E-11, 6.5969E-06, , , , 
DataValue, 4.4, 0.25, 1.096E-11, 7.1637000000000005E-06, , , , 
DataValue, 4.44, 0.25, 1.1210000000000001E-11, 7.7564E-06, , , , 
DataValue, 4.48, 0.25, 1.178E-11, 8.3924000000000012E-06, , , , 
DataValue, 4.5200000000000005, 0.25, 1.138E-11, 9.0253000000000015E-06, , , , 
DataValue, 4.5600000000000005, 0.25, 1.1050000000000002E-11, 9.6784E-06, , , , 
DataValue, 4.6000000000000005, 0.25, 1.178E-11, 1.03383E-05, , , , 
DataValue, 4.64, 0.25, 1.1650000000000002E-11, 1.1018500000000001E-05, , , , 
DataValue, 4.68, 0.25, 1.1520000000000001E-11, 1.2392000000000001E-05, , , , 
DataValue, 4.72, 0.25, 1.1970000000000002E-11, 1.3082000000000001E-05, , , , 
DataValue, 4.76, 0.25, 1.12E-11, 1.3782000000000001E-05, , , , 
DataValue, 4.8, 0.25, 1.2440000000000001E-11, 1.4502000000000001E-05, , , , 
DataValue, 4.84, 0.25, 1.2640000000000001E-11, 1.524E-05, , , , 
DataValue, 4.88, 0.25, 1.3470000000000001E-11, 1.5992000000000002E-05, , , , 
DataValue, 4.92, 0.25, 1.3360000000000001E-11, 1.6760000000000002E-05, , , , 
DataValue, 4.96, 0.25, 1.383E-11, 1.7544E-05, , , , 
DataValue, 5, 0.25, 1.2850000000000001E-11, 1.8336000000000002E-05, , , , 
DataValue, 5.04, 0.25, 1.392E-11, 1.9142E-05, , , , 
DataValue, 5.08, 0.25, 1.4280000000000001E-11, 1.9958E-05, , , , 
DataValue, 5.12, 0.25, 1.4070000000000001E-11, 2.0782000000000002E-05, , , , 
DataValue, 5.16, 0.25, 1.479E-11, 2.1616E-05, , , , 
DataValue, 5.2, 0.25, 1.5270000000000003E-11, 2.2446E-05, , , , 
DataValue, 5.24, 0.25, 1.5470000000000003E-11, 2.3286E-05, , , , 
DataValue, 5.28, 0.25, 1.5380000000000003E-11, 2.4156E-05, , , , 
DataValue, 5.32, 0.25, 1.544E-11, 2.5022000000000002E-05, , , , 
DataValue, 5.36, 0.25, 1.5270000000000003E-11, 2.59E-05, , , , 
DataValue, 5.4, 0.25, 1.5870000000000002E-11, 2.6784E-05, , , , 
DataValue, 5.44, 0.25, 1.582E-11, 2.7668E-05, , , , 
DataValue, 5.48, 0.25, 1.708E-11, 2.8562000000000002E-05, , , , 
DataValue, 5.5200000000000005, 0.25, 1.7310000000000003E-11, 2.9448E-05, , , , 
DataValue, 5.5600000000000005, 0.25, 1.677E-11, 3.034E-05, , , , 
DataValue, 5.6000000000000005, 0.25, 1.7360000000000002E-11, 3.1230000000000004E-05, , , , 
DataValue, 5.64, 0.25, 1.7780000000000002E-11, 3.2126000000000004E-05, , , , 
DataValue, 5.68, 0.25, 1.808E-11, 3.3016000000000004E-05, , , , 
DataValue, 5.72, 0.25, 1.763E-11, 3.3912E-05, , , , 
DataValue, 5.76, 0.25, 1.8730000000000003E-11, 3.48E-05, , , , 
DataValue, 5.8, 0.25, 1.921E-11, 3.5686000000000004E-05, , , , 
DataValue, 5.84, 0.25, 1.835E-11, 3.6562E-05, , , , 
DataValue, 5.88, 0.25, 1.894E-11, 3.7422E-05, , , , 
DataValue, 5.92, 0.25, 2.039E-11, 3.8296E-05, , , , 
DataValue, 5.96, 0.25, 1.9470000000000002E-11, 3.9160000000000005E-05, , , , 
DataValue, 6, 0.25, 1.952E-11, 4.002E-05, , , , 
DataValue, 6, 0.25, 2.0130000000000002E-11, 4.0164000000000004E-05, , , , 
DataValue, 5.96, 0.25, 1.7470000000000002E-11, 4.0788E-05, , , , 
DataValue, 5.92, 0.25, 1.697E-11, 4.1308E-05, , , , 
DataValue, 5.88, 0.25, 1.573E-11, 4.1718E-05, , , , 
DataValue, 5.84, 0.25, 1.432E-11, 4.2042E-05, , , , 
DataValue, 5.8, 0.25, 1.3990000000000002E-11, 4.2288E-05, , , , 
