
SetupTitle, ID-VG Postbreak
PrimitiveTest, I/V Sweep
TestParameter, Context.MainFrame, B1500A
TestParameter, Channel.UnitType, SMU, SMU
TestParameter, Channel.Unit, SMU1:MP, SMU2:MP
TestParameter, Channel.IName, I1, I2
TestParameter, Channel.VName, V1, V2
TestParameter, Channel.Mode, V, V
TestParameter, Channel.Func, VAR1, CONST
TestParameter, Channel.Index, 
TestParameter, Channel.Time, 
TestParameter, Measurement.Port.Unit, SMU1:MP, SMU2:MP
TestParameter, Measurement.Port.SeriesResistor, NONE, NONE
TestParameter, Measurement.Port.Filter, ON, ON
TestParameter, Measurement.Port.OutputVoltageComparison, 0, 0
TestParameter, Measurement.Primary.Locus, Double
TestParameter, Measurement.Primary.Scale, LINEAR
TestParameter, Measurement.Primary.Start, -2
TestParameter, Measurement.Primary.Stop, 6
TestParameter, Measurement.Primary.Step, 0.04
TestParameter, Measurement.Primary.Compliance, 0.1
TestParameter, Measurement.Primary.PowerCompliance, 0
TestParameter, Measurement.Aborting.Condition, CONTINUE AT ANY
TestParameter, Measurement.PostOutput.Value, START
TestParameter, Measurement.PostOutput.Retention, OFF
TestParameter, Measurement.Bias.Source, -2, 0.25
TestParameter, Measurement.Bias.Compliance, 0.1, 0.1
TestParameter, Measurement.Monitor.Unit, SMU1:MP, SMU2:MP
TestParameter, Measurement.Monitor.Adc, HR ADC, HR ADC
TestParameter, Measurement.Monitor.Measurement, Compliance Side, Compliance Side
TestParameter, Measurement.Monitor.RangingMode, LIMITED, LIMITED
TestParameter, Measurement.Monitor.RangeBoundary, 1nA, 1nA
TestParameter, Measurement.Monitor.RangeRating, BY FULL RANGE, BY FULL RANGE
TestParameter, Measurement.Monitor.RangeRatingCoeff, 50, 50
TestParameter, Measurement.Timing.Hold, 0
TestParameter, Measurement.Timing.Delay, 0
TestParameter, Measurement.Adc.HighSpeed.Mode, AUTO
TestParameter, Measurement.Adc.HighSpeed.Coeff, 1
TestParameter, Measurement.Adc.HighResolution.AutoZero, OFF
TestParameter, Measurement.Adc.HighResolution.Mode, AUTO
TestParameter, Measurement.Adc.HighResolution.Coeff, 6
TestParameter, Measurement.WaitTime.Source.Coeff, 1
TestParameter, Measurement.WaitTime.Source.Offset, 0
TestParameter, Measurement.WaitTime.Monitor.Coeff, 1
TestParameter, Measurement.WaitTime.Monitor.Offset, 0
TestParameter, Output.Graph.Enabled, true
TestParameter, Output.Graph.AutoScaling, false
TestParameter, Output.Graph.XAxis.Data, V1
TestParameter, Output.Graph.XAxis.Scale, Linear
TestParameter, Output.Graph.XAxis.Left, -2
TestParameter, Output.Graph.XAxis.Right, 6
TestParameter, Output.Graph.XAxis.RunTimeAutoScale, true
TestParameter, Output.Graph.YAxis.Data, I2
TestParameter, Output.Graph.YAxis.Scale, Linear
TestParameter, Output.Graph.YAxis.Bottom, -0.1
TestParameter, Output.Graph.YAxis.Top, 0.1
TestParameter, Output.Graph.YAxis.Group, 
TestParameter, Output.Graph.YAxis.RunTimeAutoScale, true
TestParameter, Output.List.Data, V1, I1, V2, I2, V3, I3, V4, I4
TestParameter, AutoAnalysis.Interpolation, false
TestParameter, AutoAnalysis.Line1.Enabled, false
TestParameter, AutoAnalysis.Line1.Type, 1
TestParameter, AutoAnalysis.Line1.Fix, True
TestParameter, AutoAnalysis.Line1.YAxis, 0
TestParameter, AutoAnalysis.Line1.Point1.Type, 0
TestParameter, AutoAnalysis.Line1.Point1.XY.X, 
TestParameter, AutoAnalysis.Line1.Point1.XY.Y, 
TestParameter, AutoAnalysis.Line1.Point1.Data.Var, 
TestParameter, AutoAnalysis.Line1.Point1.Data.Condition, 
TestParameter, AutoAnalysis.Line1.Point1.Data.Start, false
TestParameter, AutoAnalysis.Line1.Point1.Data.StartVar, 
TestParameter, AutoAnalysis.Line1.Point1.Data.StartCondition, 
TestParameter, AutoAnalysis.Line1.Point2.Type, 0
TestParameter, AutoAnalysis.Line1.Point2.XY.X, 
TestParameter, AutoAnalysis.Line1.Point2.XY.Y, 
TestParameter, AutoAnalysis.Line1.Point2.Data.Var, 
TestParameter, AutoAnalysis.Line1.Point2.Data.Condition, 
TestParameter, AutoAnalysis.Line1.Point2.Data.Start, false
TestParameter, AutoAnalysis.Line1.Point2.Data.StartVar, 
TestParameter, AutoAnalysis.Line1.Point2.Data.StartCondition, 
TestParameter, AutoAnalysis.Line1.GradientExpr, 0
TestParameter, AutoAnalysis.Line2.Enabled, false
TestParameter, AutoAnalysis.Line2.Type, 1
TestParameter, AutoAnalysis.Line2.Fix, True
TestParameter, AutoAnalysis.Line2.YAxis, 0
TestParameter, AutoAnalysis.Line2.Point1.Type, 0
TestParameter, AutoAnalysis.Line2.Point1.XY.X, 
TestParameter, AutoAnalysis.Line2.Point1.XY.Y, 
TestParameter, AutoAnalysis.Line2.Point1.Data.Var, 
TestParameter, AutoAnalysis.Line2.Point1.Data.Condition, 
TestParameter, AutoAnalysis.Line2.Point1.Data.Start, false
TestParameter, AutoAnalysis.Line2.Point1.Data.StartVar, 
TestParameter, AutoAnalysis.Line2.Point1.Data.StartCondition, 
TestParameter, AutoAnalysis.Line2.Point2.Type, 0
TestParameter, AutoAnalysis.Line2.Point2.XY.X, 
TestParameter, AutoAnalysis.Line2.Point2.XY.Y, 
TestParameter, AutoAnalysis.Line2.Point2.Data.Var, 
TestParameter, AutoAnalysis.Line2.Point2.Data.Condition, 
TestParameter, AutoAnalysis.Line2.Point2.Data.Start, false
TestParameter, AutoAnalysis.Line2.Point2.Data.StartVar, 
TestParameter, AutoAnalysis.Line2.Point2.Data.StartCondition, 
TestParameter, AutoAnalysis.Line2.GradientExpr, 0
TestParameter, AutoAnalysis.Marker.Enabled, false
TestParameter, AutoAnalysis.Marker.Data.Var, 
TestParameter, AutoAnalysis.Marker.Data.Condition, 
TestParameter, AutoAnalysis.Marker.Data.Start, false
TestParameter, AutoAnalysis.Marker.Data.StartVar, 
TestParameter, AutoAnalysis.Marker.Data.StartCondition, 
MetaData, TestRecord.EntryPoint, true
MetaData, TestRecord.RecordTime, 03/10/2023 16:32:49
MetaData, TestRecord.TestTarget, 
MetaData, TestRecord.IterationIndex, 16
MetaData, TestRecord.Preservation, true
MetaData, TestRecord.Flag, 
MetaData, TestRecord.Remarks, 
MetaData, TestRecord.LinkKey, 8f0f9fe2-6437-43d4-b676-eef0755d1660
Dimension1, 402, 402, 402, 402, 402, 402, 402, 402
Dimension2, 1, 1, 1, 1, 1, 1, 1, 1
DataName, V1, V2, I1, I2, V3, I3, V4, I4
DataValue, -2, 0.25, -5.6600000000000005E-12, 2.4210000000000003E-11, , , , 
DataValue, -1.96, 0.25, -3.1600000000000003E-12, 2.5190000000000002E-11, , , , 
DataValue, -1.92, 0.25, -3.25E-12, 2.609E-11, , , , 
DataValue, -1.8800000000000001, 0.25, -2.09E-12, 2.5250000000000003E-11, , , , 
DataValue, -1.84, 0.25, -2.52E-12, 2.4450000000000003E-11, , , , 
DataValue, -1.8, 0.25, -2.5600000000000004E-12, 2.591E-11, , , , 
DataValue, -1.76, 0.25, -1.45E-12, 2.569E-11, , , , 
DataValue, -1.72, 0.25, -1.07E-12, 2.5030000000000003E-11, , , , 
DataValue, -1.68, 0.25, -8.5000000000000011E-13, 2.4610000000000003E-11, , , , 
DataValue, -1.6400000000000001, 0.25, -1.5800000000000001E-12, 2.462E-11, , , , 
DataValue, -1.6, 0.25, -5.6E-13, 2.6060000000000002E-11, , , , 
DataValue, -1.56, 0.25, -1.6100000000000002E-12, 2.5370000000000002E-11, , , , 
DataValue, -1.52, 0.25, -9.000000000000001E-13, 2.531E-11, , , , 
DataValue, -1.48, 0.25, -5.4E-13, 2.3810000000000003E-11, , , , 
DataValue, -1.44, 0.25, -4.2000000000000003E-13, 2.5370000000000002E-11, , , , 
DataValue, -1.4000000000000001, 0.25, -4E-13, 2.6060000000000002E-11, , , , 
DataValue, -1.36, 0.25, -3.0000000000000005E-14, 2.571E-11, , , , 
DataValue, -1.32, 0.25, -2.8E-13, 2.5010000000000003E-11, , , , 
DataValue, -1.28, 0.25, -4.3000000000000004E-13, 2.3390000000000003E-11, , , , 
DataValue, -1.24, 0.25, 2E-13, 2.6180000000000004E-11, , , , 
DataValue, -1.2, 0.25, -4E-13, 2.447E-11, , , , 
DataValue, -1.16, 0.25, 6.0000000000000009E-14, 2.544E-11, , , , 
DataValue, -1.12, 0.25, 1E-13, 2.4030000000000003E-11, , , , 
DataValue, -1.08, 0.25, -1E-13, 2.4860000000000002E-11, , , , 
DataValue, -1.04, 0.25, 5.7E-13, 2.6010000000000002E-11, , , , 
DataValue, -1, 0.25, 5E-13, 2.569E-11, , , , 
DataValue, -0.96, 0.25, 5.9E-13, 2.5570000000000002E-11, , , , 
DataValue, -0.92, 0.25, 5.6E-13, 2.2880000000000003E-11, , , , 
DataValue, -0.88, 0.25, 3.8000000000000005E-13, 2.504E-11, , , , 
DataValue, -0.84, 0.25, 4.3000000000000004E-13, 2.5150000000000002E-11, , , , 
DataValue, -0.8, 0.25, 1.3E-13, 2.5740000000000003E-11, , , , 
DataValue, -0.76, 0.25, 6.3E-13, 2.473E-11, , , , 
DataValue, -0.72, 0.25, -9.0000000000000008E-14, 2.338E-11, , , , 
DataValue, -0.68, 0.25, 3.6000000000000003E-13, 2.562E-11, , , , 
DataValue, -0.64, 0.25, 9.4E-13, 2.4830000000000003E-11, , , , 
DataValue, -0.6, 0.25, 5E-13, 2.558E-11, , , , 
DataValue, -0.56, 0.25, 1E-12, 2.3830000000000003E-11, , , , 
DataValue, -0.52, 0.25, 2.4000000000000004E-13, 2.338E-11, , , , 
DataValue, -0.48, 0.25, 7.9000000000000007E-13, 2.5100000000000003E-11, , , , 
DataValue, -0.44, 0.25, 2.6E-13, 2.5480000000000002E-11, , , , 
DataValue, -0.4, 0.25, 1.2900000000000002E-12, 2.542E-11, , , , 
DataValue, -0.36, 0.25, 1E-12, 2.3280000000000003E-11, , , , 
DataValue, -0.32, 0.25, 7.5E-13, 2.4830000000000003E-11, , , , 
DataValue, -0.28, 0.25, 1.17E-12, 2.5030000000000003E-11, , , , 
DataValue, -0.24, 0.25, 5.5000000000000008E-13, 2.4680000000000002E-11, , , , 
DataValue, -0.2, 0.25, 1.12E-12, 2.4480000000000002E-11, , , , 
DataValue, -0.16, 0.25, 6.2000000000000008E-13, 2.4570000000000002E-11, , , , 
DataValue, -0.12, 0.25, 9.5E-13, 2.589E-11, , , , 
DataValue, -0.08, 0.25, 1.2500000000000001E-12, 2.562E-11, , , , 
DataValue, -0.04, 0.25, 1.9700000000000003E-12, 2.54E-11, , , , 
DataValue, 0, 0.25, 9.5E-13, 2.3750000000000002E-11, , , , 
DataValue, 0.04, 0.25, 1.7500000000000002E-12, 2.4430000000000003E-11, , , , 
DataValue, 0.08, 0.25, 1.69E-12, 2.5520000000000003E-11, , , , 
DataValue, 0.12, 0.25, 1.4900000000000001E-12, 2.5320000000000003E-11, , , , 
DataValue, 0.16, 0.25, 1.4E-12, 2.4940000000000003E-11, , , , 
DataValue, 0.2, 0.25, 4.2000000000000003E-13, 2.422E-11, , , , 
DataValue, 0.24, 0.25, 1.55E-12, 2.5680000000000002E-11, , , , 
DataValue, 0.28, 0.25, 9.7000000000000011E-13, 2.518E-11, , , , 
DataValue, 0.32, 0.25, 2.19E-12, 2.4610000000000003E-11, , , , 
DataValue, 0.36, 0.25, 1.4300000000000002E-12, 2.4E-11, , , , 
DataValue, 0.4, 0.25, 1.36E-12, 2.5190000000000002E-11, , , , 
DataValue, 0.44, 0.25, 1.1600000000000001E-12, 2.562E-11, , , , 
DataValue, 0.48, 0.25, 1.3900000000000001E-12, 2.555E-11, , , , 
DataValue, 0.52, 0.25, 1.32E-12, 2.4960000000000004E-11, , , , 
DataValue, 0.56, 0.25, 1.7100000000000002E-12, 2.3750000000000002E-11, , , , 
DataValue, 0.6, 0.25, 1.2000000000000001E-12, 2.4610000000000003E-11, , , , 
DataValue, 0.64, 0.25, 1.6E-12, 2.538E-11, , , , 
DataValue, 0.68, 0.25, 1.8700000000000003E-12, 2.538E-11, , , , 
DataValue, 0.72, 0.25, 1.9900000000000002E-12, 2.413E-11, , , , 
DataValue, 0.76, 0.25, 1.21E-12, 2.3970000000000002E-11, , , , 
DataValue, 0.8, 0.25, 1.86E-12, 2.5680000000000002E-11, , , , 
DataValue, 0.84, 0.25, 1.2900000000000002E-12, 2.5940000000000003E-11, , , , 
DataValue, 0.88, 0.25, 2.06E-12, 2.513E-11, , , , 
DataValue, 0.92, 0.25, 1.9E-12, 2.4190000000000003E-11, , , , 
DataValue, 0.96, 0.25, 1.13E-12, 2.4790000000000002E-11, , , , 
DataValue, 1, 0.25, 1.7000000000000002E-12, 2.6190000000000002E-11, , , , 
DataValue, 1.04, 0.25, 1.8900000000000002E-12, 2.609E-11, , , , 
DataValue, 1.08, 0.25, 2.5600000000000004E-12, 2.502E-11, , , , 
DataValue, 1.12, 0.25, 1.4E-12, 2.418E-11, , , , 
DataValue, 1.16, 0.25, 1.1900000000000002E-12, 2.469E-11, , , , 
DataValue, 1.2, 0.25, 1.83E-12, 2.5350000000000002E-11, , , , 
DataValue, 1.24, 0.25, 1.3900000000000001E-12, 2.527E-11, , , , 
DataValue, 1.28, 0.25, 1.95E-12, 2.5250000000000003E-11, , , , 
DataValue, 1.32, 0.25, 1.7700000000000001E-12, 2.4010000000000003E-11, , , , 
DataValue, 1.36, 0.25, 1.88E-12, 2.6780000000000003E-11, , , , 
DataValue, 1.4000000000000001, 0.25, 2.1200000000000003E-12, 2.6940000000000003E-11, , , , 
DataValue, 1.44, 0.25, 2.34E-12, 2.7410000000000002E-11, , , , 
DataValue, 1.48, 0.25, 2.37E-12, 2.722E-11, , , , 
DataValue, 1.52, 0.25, 1.86E-12, 2.6320000000000003E-11, , , , 
DataValue, 1.56, 0.25, 2.09E-12, 2.877E-11, , , , 
DataValue, 1.6, 0.25, 2.7000000000000002E-12, 2.9880000000000004E-11, , , , 
DataValue, 1.6400000000000001, 0.25, 2.49E-12, 3.0060000000000004E-11, , , , 
DataValue, 1.68, 0.25, 1.8200000000000003E-12, 2.942E-11, , , , 
DataValue, 1.72, 0.25, 2.09E-12, 3.238E-11, , , , 
DataValue, 1.76, 0.25, 2.4000000000000003E-12, 3.375E-11, , , , 
DataValue, 1.8, 0.25, 2.2200000000000002E-12, 3.6330000000000005E-11, , , , 
DataValue, 1.84, 0.25, 2.5000000000000003E-12, 3.725E-11, , , , 
DataValue, 1.8800000000000001, 0.25, 2.37E-12, 4.031E-11, , , , 
DataValue, 1.92, 0.25, 2.6300000000000003E-12, 4.4810000000000005E-11, , , , 
DataValue, 1.96, 0.25, 2.23E-12, 4.957E-11, , , , 
DataValue, 2, 0.25, 3.1700000000000004E-12, 5.5340000000000006E-11, , , , 
DataValue, 2.04, 0.25, 2.47E-12, 6.0480000000000007E-11, , , , 
DataValue, 2.08, 0.25, 2.5000000000000003E-12, 7.232E-11, , , , 
DataValue, 2.12, 0.25, 2.8400000000000004E-12, 8.3880000000000012E-11, , , , 
DataValue, 2.16, 0.25, 2.8300000000000003E-12, 9.9440000000000008E-11, , , , 
DataValue, 2.2, 0.25, 3.3600000000000002E-12, 1.181E-10, , , , 
DataValue, 2.24, 0.25, 3.3E-12, 1.4292E-10, , , , 
DataValue, 2.2800000000000002, 0.25, 3.0800000000000002E-12, 1.7724000000000003E-10, , , , 
DataValue, 2.32, 0.25, 2.6000000000000002E-12, 2.209E-10, , , , 
DataValue, 2.36, 0.25, 3.75E-12, 2.7619E-10, , , , 
DataValue, 2.4, 0.25, 3.07E-12, 3.4708E-10, , , , 
DataValue, 2.44, 0.25, 2.75E-12, 4.4109E-10, , , , 
DataValue, 2.48, 0.25, 3.5200000000000003E-12, 5.6703000000000006E-10, , , , 
DataValue, 2.52, 0.25, 2.8600000000000003E-12, 7.2889000000000005E-10, , , , 
DataValue, 2.56, 0.25, 3.87E-12, 9.4491E-10, , , , 
DataValue, 2.6, 0.25, 2.29E-12, 1.5857E-09, , , , 
DataValue, 2.64, 0.25, 3.3900000000000003E-12, 2.0259E-09, , , , 
DataValue, 2.68, 0.25, 2.77E-12, 2.6058E-09, , , , 
DataValue, 2.72, 0.25, 3.4100000000000002E-12, 3.3688E-09, , , , 
DataValue, 2.7600000000000002, 0.25, 3.3100000000000002E-12, 4.383E-09, , , , 
DataValue, 2.8000000000000003, 0.25, 3.0400000000000004E-12, 5.7257E-09, , , , 
DataValue, 2.84, 0.25, 3.33E-12, 7.5035E-09, , , , 
DataValue, 2.88, 0.25, 3.38E-12, 9.8564E-09, , , , 
DataValue, 2.92, 0.25, 3.1600000000000003E-12, 1.4078399999999999E-08, , , , 
DataValue, 2.96, 0.25, 3.43E-12, 1.8623799999999998E-08, , , , 
DataValue, 3, 0.25, 3.23E-12, 2.46314E-08, , , , 
DataValue, 3.04, 0.25, 3.75E-12, 3.24728E-08, , , , 
DataValue, 3.08, 0.25, 3.3600000000000002E-12, 4.2751799999999994E-08, , , , 
DataValue, 3.12, 0.25, 3.8900000000000006E-12, 5.6082799999999996E-08, , , , 
DataValue, 3.16, 0.25, 3.81E-12, 7.31868E-08, , , , 
DataValue, 3.2, 0.25, 4.1500000000000007E-12, 9.4924E-08, , , , 
DataValue, 3.24, 0.25, 3.9E-12, 1.275E-07, , , , 
DataValue, 3.2800000000000002, 0.25, 3.8400000000000006E-12, 1.5883999999999999E-07, , , , 
DataValue, 3.3200000000000003, 0.25, 4.6900000000000004E-12, 1.9695999999999999E-07, , , , 
DataValue, 3.36, 0.25, 4.5500000000000006E-12, 2.433E-07, , , , 
DataValue, 3.4, 0.25, 3.3100000000000002E-12, 2.9895999999999997E-07, , , , 
DataValue, 3.44, 0.25, 3.82E-12, 3.6552E-07, , , , 
DataValue, 3.48, 0.25, 4.12E-12, 4.4446E-07, , , , 
DataValue, 3.52, 0.25, 4.33E-12, 5.3758E-07, , , , 
DataValue, 3.56, 0.25, 4.22E-12, 6.464E-07, , , , 
DataValue, 3.6, 0.25, 4.67E-12, 7.7317999999999994E-07, , , , 
DataValue, 3.64, 0.25, 5.1600000000000006E-12, 9.1834E-07, , , , 
DataValue, 3.68, 0.25, 4.87E-12, 1.0861E-06, , , , 
DataValue, 3.72, 0.25, 4.93E-12, 1.4481000000000002E-06, , , , 
DataValue, 3.7600000000000002, 0.25, 4.79E-12, 1.6734000000000002E-06, , , , 
DataValue, 3.8000000000000003, 0.25, 4.26E-12, 1.9261E-06, , , , 
DataValue, 3.84, 0.25, 5.74E-12, 2.2088000000000004E-06, , , , 
DataValue, 3.88, 0.25, 4.84E-12, 2.5245E-06, , , , 
DataValue, 3.92, 0.25, 4.9100000000000007E-12, 2.8798000000000004E-06, , , , 
DataValue, 3.96, 0.25, 6E-12, 3.272E-06, , , , 
DataValue, 4, 0.25, 5.58E-12, 3.6955000000000004E-06, , , , 
DataValue, 4.04, 0.25, 5.02E-12, 4.1703000000000005E-06, , , , 
DataValue, 4.08, 0.25, 5.65E-12, 4.6923000000000008E-06, , , , 
DataValue, 4.12, 0.25, 5.6800000000000008E-12, 5.2609000000000007E-06, , , , 
DataValue, 4.16, 0.25, 5.39E-12, 5.8776E-06, , , , 
DataValue, 4.2, 0.25, 6.3300000000000007E-12, 6.5459E-06, , , , 
DataValue, 4.24, 0.25, 6.3E-12, 7.2617000000000011E-06, , , , 
DataValue, 4.28, 0.25, 6.2200000000000006E-12, 8.0275E-06, , , , 
DataValue, 4.32, 0.25, 6.19E-12, 8.8426E-06, , , , 
DataValue, 4.36, 0.25, 6.3900000000000008E-12, 9.711900000000001E-06, , , , 
DataValue, 4.4, 0.25, 6.7700000000000004E-12, 1.0627000000000002E-05, , , , 
DataValue, 4.44, 0.25, 6.05E-12, 1.1948E-05, , , , 
DataValue, 4.48, 0.25, 6.4900000000000008E-12, 1.2922000000000001E-05, , , , 
DataValue, 4.5200000000000005, 0.25, 6.81E-12, 1.3934E-05, , , , 
DataValue, 4.5600000000000005, 0.25, 6.8700000000000004E-12, 1.4994E-05, , , , 
DataValue, 4.6000000000000005, 0.25, 6.9800000000000006E-12, 1.6094000000000002E-05, , , , 
DataValue, 4.64, 0.25, 7.2800000000000013E-12, 1.724E-05, , , , 
DataValue, 4.68, 0.25, 7.1400000000000007E-12, 1.842E-05, , , , 
DataValue, 4.72, 0.25, 7.43E-12, 1.9622E-05, , , , 
DataValue, 4.76, 0.25, 6.9400000000000007E-12, 2.0856E-05, , , , 
DataValue, 4.8, 0.25, 6.7800000000000006E-12, 2.2132E-05, , , , 
DataValue, 4.84, 0.25, 8.03E-12, 2.3436E-05, , , , 
DataValue, 4.88, 0.25, 7.62E-12, 2.4772E-05, , , , 
DataValue, 4.92, 0.25, 6.91E-12, 2.6134E-05, , , , 
DataValue, 4.96, 0.25, 7.62E-12, 2.7516000000000002E-05, , , , 
DataValue, 5, 0.25, 7.970000000000001E-12, 2.8902000000000002E-05, , , , 
DataValue, 5.04, 0.25, 8.45E-12, 3.0318E-05, , , , 
DataValue, 5.08, 0.25, 7.91E-12, 3.1794E-05, , , , 
DataValue, 5.12, 0.25, 8.84E-12, 3.3284E-05, , , , 
DataValue, 5.16, 0.25, 8.43E-12, 3.4792E-05, , , , 
DataValue, 5.2, 0.25, 7.92E-12, 3.6338000000000003E-05, , , , 
DataValue, 5.24, 0.25, 8.780000000000001E-12, 3.7878E-05, , , , 
DataValue, 5.28, 0.25, 8.6900000000000011E-12, 3.944E-05, , , , 
DataValue, 5.32, 0.25, 9.4000000000000011E-12, 4.1022E-05, , , , 
DataValue, 5.36, 0.25, 8.780000000000001E-12, 4.2614E-05, , , , 
DataValue, 5.4, 0.25, 9.14E-12, 4.4224E-05, , , , 
DataValue, 5.44, 0.25, 8.7100000000000015E-12, 4.5838000000000004E-05, , , , 
DataValue, 5.48, 0.25, 9.2100000000000013E-12, 4.7476000000000004E-05, , , , 
DataValue, 5.5200000000000005, 0.25, 8.9800000000000009E-12, 4.9120000000000004E-05, , , , 
DataValue, 5.5600000000000005, 0.25, 9.7000000000000011E-12, 5.0758000000000004E-05, , , , 
DataValue, 5.6000000000000005, 0.25, 9.68E-12, 5.2408000000000004E-05, , , , 
DataValue, 5.64, 0.25, 9.6200000000000014E-12, 5.4064E-05, , , , 
DataValue, 5.68, 0.25, 9.84E-12, 5.5734E-05, , , , 
DataValue, 5.72, 0.25, 1.0000000000000001E-11, 5.7416E-05, , , , 
DataValue, 5.76, 0.25, 9.15E-12, 5.9090000000000005E-05, , , , 
DataValue, 5.8, 0.25, 1.056E-11, 6.075E-05, , , , 
DataValue, 5.84, 0.25, 9.4200000000000015E-12, 6.242E-05, , , , 
DataValue, 5.88, 0.25, 1.0420000000000001E-11, 6.4162E-05, , , , 
DataValue, 5.92, 0.25, 1.0930000000000001E-11, 6.5826E-05, , , , 
DataValue, 5.96, 0.25, 1.0630000000000001E-11, 6.7486E-05, , , , 
DataValue, 6, 0.25, 1.0430000000000001E-11, 6.9182E-05, , , , 
DataValue, 6, 0.25, 1.0920000000000001E-11, 6.9458E-05, , , , 
DataValue, 5.96, 0.25, 9.8300000000000015E-12, 7.0704E-05, , , , 
DataValue, 5.92, 0.25, 9.2100000000000013E-12, 7.1792E-05, , , , 
DataValue, 5.88, 0.25, 8.1900000000000013E-12, 7.2688E-05, , , , 
DataValue, 5.84, 0.25, 7.4E-12, 7.3424000000000007E-05, , , , 
DataValue, 5.8, 0.25, 6.9800000000000006E-12, 7.402E-05, , , , 
DataValue, 5.76, 0.25, 7.0800000000000005E-12, 7.451E-05, , , , 
DataValue, 5.72, 0.25, 6.6400000000000008E-12, 7.4882E-05, , , , 
DataValue, 5.68, 0.25, 5.89E-12, 7.5162E-05, , , , 
