
SetupTitle, ID-VG Postbreak
PrimitiveTest, I/V Sweep
TestParameter, Context.MainFrame, B1500A
TestParameter, Channel.UnitType, SMU, SMU
TestParameter, Channel.Unit, SMU1:MP, SMU2:MP
TestParameter, Channel.IName, I1, I2
TestParameter, Channel.VName, V1, V2
TestParameter, Channel.Mode, V, V
TestParameter, Channel.Func, VAR1, CONST
TestParameter, Channel.Index, 
TestParameter, Channel.Time, 
TestParameter, Measurement.Port.Unit, SMU1:MP, SMU2:MP
TestParameter, Measurement.Port.SeriesResistor, NONE, NONE
TestParameter, Measurement.Port.Filter, ON, ON
TestParameter, Measurement.Port.OutputVoltageComparison, 0, 0
TestParameter, Measurement.Primary.Locus, Double
TestParameter, Measurement.Primary.Scale, LINEAR
TestParameter, Measurement.Primary.Start, -2
TestParameter, Measurement.Primary.Stop, 6
TestParameter, Measurement.Primary.Step, 0.04
TestParameter, Measurement.Primary.Compliance, 0.1
TestParameter, Measurement.Primary.PowerCompliance, 0
TestParameter, Measurement.Aborting.Condition, CONTINUE AT ANY
TestParameter, Measurement.PostOutput.Value, START
TestParameter, Measurement.PostOutput.Retention, OFF
TestParameter, Measurement.Bias.Source, -2, 0.25
TestParameter, Measurement.Bias.Compliance, 0.1, 0.1
TestParameter, Measurement.Monitor.Unit, SMU1:MP, SMU2:MP
TestParameter, Measurement.Monitor.Adc, HR ADC, HR ADC
TestParameter, Measurement.Monitor.Measurement, Compliance Side, Compliance Side
TestParameter, Measurement.Monitor.RangingMode, LIMITED, LIMITED
TestParameter, Measurement.Monitor.RangeBoundary, 1nA, 1nA
TestParameter, Measurement.Monitor.RangeRating, BY FULL RANGE, BY FULL RANGE
TestParameter, Measurement.Monitor.RangeRatingCoeff, 50, 50
TestParameter, Measurement.Timing.Hold, 0
TestParameter, Measurement.Timing.Delay, 0
TestParameter, Measurement.Adc.HighSpeed.Mode, AUTO
TestParameter, Measurement.Adc.HighSpeed.Coeff, 1
TestParameter, Measurement.Adc.HighResolution.AutoZero, OFF
TestParameter, Measurement.Adc.HighResolution.Mode, AUTO
TestParameter, Measurement.Adc.HighResolution.Coeff, 6
TestParameter, Measurement.WaitTime.Source.Coeff, 1
TestParameter, Measurement.WaitTime.Source.Offset, 0
TestParameter, Measurement.WaitTime.Monitor.Coeff, 1
TestParameter, Measurement.WaitTime.Monitor.Offset, 0
TestParameter, Output.Graph.Enabled, true
TestParameter, Output.Graph.AutoScaling, false
TestParameter, Output.Graph.XAxis.Data, V1
TestParameter, Output.Graph.XAxis.Scale, Linear
TestParameter, Output.Graph.XAxis.Left, -2
TestParameter, Output.Graph.XAxis.Right, 6
TestParameter, Output.Graph.XAxis.RunTimeAutoScale, true
TestParameter, Output.Graph.YAxis.Data, I2
TestParameter, Output.Graph.YAxis.Scale, Linear
TestParameter, Output.Graph.YAxis.Bottom, -0.1
TestParameter, Output.Graph.YAxis.Top, 0.1
TestParameter, Output.Graph.YAxis.Group, 
TestParameter, Output.Graph.YAxis.RunTimeAutoScale, true
TestParameter, Output.List.Data, V1, I1, V2, I2, V3, I3, V4, I4
TestParameter, AutoAnalysis.Interpolation, false
TestParameter, AutoAnalysis.Line1.Enabled, false
TestParameter, AutoAnalysis.Line1.Type, 1
TestParameter, AutoAnalysis.Line1.Fix, True
TestParameter, AutoAnalysis.Line1.YAxis, 0
TestParameter, AutoAnalysis.Line1.Point1.Type, 0
TestParameter, AutoAnalysis.Line1.Point1.XY.X, 
TestParameter, AutoAnalysis.Line1.Point1.XY.Y, 
TestParameter, AutoAnalysis.Line1.Point1.Data.Var, 
TestParameter, AutoAnalysis.Line1.Point1.Data.Condition, 
TestParameter, AutoAnalysis.Line1.Point1.Data.Start, false
TestParameter, AutoAnalysis.Line1.Point1.Data.StartVar, 
TestParameter, AutoAnalysis.Line1.Point1.Data.StartCondition, 
TestParameter, AutoAnalysis.Line1.Point2.Type, 0
TestParameter, AutoAnalysis.Line1.Point2.XY.X, 
TestParameter, AutoAnalysis.Line1.Point2.XY.Y, 
TestParameter, AutoAnalysis.Line1.Point2.Data.Var, 
TestParameter, AutoAnalysis.Line1.Point2.Data.Condition, 
TestParameter, AutoAnalysis.Line1.Point2.Data.Start, false
TestParameter, AutoAnalysis.Line1.Point2.Data.StartVar, 
TestParameter, AutoAnalysis.Line1.Point2.Data.StartCondition, 
TestParameter, AutoAnalysis.Line1.GradientExpr, 0
TestParameter, AutoAnalysis.Line2.Enabled, false
TestParameter, AutoAnalysis.Line2.Type, 1
TestParameter, AutoAnalysis.Line2.Fix, True
TestParameter, AutoAnalysis.Line2.YAxis, 0
TestParameter, AutoAnalysis.Line2.Point1.Type, 0
TestParameter, AutoAnalysis.Line2.Point1.XY.X, 
TestParameter, AutoAnalysis.Line2.Point1.XY.Y, 
TestParameter, AutoAnalysis.Line2.Point1.Data.Var, 
TestParameter, AutoAnalysis.Line2.Point1.Data.Condition, 
TestParameter, AutoAnalysis.Line2.Point1.Data.Start, false
TestParameter, AutoAnalysis.Line2.Point1.Data.StartVar, 
TestParameter, AutoAnalysis.Line2.Point1.Data.StartCondition, 
TestParameter, AutoAnalysis.Line2.Point2.Type, 0
TestParameter, AutoAnalysis.Line2.Point2.XY.X, 
TestParameter, AutoAnalysis.Line2.Point2.XY.Y, 
TestParameter, AutoAnalysis.Line2.Point2.Data.Var, 
TestParameter, AutoAnalysis.Line2.Point2.Data.Condition, 
TestParameter, AutoAnalysis.Line2.Point2.Data.Start, false
TestParameter, AutoAnalysis.Line2.Point2.Data.StartVar, 
TestParameter, AutoAnalysis.Line2.Point2.Data.StartCondition, 
TestParameter, AutoAnalysis.Line2.GradientExpr, 0
TestParameter, AutoAnalysis.Marker.Enabled, false
TestParameter, AutoAnalysis.Marker.Data.Var, 
TestParameter, AutoAnalysis.Marker.Data.Condition, 
TestParameter, AutoAnalysis.Marker.Data.Start, false
TestParameter, AutoAnalysis.Marker.Data.StartVar, 
TestParameter, AutoAnalysis.Marker.Data.StartCondition, 
MetaData, TestRecord.EntryPoint, true
MetaData, TestRecord.RecordTime, 03/10/2023 16:25:47
MetaData, TestRecord.TestTarget, 
MetaData, TestRecord.IterationIndex, 14
MetaData, TestRecord.Preservation, true
MetaData, TestRecord.Flag, 
MetaData, TestRecord.Remarks, 
MetaData, TestRecord.LinkKey, 0e09eaf8-0231-45ab-a9da-ea97186a1997
Dimension1, 402, 402, 402, 402, 402, 402, 402, 402
Dimension2, 1, 1, 1, 1, 1, 1, 1, 1
DataName, V1, V2, I1, I2, V3, I3, V4, I4
DataValue, -2, 0.25, -1.251E-11, 1.885E-11, , , , 
DataValue, -1.96, 0.25, -7.01E-12, 1.863E-11, , , , 
DataValue, -1.92, 0.25, -5.5700000000000007E-12, 1.81E-11, , , , 
DataValue, -1.8800000000000001, 0.25, -4.56E-12, 1.7000000000000003E-11, , , , 
DataValue, -1.84, 0.25, -4.53E-12, 1.702E-11, , , , 
DataValue, -1.8, 0.25, -3.8900000000000006E-12, 1.721E-11, , , , 
DataValue, -1.76, 0.25, -3.4000000000000005E-12, 1.786E-11, , , , 
DataValue, -1.72, 0.25, -3.05E-12, 1.823E-11, , , , 
DataValue, -1.68, 0.25, -2.39E-12, 1.713E-11, , , , 
DataValue, -1.6400000000000001, 0.25, -3.2200000000000004E-12, 1.5870000000000002E-11, , , , 
DataValue, -1.6, 0.25, -2.2200000000000002E-12, 1.8870000000000002E-11, , , , 
DataValue, -1.56, 0.25, -1.4E-12, 1.885E-11, , , , 
DataValue, -1.52, 0.25, -1.3500000000000001E-12, 1.7510000000000003E-11, , , , 
DataValue, -1.48, 0.25, -5.7E-13, 1.686E-11, , , , 
DataValue, -1.44, 0.25, -2.03E-12, 1.681E-11, , , , 
DataValue, -1.4000000000000001, 0.25, -5.9E-13, 1.866E-11, , , , 
DataValue, -1.36, 0.25, -1.6000000000000003E-13, 1.7820000000000003E-11, , , , 
DataValue, -1.32, 0.25, -7.8000000000000011E-13, 1.743E-11, , , , 
DataValue, -1.28, 0.25, -5.6E-13, 1.621E-11, , , , 
DataValue, -1.24, 0.25, -4.3000000000000004E-13, 1.721E-11, , , , 
DataValue, -1.2, 0.25, 4E-13, 1.8090000000000002E-11, , , , 
DataValue, -1.16, 0.25, -1E-13, 1.7560000000000002E-11, , , , 
DataValue, -1.12, 0.25, 4.1E-13, 1.6850000000000002E-11, , , , 
DataValue, -1.08, 0.25, 3.6000000000000003E-13, 1.659E-11, , , , 
DataValue, -1.04, 0.25, 3.8000000000000005E-13, 1.8160000000000002E-11, , , , 
DataValue, -1, 0.25, 5.6E-13, 1.812E-11, , , , 
DataValue, -0.96, 0.25, 1E-13, 1.7870000000000002E-11, , , , 
DataValue, -0.92, 0.25, 1.2500000000000001E-12, 1.677E-11, , , , 
DataValue, -0.88, 0.25, -4.0000000000000006E-14, 1.5740000000000002E-11, , , , 
DataValue, -0.84, 0.25, 1E-12, 1.7890000000000002E-11, , , , 
DataValue, -0.8, 0.25, 1E-12, 1.824E-11, , , , 
DataValue, -0.76, 0.25, 1.2400000000000002E-12, 1.819E-11, , , , 
DataValue, -0.72, 0.25, 1.74E-12, 1.6470000000000002E-11, , , , 
DataValue, -0.68, 0.25, 1.21E-12, 1.659E-11, , , , 
DataValue, -0.64, 0.25, 1.3500000000000001E-12, 1.8130000000000003E-11, , , , 
DataValue, -0.6, 0.25, 1.6600000000000002E-12, 1.719E-11, , , , 
DataValue, -0.56, 0.25, 1.4800000000000002E-12, 1.67E-11, , , , 
DataValue, -0.52, 0.25, 8.9E-13, 1.584E-11, , , , 
DataValue, -0.48, 0.25, 1.23E-12, 1.757E-11, , , , 
DataValue, -0.44, 0.25, 1.5600000000000002E-12, 1.8510000000000003E-11, , , , 
DataValue, -0.4, 0.25, 1.7600000000000002E-12, 1.75E-11, , , , 
DataValue, -0.36, 0.25, 2.6300000000000003E-12, 1.6650000000000002E-11, , , , 
DataValue, -0.32, 0.25, 1.22E-12, 1.6690000000000003E-11, , , , 
DataValue, -0.28, 0.25, 2.2200000000000002E-12, 1.808E-11, , , , 
DataValue, -0.24, 0.25, 2.11E-12, 1.777E-11, , , , 
DataValue, -0.2, 0.25, 2.0500000000000004E-12, 1.692E-11, , , , 
DataValue, -0.16, 0.25, 2.08E-12, 1.615E-11, , , , 
DataValue, -0.12, 0.25, 1.96E-12, 1.7560000000000002E-11, , , , 
DataValue, -0.08, 0.25, 2.9300000000000002E-12, 1.855E-11, , , , 
DataValue, -0.04, 0.25, 2.19E-12, 1.735E-11, , , , 
DataValue, 0, 0.25, 2.01E-12, 1.712E-11, , , , 
DataValue, 0.04, 0.25, 1.5400000000000001E-12, 1.659E-11, , , , 
DataValue, 0.08, 0.25, 2.6500000000000002E-12, 1.912E-11, , , , 
DataValue, 0.12, 0.25, 3.1900000000000003E-12, 1.8310000000000003E-11, , , , 
DataValue, 0.16, 0.25, 2.4500000000000003E-12, 1.7380000000000002E-11, , , , 
DataValue, 0.2, 0.25, 2.74E-12, 1.708E-11, , , , 
DataValue, 0.24, 0.25, 1.85E-12, 1.783E-11, , , , 
DataValue, 0.28, 0.25, 3.76E-12, 1.892E-11, , , , 
DataValue, 0.32, 0.25, 2.9800000000000002E-12, 1.877E-11, , , , 
DataValue, 0.36, 0.25, 3.2900000000000003E-12, 1.8730000000000003E-11, , , , 
DataValue, 0.4, 0.25, 2.44E-12, 1.7050000000000002E-11, , , , 
DataValue, 0.44, 0.25, 2.7800000000000003E-12, 1.8840000000000003E-11, , , , 
DataValue, 0.48, 0.25, 2.77E-12, 1.9400000000000002E-11, , , , 
DataValue, 0.52, 0.25, 2.9100000000000003E-12, 1.8930000000000003E-11, , , , 
DataValue, 0.56, 0.25, 3.2200000000000004E-12, 1.906E-11, , , , 
DataValue, 0.6, 0.25, 2.8600000000000003E-12, 2.0330000000000002E-11, , , , 
DataValue, 0.64, 0.25, 2.8100000000000003E-12, 2.1200000000000002E-11, , , , 
DataValue, 0.68, 0.25, 3.3900000000000003E-12, 2.1510000000000002E-11, , , , 
DataValue, 0.72, 0.25, 3.3600000000000002E-12, 2.165E-11, , , , 
DataValue, 0.76, 0.25, 3.6000000000000004E-12, 2.194E-11, , , , 
DataValue, 0.8, 0.25, 2.9600000000000003E-12, 2.4740000000000003E-11, , , , 
DataValue, 0.84, 0.25, 4.13E-12, 2.6340000000000003E-11, , , , 
DataValue, 0.88, 0.25, 3.4900000000000003E-12, 2.7250000000000003E-11, , , , 
DataValue, 0.92, 0.25, 4.2500000000000007E-12, 2.8470000000000003E-11, , , , 
DataValue, 0.96, 0.25, 2.7100000000000004E-12, 3.008E-11, , , , 
DataValue, 1, 0.25, 4.01E-12, 3.4610000000000004E-11, , , , 
DataValue, 1.04, 0.25, 3.63E-12, 3.719E-11, , , , 
DataValue, 1.08, 0.25, 3.6800000000000005E-12, 4.0330000000000004E-11, , , , 
DataValue, 1.12, 0.25, 4.18E-12, 4.3610000000000005E-11, , , , 
DataValue, 1.16, 0.25, 3.9800000000000004E-12, 4.9260000000000006E-11, , , , 
DataValue, 1.2, 0.25, 3.8E-12, 5.6320000000000006E-11, , , , 
DataValue, 1.24, 0.25, 3.5500000000000004E-12, 6.244E-11, , , , 
DataValue, 1.28, 0.25, 4E-12, 7.036E-11, , , , 
DataValue, 1.32, 0.25, 3.43E-12, 8.106E-11, , , , 
DataValue, 1.36, 0.25, 4.62E-12, 9.5220000000000008E-11, , , , 
DataValue, 1.4000000000000001, 0.25, 3.7900000000000006E-12, 1.0942000000000001E-10, , , , 
DataValue, 1.44, 0.25, 4.28E-12, 1.26E-10, , , , 
DataValue, 1.48, 0.25, 3.9E-12, 1.4636E-10, , , , 
DataValue, 1.52, 0.25, 5.1600000000000006E-12, 1.7279E-10, , , , 
DataValue, 1.56, 0.25, 4.6600000000000007E-12, 2.0280000000000001E-10, , , , 
DataValue, 1.6, 0.25, 4.1900000000000005E-12, 2.3715E-10, , , , 
DataValue, 1.6400000000000001, 0.25, 5.0600000000000007E-12, 2.7904E-10, , , , 
DataValue, 1.68, 0.25, 4.7100000000000007E-12, 3.3224000000000003E-10, , , , 
DataValue, 1.72, 0.25, 4.6000000000000006E-12, 3.9464000000000005E-10, , , , 
DataValue, 1.76, 0.25, 4.2900000000000005E-12, 4.6775000000000006E-10, , , , 
DataValue, 1.8, 0.25, 4.79E-12, 5.5528000000000007E-10, , , , 
DataValue, 1.84, 0.25, 5.2100000000000006E-12, 6.6061000000000006E-10, , , , 
DataValue, 1.8800000000000001, 0.25, 4.37E-12, 7.8798000000000011E-10, , , , 
DataValue, 1.92, 0.25, 5.1600000000000006E-12, 9.4079E-10, , , , 
DataValue, 1.96, 0.25, 4.8600000000000007E-12, 1.1233800000000001E-09, , , , 
DataValue, 2, 0.25, 5.4100000000000006E-12, 1.4769E-09, , , , 
DataValue, 2.04, 0.25, 4.4000000000000006E-12, 1.7449E-09, , , , 
DataValue, 2.08, 0.25, 4.68E-12, 2.0727E-09, , , , 
DataValue, 2.12, 0.25, 5.2000000000000005E-12, 2.4632E-09, , , , 
DataValue, 2.16, 0.25, 5.39E-12, 2.9246E-09, , , , 
DataValue, 2.2, 0.25, 4.67E-12, 3.4743E-09, , , , 
DataValue, 2.24, 0.25, 5.03E-12, 4.1266E-09, , , , 
DataValue, 2.2800000000000002, 0.25, 5.6E-12, 4.9004E-09, , , , 
DataValue, 2.32, 0.25, 5.38E-12, 5.8042E-09, , , , 
DataValue, 2.36, 0.25, 5.7700000000000007E-12, 6.8666E-09, , , , 
DataValue, 2.4, 0.25, 5.4200000000000007E-12, 8.1247E-09, , , , 
DataValue, 2.44, 0.25, 5.9600000000000005E-12, 9.5842E-09, , , , 
DataValue, 2.48, 0.25, 5.3700000000000007E-12, 1.12873E-08, , , , 
DataValue, 2.52, 0.25, 5.84E-12, 1.3612399999999998E-08, , , , 
DataValue, 2.56, 0.25, 5.2100000000000006E-12, 1.6029599999999997E-08, , , , 
DataValue, 2.6, 0.25, 5.2600000000000006E-12, 1.8838799999999997E-08, , , , 
DataValue, 2.64, 0.25, 5.9100000000000005E-12, 2.2058399999999997E-08, , , , 
DataValue, 2.68, 0.25, 5.7800000000000008E-12, 2.5754199999999998E-08, , , , 
DataValue, 2.72, 0.25, 6.1200000000000006E-12, 2.9952599999999995E-08, , , , 
DataValue, 2.7600000000000002, 0.25, 6.5800000000000006E-12, 3.4729799999999996E-08, , , , 
DataValue, 2.8000000000000003, 0.25, 5.58E-12, 4.0165199999999994E-08, , , , 
DataValue, 2.84, 0.25, 5.54E-12, 4.63448E-08, , , , 
DataValue, 2.88, 0.25, 6.1700000000000006E-12, 5.31882E-08, , , , 
DataValue, 2.92, 0.25, 5.8300000000000008E-12, 6.08526E-08, , , , 
DataValue, 2.96, 0.25, 6.45E-12, 6.9374E-08, , , , 
DataValue, 3, 0.25, 5.7700000000000007E-12, 7.88588E-08, , , , 
DataValue, 3.04, 0.25, 6.2900000000000009E-12, 8.9324999999999988E-08, , , , 
DataValue, 3.08, 0.25, 5.7100000000000005E-12, 1.0086099999999999E-07, , , , 
DataValue, 3.12, 0.25, 6.0300000000000008E-12, 1.1357779999999999E-07, , , , 
DataValue, 3.16, 0.25, 6.2200000000000006E-12, 1.267E-07, , , , 
DataValue, 3.2, 0.25, 6.3700000000000005E-12, 1.4088E-07, , , , 
DataValue, 3.24, 0.25, 5.8300000000000008E-12, 1.5626E-07, , , , 
DataValue, 3.2800000000000002, 0.25, 6.9000000000000009E-12, 1.7296E-07, , , , 
DataValue, 3.3200000000000003, 0.25, 6.9000000000000009E-12, 1.9106E-07, , , , 
DataValue, 3.36, 0.25, 7.2400000000000007E-12, 2.1066E-07, , , , 
DataValue, 3.4, 0.25, 6.97E-12, 2.319E-07, , , , 
DataValue, 3.44, 0.25, 7.2800000000000013E-12, 2.549E-07, , , , 
DataValue, 3.48, 0.25, 6.3800000000000007E-12, 2.795E-07, , , , 
DataValue, 3.52, 0.25, 7.07E-12, 3.0602E-07, , , , 
DataValue, 3.56, 0.25, 7.44E-12, 3.3442E-07, , , , 
DataValue, 3.6, 0.25, 7.83E-12, 3.6486E-07, , , , 
DataValue, 3.64, 0.25, 7.41E-12, 3.9754E-07, , , , 
DataValue, 3.68, 0.25, 8.05E-12, 4.3252E-07, , , , 
DataValue, 3.72, 0.25, 8.35E-12, 4.7004E-07, , , , 
DataValue, 3.7600000000000002, 0.25, 6.9900000000000007E-12, 5.1014E-07, , , , 
DataValue, 3.8000000000000003, 0.25, 8.13E-12, 5.527E-07, , , , 
DataValue, 3.84, 0.25, 8.16E-12, 5.9798E-07, , , , 
DataValue, 3.88, 0.25, 8.5700000000000008E-12, 6.473E-07, , , , 
DataValue, 3.92, 0.25, 9.02E-12, 6.9864E-07, , , , 
DataValue, 3.96, 0.25, 8.24E-12, 7.5322E-07, , , , 
DataValue, 4, 0.25, 8.11E-12, 8.111E-07, , , , 
DataValue, 4.04, 0.25, 8.5900000000000012E-12, 8.7248E-07, , , , 
DataValue, 4.08, 0.25, 9.4100000000000013E-12, 9.3741999999999993E-07, , , , 
DataValue, 4.12, 0.25, 9.2000000000000012E-12, 1.00634E-06, , , , 
DataValue, 4.16, 0.25, 9.37E-12, 1.07894E-06, , , , 
DataValue, 4.2, 0.25, 9.2100000000000013E-12, 1.1863000000000002E-06, , , , 
DataValue, 4.24, 0.25, 9.07E-12, 1.2675000000000002E-06, , , , 
DataValue, 4.28, 0.25, 9.66E-12, 1.3536E-06, , , , 
DataValue, 4.32, 0.25, 9.7000000000000011E-12, 1.4449000000000001E-06, , , , 
DataValue, 4.36, 0.25, 9.43E-12, 1.5415000000000002E-06, , , , 
DataValue, 4.4, 0.25, 1.005E-11, 1.6468000000000003E-06, , , , 
DataValue, 4.44, 0.25, 1.0330000000000001E-11, 1.7540000000000003E-06, , , , 
DataValue, 4.48, 0.25, 1.018E-11, 1.8674000000000001E-06, , , , 
DataValue, 4.5200000000000005, 0.25, 1.1360000000000002E-11, 1.9865000000000004E-06, , , , 
DataValue, 4.5600000000000005, 0.25, 1.045E-11, 2.1111000000000004E-06, , , , 
DataValue, 4.6000000000000005, 0.25, 1.0740000000000002E-11, 2.2422000000000003E-06, , , , 
DataValue, 4.64, 0.25, 1.1550000000000002E-11, 2.3805000000000003E-06, , , , 
DataValue, 4.68, 0.25, 1.069E-11, 2.5249E-06, , , , 
DataValue, 4.72, 0.25, 1.2070000000000002E-11, 2.6768000000000004E-06, , , , 
DataValue, 4.76, 0.25, 1.2580000000000002E-11, 2.8350000000000004E-06, , , , 
DataValue, 4.8, 0.25, 1.24E-11, 3.001E-06, , , , 
DataValue, 4.84, 0.25, 1.322E-11, 3.1744000000000005E-06, , , , 
DataValue, 4.88, 0.25, 1.2630000000000001E-11, 3.3561000000000004E-06, , , , 
DataValue, 4.92, 0.25, 1.4060000000000001E-11, 3.5451E-06, , , , 
DataValue, 4.96, 0.25, 1.3370000000000001E-11, 3.7429E-06, , , , 
DataValue, 5, 0.25, 1.3990000000000002E-11, 3.9508E-06, , , , 
DataValue, 5.04, 0.25, 1.47E-11, 4.1596000000000008E-06, , , , 
DataValue, 5.08, 0.25, 1.478E-11, 4.3765E-06, , , , 
DataValue, 5.12, 0.25, 1.444E-11, 4.6069000000000007E-06, , , , 
DataValue, 5.16, 0.25, 1.55E-11, 4.8465E-06, , , , 
DataValue, 5.2, 0.25, 1.591E-11, 5.0953E-06, , , , 
DataValue, 5.24, 0.25, 1.626E-11, 5.3527000000000004E-06, , , , 
DataValue, 5.28, 0.25, 1.6890000000000003E-11, 5.6198000000000008E-06, , , , 
DataValue, 5.32, 0.25, 1.7270000000000002E-11, 5.8959000000000006E-06, , , , 
DataValue, 5.36, 0.25, 1.7510000000000003E-11, 6.1809E-06, , , , 
DataValue, 5.4, 0.25, 1.781E-11, 6.4754000000000007E-06, , , , 
DataValue, 5.44, 0.25, 1.8200000000000002E-11, 6.7785E-06, , , , 
DataValue, 5.48, 0.25, 1.8730000000000003E-11, 7.091300000000001E-06, , , , 
DataValue, 5.5200000000000005, 0.25, 1.9150000000000003E-11, 7.4124E-06, , , , 
DataValue, 5.5600000000000005, 0.25, 1.9890000000000002E-11, 7.7432E-06, , , , 
DataValue, 5.6000000000000005, 0.25, 2.0040000000000003E-11, 8.0829E-06, , , , 
DataValue, 5.64, 0.25, 2.1370000000000003E-11, 8.4311000000000013E-06, , , , 
DataValue, 5.68, 0.25, 2.101E-11, 8.7906E-06, , , , 
DataValue, 5.72, 0.25, 2.161E-11, 9.1578E-06, , , , 
DataValue, 5.76, 0.25, 2.2170000000000003E-11, 9.5346E-06, , , , 
DataValue, 5.8, 0.25, 2.234E-11, 9.9188E-06, , , , 
DataValue, 5.84, 0.25, 2.3920000000000003E-11, 1.0312200000000001E-05, , , , 
DataValue, 5.88, 0.25, 2.3320000000000003E-11, 1.0712400000000001E-05, , , , 
DataValue, 5.92, 0.25, 2.498E-11, 1.1120600000000002E-05, , , , 
DataValue, 5.96, 0.25, 2.573E-11, 1.1992E-05, , , , 
DataValue, 6, 0.25, 2.498E-11, 1.239E-05, , , , 
DataValue, 6, 0.25, 2.4590000000000002E-11, 1.2460000000000001E-05, , , , 
DataValue, 5.96, 0.25, 2.254E-11, 1.2768E-05, , , , 
DataValue, 5.92, 0.25, 2.138E-11, 1.3048000000000001E-05, , , , 
DataValue, 5.88, 0.25, 2.014E-11, 1.329E-05, , , , 
DataValue, 5.84, 0.25, 1.8840000000000003E-11, 1.3498E-05, , , , 
DataValue, 5.8, 0.25, 1.7710000000000003E-11, 1.3682E-05, , , , 
DataValue, 5.76, 0.25, 1.6450000000000002E-11, 1.3840000000000001E-05, , , , 
