
SetupTitle, R-V
ApplicationTest, R-V, Public
TestParameter, Name, Port1, Port2, V1Start, V1Stop, V1Step, V2, I1Limit, IntegTime, HoldTime, DelayTime, Port1MinRng
TestParameter, Value, SMU1:MP	MPSMU, SMU2:MP	MPSMU, 0, 1, 0.05, 0, 0.01, MEDIUM, 0, 0, 1nA
DutParameter, Name, L, W, Temp
DutParameter, Value, 1E-05, 1E-06, 25
MetaData, TestRecord.EntryPoint, true
MetaData, TestRecord.RecordTime, 03/04/2023 14:19:37
MetaData, TestRecord.TestTarget, 
MetaData, TestRecord.IterationIndex, 8
MetaData, TestRecord.Preservation, true
MetaData, TestRecord.Flag, 
MetaData, TestRecord.Remarks, 
MetaData, TestRecord.LinkKey, 5d5000f4-cb16-4cc7-8b22-ded055e4c80f
Dimension1, 21, 21, 21, 21
Dimension2, 1, 1, 1, 1
DataName, V1, I1, R, Rsheet
DataValue, 0, -6.5043E-11, -0, -0
DataValue, 0.05, 1.0363E-07, 482485.76666988328, 48248.576666988323
DataValue, 0.1, 2.07203E-07, 482618.49490596179, 48261.849490596171
DataValue, 0.15, 3.1102E-07, 482284.09748569224, 48228.409748569218
DataValue, 0.2, 4.14664E-07, 482318.21426504356, 48231.82142650435
DataValue, 0.25, 5.1852899999999994E-07, 482133.11116639577, 48213.311116639568
DataValue, 0.3, 6.22316E-07, 482070.20227665687, 48207.020227665686
DataValue, 0.35000000000000003, 7.26334E-07, 481871.97625334904, 48187.1976253349
DataValue, 0.4, 8.3023199999999994E-07, 481793.04098131612, 48179.304098131608
DataValue, 0.45, 9.3413299999999994E-07, 481730.117659905, 48173.011765990494
DataValue, 0.5, 1.038219E-06, 481593.96042646113, 48159.396042646113
DataValue, 0.55, 1.142258E-06, 481502.42764769436, 48150.242764769435
DataValue, 0.6, 1.24574E-06, 481641.43400709616, 48164.14340070961
DataValue, 0.65, 1.34991E-06, 481513.58238697395, 48151.358238697394
DataValue, 0.70000000000000007, 1.45405E-06, 481413.98163749528, 48141.398163749524
DataValue, 0.75, 1.5581700000000002E-06, 481333.8724272704, 48133.387242727033
DataValue, 0.8, 1.6624700000000002E-06, 481211.69103803375, 48121.169103803368
DataValue, 0.85000000000000009, 1.76662E-06, 481144.78495658381, 48114.478495658375
DataValue, 0.9, 1.8710000000000002E-06, 481026.18920363439, 48102.618920363435
DataValue, 0.95000000000000007, 1.9752E-06, 480963.95301741594, 48096.395301741584
DataValue, 1, 2.07962E-06, 480857.0796587838, 48085.70796587837
SetupTitle, R-V
PrimitiveTest, I/V Sweep
TestParameter, Context.MainFrame, B1500A
TestParameter, Channel.UnitType, SMU, SMU
TestParameter, Channel.Unit, Port1, Port2
TestParameter, Channel.IName, I1, I2
TestParameter, Channel.VName, V1, V2
TestParameter, Channel.Mode, V, V
TestParameter, Channel.Func, VAR1, CONST
TestParameter, Channel.Index, 
TestParameter, Channel.Time, 
TestParameter, Measurement.Port.Unit, Port1, Port2
TestParameter, Measurement.Port.SeriesResistor, NONE, NONE
TestParameter, Measurement.Port.Filter, OFF, OFF
TestParameter, Measurement.Port.OutputVoltageComparison, 0, 0
TestParameter, Measurement.Primary.Locus, Single
TestParameter, Measurement.Primary.Scale, LINEAR
TestParameter, Measurement.Primary.Start, V1Start
TestParameter, Measurement.Primary.Stop, V1Stop
TestParameter, Measurement.Primary.Step, V1Step
TestParameter, Measurement.Primary.Compliance, I1Limit
TestParameter, Measurement.Primary.PowerCompliance, 0
TestParameter, Measurement.Aborting.Condition, CONTINUE AT ANY
TestParameter, Measurement.PostOutput.Value, START
TestParameter, Measurement.PostOutput.Retention, OFF
TestParameter, Measurement.Bias.Source, 0, V2
TestParameter, Measurement.Bias.Compliance, 0.01, I1Limit
TestParameter, Measurement.Monitor.Unit, SMU:=Port1, SMU:=Port2
TestParameter, Measurement.Monitor.Adc, HR ADC, HR ADC
TestParameter, Measurement.Monitor.Measurement, Compliance Side, Compliance Side
TestParameter, Measurement.Monitor.RangingMode, LIMITED, LIMITED
TestParameter, Measurement.Monitor.RangeBoundary, Port1MinRng, 1nA
TestParameter, Measurement.Monitor.RangeRating, BY FULL RANGE, BY FULL RANGE
TestParameter, Measurement.Monitor.RangeRatingCoeff, 50, 50
TestParameter, Measurement.Timing.Hold, HoldTime
TestParameter, Measurement.Timing.Delay, DelayTime
TestParameter, Measurement.Adc.HighSpeed.Mode, AUTO
TestParameter, Measurement.Adc.HighSpeed.Coeff, 1
TestParameter, Measurement.Adc.HighResolution.AutoZero, ON
TestParameter, Measurement.Adc.HighResolution.Mode, IntegMode
TestParameter, Measurement.Adc.HighResolution.Coeff, AdcFactor
TestParameter, Measurement.WaitTime.Source.Coeff, 1
TestParameter, Measurement.WaitTime.Source.Offset, 0
TestParameter, Measurement.WaitTime.Monitor.Coeff, 1
TestParameter, Measurement.WaitTime.Monitor.Offset, 0
TestParameter, Function.User.Name, R, Rsheet
TestParameter, Function.User.Unit, ohm, ohm/sheet
TestParameter, Function.User.Definition, V1/I1, R*W/L
TestParameter, Output.Graph.Enabled, true
TestParameter, Output.Graph.AutoScaling, false
TestParameter, Output.Graph.XAxis.Data, V1
TestParameter, Output.Graph.XAxis.Scale, Linear
TestParameter, Output.Graph.XAxis.Left, V1Start
TestParameter, Output.Graph.XAxis.Right, V1Stop
TestParameter, Output.Graph.XAxis.RunTimeAutoScale, false
TestParameter, Output.Graph.YAxis.Data, R, I1
TestParameter, Output.Graph.YAxis.Scale, Linear, Linear
TestParameter, Output.Graph.YAxis.Bottom, 0, 0
TestParameter, Output.Graph.YAxis.Top, V1Stop/I1Limit, I1Limit
TestParameter, Output.Graph.YAxis.Group, , 
TestParameter, Output.Graph.YAxis.RunTimeAutoScale, false, false
TestParameter, Output.List.Data, V1, I1, R, Rsheet
TestParameter, AutoAnalysis.Interpolation, false
TestParameter, AutoAnalysis.Line1.Enabled, false
TestParameter, AutoAnalysis.Line1.Type, 1
TestParameter, AutoAnalysis.Line1.Fix, False
TestParameter, AutoAnalysis.Line1.YAxis, 0
TestParameter, AutoAnalysis.Line1.Point1.Type, 0
TestParameter, AutoAnalysis.Line1.Point1.XY.X, 
TestParameter, AutoAnalysis.Line1.Point1.XY.Y, 
TestParameter, AutoAnalysis.Line1.Point1.Data.Var, 
TestParameter, AutoAnalysis.Line1.Point1.Data.Condition, 
TestParameter, AutoAnalysis.Line1.Point1.Data.Start, false
TestParameter, AutoAnalysis.Line1.Point1.Data.StartVar, 
TestParameter, AutoAnalysis.Line1.Point1.Data.StartCondition, 
TestParameter, AutoAnalysis.Line1.Point2.Type, 0
TestParameter, AutoAnalysis.Line1.Point2.XY.X, 
TestParameter, AutoAnalysis.Line1.Point2.XY.Y, 
TestParameter, AutoAnalysis.Line1.Point2.Data.Var, 
TestParameter, AutoAnalysis.Line1.Point2.Data.Condition, 
TestParameter, AutoAnalysis.Line1.Point2.Data.Start, false
TestParameter, AutoAnalysis.Line1.Point2.Data.StartVar, 
TestParameter, AutoAnalysis.Line1.Point2.Data.StartCondition, 
TestParameter, AutoAnalysis.Line1.GradientExpr, 0
TestParameter, AutoAnalysis.Line2.Enabled, false
TestParameter, AutoAnalysis.Line2.Type, 1
TestParameter, AutoAnalysis.Line2.Fix, False
TestParameter, AutoAnalysis.Line2.YAxis, 0
TestParameter, AutoAnalysis.Line2.Point1.Type, 0
TestParameter, AutoAnalysis.Line2.Point1.XY.X, 
TestParameter, AutoAnalysis.Line2.Point1.XY.Y, 
TestParameter, AutoAnalysis.Line2.Point1.Data.Var, 
TestParameter, AutoAnalysis.Line2.Point1.Data.Condition, 
TestParameter, AutoAnalysis.Line2.Point1.Data.Start, false
TestParameter, AutoAnalysis.Line2.Point1.Data.StartVar, 
TestParameter, AutoAnalysis.Line2.Point1.Data.StartCondition, 
TestParameter, AutoAnalysis.Line2.Point2.Type, 0
TestParameter, AutoAnalysis.Line2.Point2.XY.X, 
TestParameter, AutoAnalysis.Line2.Point2.XY.Y, 
TestParameter, AutoAnalysis.Line2.Point2.Data.Var, 
TestParameter, AutoAnalysis.Line2.Point2.Data.Condition, 
TestParameter, AutoAnalysis.Line2.Point2.Data.Start, false
TestParameter, AutoAnalysis.Line2.Point2.Data.StartVar, 
TestParameter, AutoAnalysis.Line2.Point2.Data.StartCondition, 
TestParameter, AutoAnalysis.Line2.GradientExpr, 0
TestParameter, AutoAnalysis.Marker.Enabled, false
TestParameter, AutoAnalysis.Marker.Data.Var, 
TestParameter, AutoAnalysis.Marker.Data.Condition, 
TestParameter, AutoAnalysis.Marker.Data.Start, false
TestParameter, AutoAnalysis.Marker.Data.StartVar, 
TestParameter, AutoAnalysis.Marker.Data.StartCondition, 
MetaData, TestRecord.EntryPoint, false
MetaData, TestRecord.RecordTime, 03/04/2023 14:19:37
MetaData, TestRecord.TestTarget, 
MetaData, TestRecord.IterationIndex, 8
MetaData, TestRecord.Preservation, true
MetaData, TestRecord.Flag, 
MetaData, TestRecord.Remarks, 
MetaData, TestRecord.LinkKey, 5d5000f4-cb16-4cc7-8b22-ded055e4c80f
Dimension1, 21, 21, 21, 21
Dimension2, 1, 1, 1, 1
DataName, V1, I1, R, Rsheet
DataValue, 0, -6.5043E-11, -0, -0
DataValue, 0.05, 1.0363E-07, 482485.76666988328, 48248.576666988323
DataValue, 0.1, 2.07203E-07, 482618.49490596179, 48261.849490596171
DataValue, 0.15, 3.1102E-07, 482284.09748569224, 48228.409748569218
DataValue, 0.2, 4.14664E-07, 482318.21426504356, 48231.82142650435
DataValue, 0.25, 5.1852899999999994E-07, 482133.11116639577, 48213.311116639568
DataValue, 0.3, 6.22316E-07, 482070.20227665687, 48207.020227665686
DataValue, 0.35000000000000003, 7.26334E-07, 481871.97625334904, 48187.1976253349
DataValue, 0.4, 8.3023199999999994E-07, 481793.04098131612, 48179.304098131608
DataValue, 0.45, 9.3413299999999994E-07, 481730.117659905, 48173.011765990494
DataValue, 0.5, 1.038219E-06, 481593.96042646113, 48159.396042646113
DataValue, 0.55, 1.142258E-06, 481502.42764769436, 48150.242764769435
DataValue, 0.6, 1.24574E-06, 481641.43400709616, 48164.14340070961
DataValue, 0.65, 1.34991E-06, 481513.58238697395, 48151.358238697394
DataValue, 0.70000000000000007, 1.45405E-06, 481413.98163749528, 48141.398163749524
DataValue, 0.75, 1.5581700000000002E-06, 481333.8724272704, 48133.387242727033
DataValue, 0.8, 1.6624700000000002E-06, 481211.69103803375, 48121.169103803368
DataValue, 0.85000000000000009, 1.76662E-06, 481144.78495658381, 48114.478495658375
DataValue, 0.9, 1.8710000000000002E-06, 481026.18920363439, 48102.618920363435
DataValue, 0.95000000000000007, 1.9752E-06, 480963.95301741594, 48096.395301741584
DataValue, 1, 2.07962E-06, 480857.0796587838, 48085.70796587837