
SetupTitle, R-V
ApplicationTest, R-V, Public
TestParameter, Name, Port1, Port2, V1Start, V1Stop, V1Step, V2, I1Limit, IntegTime, HoldTime, DelayTime, Port1MinRng
TestParameter, Value, SMU1:MP	MPSMU, SMU2:MP	MPSMU, 0, 1, 0.05, 0, 0.01, MEDIUM, 0, 0, 1nA
DutParameter, Name, L, W, Temp
DutParameter, Value, 1E-05, 1E-06, 25
MetaData, TestRecord.EntryPoint, true
MetaData, TestRecord.RecordTime, 03/04/2023 14:16:42
MetaData, TestRecord.TestTarget, 
MetaData, TestRecord.IterationIndex, 4
MetaData, TestRecord.Preservation, true
MetaData, TestRecord.Flag, 
MetaData, TestRecord.Remarks, 
MetaData, TestRecord.LinkKey, 2f185345-bd8f-468d-bd7e-ba605132ba17
Dimension1, 21, 21, 21, 21
Dimension2, 1, 1, 1, 1
DataName, V1, I1, R, Rsheet
DataValue, 0, -1.28598E-10, -0, -0
DataValue, 0.05, 2.06543E-07, 242080.34162377811, 24208.034162377808
DataValue, 0.1, 4.12881E-07, 242200.53720079153, 24220.053720079151
DataValue, 0.15, 6.19547E-07, 242112.38211144594, 24211.238211144591
DataValue, 0.2, 8.2579799999999994E-07, 242189.97866306291, 24218.99786630629
DataValue, 0.25, 1.0324E-06, 242154.20379697791, 24215.420379697785
DataValue, 0.3, 1.2381200000000002E-06, 242302.84625076724, 24230.284625076722
DataValue, 0.35000000000000003, 1.4447100000000002E-06, 242263.15315876543, 24226.315315876542
DataValue, 0.4, 1.6509500000000003E-06, 242284.74514673368, 24228.474514673366
DataValue, 0.45, 1.85715E-06, 242306.760358614, 24230.676035861397
DataValue, 0.5, 2.0635800000000003E-06, 242297.36671221853, 24229.73667122185
DataValue, 0.55, 2.2698200000000004E-06, 242309.96290454749, 24230.996290454746
DataValue, 0.6, 2.4758900000000004E-06, 242337.09898258804, 24233.709898258803
DataValue, 0.65, 2.6822800000000004E-06, 242331.15111024946, 24233.115111024941
DataValue, 0.70000000000000007, 2.8885600000000003E-06, 242335.28124740353, 24233.528124740351
DataValue, 0.75, 3.0945200000000003E-06, 242363.92073730333, 24236.392073730331
DataValue, 0.8, 3.3007900000000004E-06, 242366.22141972071, 24236.622141972068
DataValue, 0.85000000000000009, 3.5067400000000005E-06, 242390.36826226066, 24239.036826226064
DataValue, 0.9, 3.7130100000000006E-06, 242390.94427432187, 24239.094427432185
DataValue, 0.95000000000000007, 3.9190700000000007E-06, 242404.44799403937, 24240.444799403933
DataValue, 1, 4.12502E-06, 242423.06703967496, 24242.306703967493
SetupTitle, R-V
PrimitiveTest, I/V Sweep
TestParameter, Context.MainFrame, B1500A
TestParameter, Channel.UnitType, SMU, SMU
TestParameter, Channel.Unit, Port1, Port2
TestParameter, Channel.IName, I1, I2
TestParameter, Channel.VName, V1, V2
TestParameter, Channel.Mode, V, V
TestParameter, Channel.Func, VAR1, CONST
TestParameter, Channel.Index, 
TestParameter, Channel.Time, 
TestParameter, Measurement.Port.Unit, Port1, Port2
TestParameter, Measurement.Port.SeriesResistor, NONE, NONE
TestParameter, Measurement.Port.Filter, OFF, OFF
TestParameter, Measurement.Port.OutputVoltageComparison, 0, 0
TestParameter, Measurement.Primary.Locus, Single
TestParameter, Measurement.Primary.Scale, LINEAR
TestParameter, Measurement.Primary.Start, V1Start
TestParameter, Measurement.Primary.Stop, V1Stop
TestParameter, Measurement.Primary.Step, V1Step
TestParameter, Measurement.Primary.Compliance, I1Limit
TestParameter, Measurement.Primary.PowerCompliance, 0
TestParameter, Measurement.Aborting.Condition, CONTINUE AT ANY
TestParameter, Measurement.PostOutput.Value, START
TestParameter, Measurement.PostOutput.Retention, OFF
TestParameter, Measurement.Bias.Source, 0, V2
TestParameter, Measurement.Bias.Compliance, 0.01, I1Limit
TestParameter, Measurement.Monitor.Unit, SMU:=Port1, SMU:=Port2
TestParameter, Measurement.Monitor.Adc, HR ADC, HR ADC
TestParameter, Measurement.Monitor.Measurement, Compliance Side, Compliance Side
TestParameter, Measurement.Monitor.RangingMode, LIMITED, LIMITED
TestParameter, Measurement.Monitor.RangeBoundary, Port1MinRng, 1nA
TestParameter, Measurement.Monitor.RangeRating, BY FULL RANGE, BY FULL RANGE
TestParameter, Measurement.Monitor.RangeRatingCoeff, 50, 50
TestParameter, Measurement.Timing.Hold, HoldTime
TestParameter, Measurement.Timing.Delay, DelayTime
TestParameter, Measurement.Adc.HighSpeed.Mode, AUTO
TestParameter, Measurement.Adc.HighSpeed.Coeff, 1
TestParameter, Measurement.Adc.HighResolution.AutoZero, ON
TestParameter, Measurement.Adc.HighResolution.Mode, IntegMode
TestParameter, Measurement.Adc.HighResolution.Coeff, AdcFactor
TestParameter, Measurement.WaitTime.Source.Coeff, 1
TestParameter, Measurement.WaitTime.Source.Offset, 0
TestParameter, Measurement.WaitTime.Monitor.Coeff, 1
TestParameter, Measurement.WaitTime.Monitor.Offset, 0
TestParameter, Function.User.Name, R, Rsheet
TestParameter, Function.User.Unit, ohm, ohm/sheet
TestParameter, Function.User.Definition, V1/I1, R*W/L
TestParameter, Output.Graph.Enabled, true
TestParameter, Output.Graph.AutoScaling, false
TestParameter, Output.Graph.XAxis.Data, V1
TestParameter, Output.Graph.XAxis.Scale, Linear
TestParameter, Output.Graph.XAxis.Left, V1Start
TestParameter, Output.Graph.XAxis.Right, V1Stop
TestParameter, Output.Graph.XAxis.RunTimeAutoScale, false
TestParameter, Output.Graph.YAxis.Data, R, I1
TestParameter, Output.Graph.YAxis.Scale, Linear, Linear
TestParameter, Output.Graph.YAxis.Bottom, 0, 0
TestParameter, Output.Graph.YAxis.Top, V1Stop/I1Limit, I1Limit
TestParameter, Output.Graph.YAxis.Group, , 
TestParameter, Output.Graph.YAxis.RunTimeAutoScale, false, false
TestParameter, Output.List.Data, V1, I1, R, Rsheet
TestParameter, AutoAnalysis.Interpolation, false
TestParameter, AutoAnalysis.Line1.Enabled, false
TestParameter, AutoAnalysis.Line1.Type, 1
TestParameter, AutoAnalysis.Line1.Fix, False
TestParameter, AutoAnalysis.Line1.YAxis, 0
TestParameter, AutoAnalysis.Line1.Point1.Type, 0
TestParameter, AutoAnalysis.Line1.Point1.XY.X, 
TestParameter, AutoAnalysis.Line1.Point1.XY.Y, 
TestParameter, AutoAnalysis.Line1.Point1.Data.Var, 
TestParameter, AutoAnalysis.Line1.Point1.Data.Condition, 
TestParameter, AutoAnalysis.Line1.Point1.Data.Start, false
TestParameter, AutoAnalysis.Line1.Point1.Data.StartVar, 
TestParameter, AutoAnalysis.Line1.Point1.Data.StartCondition, 
TestParameter, AutoAnalysis.Line1.Point2.Type, 0
TestParameter, AutoAnalysis.Line1.Point2.XY.X, 
TestParameter, AutoAnalysis.Line1.Point2.XY.Y, 
TestParameter, AutoAnalysis.Line1.Point2.Data.Var, 
TestParameter, AutoAnalysis.Line1.Point2.Data.Condition, 
TestParameter, AutoAnalysis.Line1.Point2.Data.Start, false
TestParameter, AutoAnalysis.Line1.Point2.Data.StartVar, 
TestParameter, AutoAnalysis.Line1.Point2.Data.StartCondition, 
TestParameter, AutoAnalysis.Line1.GradientExpr, 0
TestParameter, AutoAnalysis.Line2.Enabled, false
TestParameter, AutoAnalysis.Line2.Type, 1
TestParameter, AutoAnalysis.Line2.Fix, False
TestParameter, AutoAnalysis.Line2.YAxis, 0
TestParameter, AutoAnalysis.Line2.Point1.Type, 0
TestParameter, AutoAnalysis.Line2.Point1.XY.X, 
TestParameter, AutoAnalysis.Line2.Point1.XY.Y, 
TestParameter, AutoAnalysis.Line2.Point1.Data.Var, 
TestParameter, AutoAnalysis.Line2.Point1.Data.Condition, 
TestParameter, AutoAnalysis.Line2.Point1.Data.Start, false
TestParameter, AutoAnalysis.Line2.Point1.Data.StartVar, 
TestParameter, AutoAnalysis.Line2.Point1.Data.StartCondition, 
TestParameter, AutoAnalysis.Line2.Point2.Type, 0
TestParameter, AutoAnalysis.Line2.Point2.XY.X, 
TestParameter, AutoAnalysis.Line2.Point2.XY.Y, 
TestParameter, AutoAnalysis.Line2.Point2.Data.Var, 
TestParameter, AutoAnalysis.Line2.Point2.Data.Condition, 
TestParameter, AutoAnalysis.Line2.Point2.Data.Start, false
TestParameter, AutoAnalysis.Line2.Point2.Data.StartVar, 
TestParameter, AutoAnalysis.Line2.Point2.Data.StartCondition, 
TestParameter, AutoAnalysis.Line2.GradientExpr, 0
TestParameter, AutoAnalysis.Marker.Enabled, false
TestParameter, AutoAnalysis.Marker.Data.Var, 
TestParameter, AutoAnalysis.Marker.Data.Condition, 
TestParameter, AutoAnalysis.Marker.Data.Start, false
TestParameter, AutoAnalysis.Marker.Data.StartVar, 
TestParameter, AutoAnalysis.Marker.Data.StartCondition, 
MetaData, TestRecord.EntryPoint, false
MetaData, TestRecord.RecordTime, 03/04/2023 14:16:42
MetaData, TestRecord.TestTarget, 
MetaData, TestRecord.IterationIndex, 4
MetaData, TestRecord.Preservation, true
MetaData, TestRecord.Flag, 
MetaData, TestRecord.Remarks, 
MetaData, TestRecord.LinkKey, 2f185345-bd8f-468d-bd7e-ba605132ba17
Dimension1, 21, 21, 21, 21
Dimension2, 1, 1, 1, 1
DataName, V1, I1, R, Rsheet
DataValue, 0, -1.28598E-10, -0, -0
DataValue, 0.05, 2.06543E-07, 242080.34162377811, 24208.034162377808
DataValue, 0.1, 4.12881E-07, 242200.53720079153, 24220.053720079151
DataValue, 0.15, 6.19547E-07, 242112.38211144594, 24211.238211144591
DataValue, 0.2, 8.2579799999999994E-07, 242189.97866306291, 24218.99786630629
DataValue, 0.25, 1.0324E-06, 242154.20379697791, 24215.420379697785
DataValue, 0.3, 1.2381200000000002E-06, 242302.84625076724, 24230.284625076722
DataValue, 0.35000000000000003, 1.4447100000000002E-06, 242263.15315876543, 24226.315315876542
DataValue, 0.4, 1.6509500000000003E-06, 242284.74514673368, 24228.474514673366
DataValue, 0.45, 1.85715E-06, 242306.760358614, 24230.676035861397
DataValue, 0.5, 2.0635800000000003E-06, 242297.36671221853, 24229.73667122185
DataValue, 0.55, 2.2698200000000004E-06, 242309.96290454749, 24230.996290454746
DataValue, 0.6, 2.4758900000000004E-06, 242337.09898258804, 24233.709898258803
DataValue, 0.65, 2.6822800000000004E-06, 242331.15111024946, 24233.115111024941
DataValue, 0.70000000000000007, 2.8885600000000003E-06, 242335.28124740353, 24233.528124740351
DataValue, 0.75, 3.0945200000000003E-06, 242363.92073730333, 24236.392073730331
DataValue, 0.8, 3.3007900000000004E-06, 242366.22141972071, 24236.622141972068
DataValue, 0.85000000000000009, 3.5067400000000005E-06, 242390.36826226066, 24239.036826226064
DataValue, 0.9, 3.7130100000000006E-06, 242390.94427432187, 24239.094427432185
DataValue, 0.95000000000000007, 3.9190700000000007E-06, 242404.44799403937, 24240.444799403933
DataValue, 1, 4.12502E-06, 242423.06703967496, 24242.306703967493