
SetupTitle, R-V
ApplicationTest, R-V, Public
TestParameter, Name, Port1, Port2, V1Start, V1Stop, V1Step, V2, I1Limit, IntegTime, HoldTime, DelayTime, Port1MinRng
TestParameter, Value, SMU1:MP	MPSMU, SMU2:MP	MPSMU, 0, 1, 0.05, 0, 0.01, MEDIUM, 0, 0, 1nA
DutParameter, Name, L, W, Temp
DutParameter, Value, 1E-05, 1E-06, 25
MetaData, TestRecord.EntryPoint, true
MetaData, TestRecord.RecordTime, 03/04/2023 14:15:51
MetaData, TestRecord.TestTarget, 
MetaData, TestRecord.IterationIndex, 3
MetaData, TestRecord.Preservation, true
MetaData, TestRecord.Flag, 
MetaData, TestRecord.Remarks, 
MetaData, TestRecord.LinkKey, a2eb171e-0073-4ce5-adf1-7c416f839ab8
Dimension1, 21, 21, 21, 21
Dimension2, 1, 1, 1, 1
DataName, V1, I1, R, Rsheet
DataValue, 0, -1.48636E-10, -0, -0
DataValue, 0.05, 2.26566E-07, 220686.24595040741, 22068.624595040739
DataValue, 0.1, 4.52926E-07, 220786.61856462204, 22078.6618564622
DataValue, 0.15, 6.79648E-07, 220702.48128442958, 22070.248128442956
DataValue, 0.2, 9.05898E-07, 220775.40738582049, 22077.540738582047
DataValue, 0.25, 1.132538E-06, 220743.14504237386, 22074.314504237384
DataValue, 0.3, 1.35828E-06, 220867.56780634329, 22086.756780634325
DataValue, 0.35000000000000003, 1.5848200000000002E-06, 220845.26949432743, 22084.52694943274
DataValue, 0.4, 1.8111500000000002E-06, 220854.15343842309, 22085.415343842305
DataValue, 0.45, 2.0373400000000002E-06, 220876.24058821795, 22087.624058821792
DataValue, 0.5, 2.2638200000000004E-06, 220865.61652428194, 22086.56165242819
DataValue, 0.55, 2.48995E-06, 220887.96963794454, 22088.796963794452
DataValue, 0.6, 2.71613E-06, 220902.53412023722, 22090.253412023721
DataValue, 0.65, 2.9424800000000005E-06, 220902.09619096812, 22090.209619096811
DataValue, 0.70000000000000007, 3.1688000000000005E-06, 220903.81216864428, 22090.381216864425
DataValue, 0.75, 3.3947600000000003E-06, 220928.72544745429, 22092.872544745427
DataValue, 0.8, 3.6211000000000004E-06, 220927.34252022865, 22092.734252022863
DataValue, 0.85000000000000009, 3.8469500000000005E-06, 220954.26246766918, 22095.426246766914
DataValue, 0.9, 4.07327E-06, 220952.69893721753, 22095.26989372175
DataValue, 0.95000000000000007, 4.2993500000000006E-06, 220963.63403770336, 22096.363403770334
DataValue, 1, 4.5252300000000007E-06, 220983.24284069537, 22098.324284069535
SetupTitle, R-V
PrimitiveTest, I/V Sweep
TestParameter, Context.MainFrame, B1500A
TestParameter, Channel.UnitType, SMU, SMU
TestParameter, Channel.Unit, Port1, Port2
TestParameter, Channel.IName, I1, I2
TestParameter, Channel.VName, V1, V2
TestParameter, Channel.Mode, V, V
TestParameter, Channel.Func, VAR1, CONST
TestParameter, Channel.Index, 
TestParameter, Channel.Time, 
TestParameter, Measurement.Port.Unit, Port1, Port2
TestParameter, Measurement.Port.SeriesResistor, NONE, NONE
TestParameter, Measurement.Port.Filter, OFF, OFF
TestParameter, Measurement.Port.OutputVoltageComparison, 0, 0
TestParameter, Measurement.Primary.Locus, Single
TestParameter, Measurement.Primary.Scale, LINEAR
TestParameter, Measurement.Primary.Start, V1Start
TestParameter, Measurement.Primary.Stop, V1Stop
TestParameter, Measurement.Primary.Step, V1Step
TestParameter, Measurement.Primary.Compliance, I1Limit
TestParameter, Measurement.Primary.PowerCompliance, 0
TestParameter, Measurement.Aborting.Condition, CONTINUE AT ANY
TestParameter, Measurement.PostOutput.Value, START
TestParameter, Measurement.PostOutput.Retention, OFF
TestParameter, Measurement.Bias.Source, 0, V2
TestParameter, Measurement.Bias.Compliance, 0.01, I1Limit
TestParameter, Measurement.Monitor.Unit, SMU:=Port1, SMU:=Port2
TestParameter, Measurement.Monitor.Adc, HR ADC, HR ADC
TestParameter, Measurement.Monitor.Measurement, Compliance Side, Compliance Side
TestParameter, Measurement.Monitor.RangingMode, LIMITED, LIMITED
TestParameter, Measurement.Monitor.RangeBoundary, Port1MinRng, 1nA
TestParameter, Measurement.Monitor.RangeRating, BY FULL RANGE, BY FULL RANGE
TestParameter, Measurement.Monitor.RangeRatingCoeff, 50, 50
TestParameter, Measurement.Timing.Hold, HoldTime
TestParameter, Measurement.Timing.Delay, DelayTime
TestParameter, Measurement.Adc.HighSpeed.Mode, AUTO
TestParameter, Measurement.Adc.HighSpeed.Coeff, 1
TestParameter, Measurement.Adc.HighResolution.AutoZero, ON
TestParameter, Measurement.Adc.HighResolution.Mode, IntegMode
TestParameter, Measurement.Adc.HighResolution.Coeff, AdcFactor
TestParameter, Measurement.WaitTime.Source.Coeff, 1
TestParameter, Measurement.WaitTime.Source.Offset, 0
TestParameter, Measurement.WaitTime.Monitor.Coeff, 1
TestParameter, Measurement.WaitTime.Monitor.Offset, 0
TestParameter, Function.User.Name, R, Rsheet
TestParameter, Function.User.Unit, ohm, ohm/sheet
TestParameter, Function.User.Definition, V1/I1, R*W/L
TestParameter, Output.Graph.Enabled, true
TestParameter, Output.Graph.AutoScaling, false
TestParameter, Output.Graph.XAxis.Data, V1
TestParameter, Output.Graph.XAxis.Scale, Linear
TestParameter, Output.Graph.XAxis.Left, V1Start
TestParameter, Output.Graph.XAxis.Right, V1Stop
TestParameter, Output.Graph.XAxis.RunTimeAutoScale, false
TestParameter, Output.Graph.YAxis.Data, R, I1
TestParameter, Output.Graph.YAxis.Scale, Linear, Linear
TestParameter, Output.Graph.YAxis.Bottom, 0, 0
TestParameter, Output.Graph.YAxis.Top, V1Stop/I1Limit, I1Limit
TestParameter, Output.Graph.YAxis.Group, , 
TestParameter, Output.Graph.YAxis.RunTimeAutoScale, false, false
TestParameter, Output.List.Data, V1, I1, R, Rsheet
TestParameter, AutoAnalysis.Interpolation, false
TestParameter, AutoAnalysis.Line1.Enabled, false
TestParameter, AutoAnalysis.Line1.Type, 1
TestParameter, AutoAnalysis.Line1.Fix, False
TestParameter, AutoAnalysis.Line1.YAxis, 0
TestParameter, AutoAnalysis.Line1.Point1.Type, 0
TestParameter, AutoAnalysis.Line1.Point1.XY.X, 
TestParameter, AutoAnalysis.Line1.Point1.XY.Y, 
TestParameter, AutoAnalysis.Line1.Point1.Data.Var, 
TestParameter, AutoAnalysis.Line1.Point1.Data.Condition, 
TestParameter, AutoAnalysis.Line1.Point1.Data.Start, false
TestParameter, AutoAnalysis.Line1.Point1.Data.StartVar, 
TestParameter, AutoAnalysis.Line1.Point1.Data.StartCondition, 
TestParameter, AutoAnalysis.Line1.Point2.Type, 0
TestParameter, AutoAnalysis.Line1.Point2.XY.X, 
TestParameter, AutoAnalysis.Line1.Point2.XY.Y, 
TestParameter, AutoAnalysis.Line1.Point2.Data.Var, 
TestParameter, AutoAnalysis.Line1.Point2.Data.Condition, 
TestParameter, AutoAnalysis.Line1.Point2.Data.Start, false
TestParameter, AutoAnalysis.Line1.Point2.Data.StartVar, 
TestParameter, AutoAnalysis.Line1.Point2.Data.StartCondition, 
TestParameter, AutoAnalysis.Line1.GradientExpr, 0
TestParameter, AutoAnalysis.Line2.Enabled, false
TestParameter, AutoAnalysis.Line2.Type, 1
TestParameter, AutoAnalysis.Line2.Fix, False
TestParameter, AutoAnalysis.Line2.YAxis, 0
TestParameter, AutoAnalysis.Line2.Point1.Type, 0
TestParameter, AutoAnalysis.Line2.Point1.XY.X, 
TestParameter, AutoAnalysis.Line2.Point1.XY.Y, 
TestParameter, AutoAnalysis.Line2.Point1.Data.Var, 
TestParameter, AutoAnalysis.Line2.Point1.Data.Condition, 
TestParameter, AutoAnalysis.Line2.Point1.Data.Start, false
TestParameter, AutoAnalysis.Line2.Point1.Data.StartVar, 
TestParameter, AutoAnalysis.Line2.Point1.Data.StartCondition, 
TestParameter, AutoAnalysis.Line2.Point2.Type, 0
TestParameter, AutoAnalysis.Line2.Point2.XY.X, 
TestParameter, AutoAnalysis.Line2.Point2.XY.Y, 
TestParameter, AutoAnalysis.Line2.Point2.Data.Var, 
TestParameter, AutoAnalysis.Line2.Point2.Data.Condition, 
TestParameter, AutoAnalysis.Line2.Point2.Data.Start, false
TestParameter, AutoAnalysis.Line2.Point2.Data.StartVar, 
TestParameter, AutoAnalysis.Line2.Point2.Data.StartCondition, 
TestParameter, AutoAnalysis.Line2.GradientExpr, 0
TestParameter, AutoAnalysis.Marker.Enabled, false
TestParameter, AutoAnalysis.Marker.Data.Var, 
TestParameter, AutoAnalysis.Marker.Data.Condition, 
TestParameter, AutoAnalysis.Marker.Data.Start, false
TestParameter, AutoAnalysis.Marker.Data.StartVar, 
TestParameter, AutoAnalysis.Marker.Data.StartCondition, 
MetaData, TestRecord.EntryPoint, false
MetaData, TestRecord.RecordTime, 03/04/2023 14:15:51
MetaData, TestRecord.TestTarget, 
MetaData, TestRecord.IterationIndex, 3
MetaData, TestRecord.Preservation, true
MetaData, TestRecord.Flag, 
MetaData, TestRecord.Remarks, 
MetaData, TestRecord.LinkKey, a2eb171e-0073-4ce5-adf1-7c416f839ab8
Dimension1, 21, 21, 21, 21
Dimension2, 1, 1, 1, 1
DataName, V1, I1, R, Rsheet
DataValue, 0, -1.48636E-10, -0, -0
DataValue, 0.05, 2.26566E-07, 220686.24595040741, 22068.624595040739
DataValue, 0.1, 4.52926E-07, 220786.61856462204, 22078.6618564622
DataValue, 0.15, 6.79648E-07, 220702.48128442958, 22070.248128442956
DataValue, 0.2, 9.05898E-07, 220775.40738582049, 22077.540738582047
DataValue, 0.25, 1.132538E-06, 220743.14504237386, 22074.314504237384
DataValue, 0.3, 1.35828E-06, 220867.56780634329, 22086.756780634325
DataValue, 0.35000000000000003, 1.5848200000000002E-06, 220845.26949432743, 22084.52694943274
DataValue, 0.4, 1.8111500000000002E-06, 220854.15343842309, 22085.415343842305
DataValue, 0.45, 2.0373400000000002E-06, 220876.24058821795, 22087.624058821792
DataValue, 0.5, 2.2638200000000004E-06, 220865.61652428194, 22086.56165242819
DataValue, 0.55, 2.48995E-06, 220887.96963794454, 22088.796963794452
DataValue, 0.6, 2.71613E-06, 220902.53412023722, 22090.253412023721
DataValue, 0.65, 2.9424800000000005E-06, 220902.09619096812, 22090.209619096811
DataValue, 0.70000000000000007, 3.1688000000000005E-06, 220903.81216864428, 22090.381216864425
DataValue, 0.75, 3.3947600000000003E-06, 220928.72544745429, 22092.872544745427
DataValue, 0.8, 3.6211000000000004E-06, 220927.34252022865, 22092.734252022863
DataValue, 0.85000000000000009, 3.8469500000000005E-06, 220954.26246766918, 22095.426246766914
DataValue, 0.9, 4.07327E-06, 220952.69893721753, 22095.26989372175
DataValue, 0.95000000000000007, 4.2993500000000006E-06, 220963.63403770336, 22096.363403770334
DataValue, 1, 4.5252300000000007E-06, 220983.24284069537, 22098.324284069535