
SetupTitle, R-V
ApplicationTest, R-V, Public
TestParameter, Name, Port1, Port2, V1Start, V1Stop, V1Step, V2, I1Limit, IntegTime, HoldTime, DelayTime, Port1MinRng
TestParameter, Value, SMU1:MP	MPSMU, SMU2:MP	MPSMU, 0, 1, 0.05, 0, 0.01, MEDIUM, 0, 0, 1nA
DutParameter, Name, L, W, Temp
DutParameter, Value, 1E-05, 1E-06, 25
MetaData, TestRecord.EntryPoint, true
MetaData, TestRecord.RecordTime, 03/04/2023 15:59:05
MetaData, TestRecord.TestTarget, 
MetaData, TestRecord.IterationIndex, 10
MetaData, TestRecord.Preservation, true
MetaData, TestRecord.Flag, 
MetaData, TestRecord.Remarks, 
MetaData, TestRecord.LinkKey, ab1d1765-cbed-48f2-8d8b-19136954a1f0
Dimension1, 21, 21, 21, 21
Dimension2, 1, 1, 1, 1
DataName, V1, I1, R, Rsheet
DataValue, 0, -5.5000000000000005E-14, -0, -0
DataValue, 0.05, 1.3661000000000002E-11, 3660054168.8016982, 366005416.88016975
DataValue, 0.1, 2.3476E-11, 4259669449.6507072, 425966944.96507066
DataValue, 0.15, 3.0632E-11, 4896839905.9806738, 489683990.59806728
DataValue, 0.2, 3.6564E-11, 5469861065.5289354, 546986106.5528934
DataValue, 0.25, 4.268E-11, 5857544517.3383312, 585754451.73383307
DataValue, 0.3, 4.8169000000000004E-11, 6228071996.5122786, 622807199.65122771
DataValue, 0.35000000000000003, 5.3825000000000005E-11, 6502554575.0116119, 650255457.5011611
DataValue, 0.4, 6.0149E-11, 6650152122.2297964, 665015212.22297955
DataValue, 0.45, 6.6072E-11, 6810751907.0105343, 681075190.70105326
DataValue, 0.5, 7.1896000000000009E-11, 6954489818.6269045, 695448981.86269033
DataValue, 0.55, 7.8049000000000009E-11, 7046855180.7198038, 704685518.07198036
DataValue, 0.6, 8.4773000000000008E-11, 7077725219.1145754, 707772521.91145742
DataValue, 0.65, 9.1135E-11, 7132276293.4108744, 713227629.34108734
DataValue, 0.70000000000000007, 9.7991000000000011E-11, 7143513179.7818165, 714351317.97818148
DataValue, 0.75, 1.04889E-10, 7150416154.2201757, 715041615.42201746
DataValue, 0.8, 1.1219100000000001E-10, 7130696758.2069864, 713069675.82069862
DataValue, 0.85000000000000009, 1.1952600000000002E-10, 7111423455.9844713, 711142345.598447
DataValue, 0.9, 1.2756300000000002E-10, 7055337362.7148924, 705533736.27148914
DataValue, 0.95000000000000007, 1.35488E-10, 7011691072.2720833, 701169107.22720826
DataValue, 1, 1.43733E-10, 6957344520.7433224, 695734452.07433224
SetupTitle, R-V
PrimitiveTest, I/V Sweep
TestParameter, Context.MainFrame, B1500A
TestParameter, Channel.UnitType, SMU, SMU
TestParameter, Channel.Unit, Port1, Port2
TestParameter, Channel.IName, I1, I2
TestParameter, Channel.VName, V1, V2
TestParameter, Channel.Mode, V, V
TestParameter, Channel.Func, VAR1, CONST
TestParameter, Channel.Index, 
TestParameter, Channel.Time, 
TestParameter, Measurement.Port.Unit, Port1, Port2
TestParameter, Measurement.Port.SeriesResistor, NONE, NONE
TestParameter, Measurement.Port.Filter, OFF, OFF
TestParameter, Measurement.Port.OutputVoltageComparison, 0, 0
TestParameter, Measurement.Primary.Locus, Single
TestParameter, Measurement.Primary.Scale, LINEAR
TestParameter, Measurement.Primary.Start, V1Start
TestParameter, Measurement.Primary.Stop, V1Stop
TestParameter, Measurement.Primary.Step, V1Step
TestParameter, Measurement.Primary.Compliance, I1Limit
TestParameter, Measurement.Primary.PowerCompliance, 0
TestParameter, Measurement.Aborting.Condition, CONTINUE AT ANY
TestParameter, Measurement.PostOutput.Value, START
TestParameter, Measurement.PostOutput.Retention, OFF
TestParameter, Measurement.Bias.Source, 0, V2
TestParameter, Measurement.Bias.Compliance, 0.01, I1Limit
TestParameter, Measurement.Monitor.Unit, SMU:=Port1, SMU:=Port2
TestParameter, Measurement.Monitor.Adc, HR ADC, HR ADC
TestParameter, Measurement.Monitor.Measurement, Compliance Side, Compliance Side
TestParameter, Measurement.Monitor.RangingMode, LIMITED, LIMITED
TestParameter, Measurement.Monitor.RangeBoundary, Port1MinRng, 1nA
TestParameter, Measurement.Monitor.RangeRating, BY FULL RANGE, BY FULL RANGE
TestParameter, Measurement.Monitor.RangeRatingCoeff, 50, 50
TestParameter, Measurement.Timing.Hold, HoldTime
TestParameter, Measurement.Timing.Delay, DelayTime
TestParameter, Measurement.Adc.HighSpeed.Mode, AUTO
TestParameter, Measurement.Adc.HighSpeed.Coeff, 1
TestParameter, Measurement.Adc.HighResolution.AutoZero, ON
TestParameter, Measurement.Adc.HighResolution.Mode, IntegMode
TestParameter, Measurement.Adc.HighResolution.Coeff, AdcFactor
TestParameter, Measurement.WaitTime.Source.Coeff, 1
TestParameter, Measurement.WaitTime.Source.Offset, 0
TestParameter, Measurement.WaitTime.Monitor.Coeff, 1
TestParameter, Measurement.WaitTime.Monitor.Offset, 0
TestParameter, Function.User.Name, R, Rsheet
TestParameter, Function.User.Unit, ohm, ohm/sheet
TestParameter, Function.User.Definition, V1/I1, R*W/L
TestParameter, Output.Graph.Enabled, true
TestParameter, Output.Graph.AutoScaling, false
TestParameter, Output.Graph.XAxis.Data, V1
TestParameter, Output.Graph.XAxis.Scale, Linear
TestParameter, Output.Graph.XAxis.Left, V1Start
TestParameter, Output.Graph.XAxis.Right, V1Stop
TestParameter, Output.Graph.XAxis.RunTimeAutoScale, false
TestParameter, Output.Graph.YAxis.Data, R, I1
TestParameter, Output.Graph.YAxis.Scale, Linear, Linear
TestParameter, Output.Graph.YAxis.Bottom, 0, 0
TestParameter, Output.Graph.YAxis.Top, V1Stop/I1Limit, I1Limit
TestParameter, Output.Graph.YAxis.Group, , 
TestParameter, Output.Graph.YAxis.RunTimeAutoScale, false, false
TestParameter, Output.List.Data, V1, I1, R, Rsheet
TestParameter, AutoAnalysis.Interpolation, false
TestParameter, AutoAnalysis.Line1.Enabled, false
TestParameter, AutoAnalysis.Line1.Type, 1
TestParameter, AutoAnalysis.Line1.Fix, False
TestParameter, AutoAnalysis.Line1.YAxis, 0
TestParameter, AutoAnalysis.Line1.Point1.Type, 0
TestParameter, AutoAnalysis.Line1.Point1.XY.X, 
TestParameter, AutoAnalysis.Line1.Point1.XY.Y, 
TestParameter, AutoAnalysis.Line1.Point1.Data.Var, 
TestParameter, AutoAnalysis.Line1.Point1.Data.Condition, 
TestParameter, AutoAnalysis.Line1.Point1.Data.Start, false
TestParameter, AutoAnalysis.Line1.Point1.Data.StartVar, 
TestParameter, AutoAnalysis.Line1.Point1.Data.StartCondition, 
TestParameter, AutoAnalysis.Line1.Point2.Type, 0
TestParameter, AutoAnalysis.Line1.Point2.XY.X, 
TestParameter, AutoAnalysis.Line1.Point2.XY.Y, 
TestParameter, AutoAnalysis.Line1.Point2.Data.Var, 
TestParameter, AutoAnalysis.Line1.Point2.Data.Condition, 
TestParameter, AutoAnalysis.Line1.Point2.Data.Start, false
TestParameter, AutoAnalysis.Line1.Point2.Data.StartVar, 
TestParameter, AutoAnalysis.Line1.Point2.Data.StartCondition, 
TestParameter, AutoAnalysis.Line1.GradientExpr, 0
TestParameter, AutoAnalysis.Line2.Enabled, false
TestParameter, AutoAnalysis.Line2.Type, 1
TestParameter, AutoAnalysis.Line2.Fix, False
TestParameter, AutoAnalysis.Line2.YAxis, 0
TestParameter, AutoAnalysis.Line2.Point1.Type, 0
TestParameter, AutoAnalysis.Line2.Point1.XY.X, 
TestParameter, AutoAnalysis.Line2.Point1.XY.Y, 
TestParameter, AutoAnalysis.Line2.Point1.Data.Var, 
TestParameter, AutoAnalysis.Line2.Point1.Data.Condition, 
TestParameter, AutoAnalysis.Line2.Point1.Data.Start, false
TestParameter, AutoAnalysis.Line2.Point1.Data.StartVar, 
TestParameter, AutoAnalysis.Line2.Point1.Data.StartCondition, 
TestParameter, AutoAnalysis.Line2.Point2.Type, 0
TestParameter, AutoAnalysis.Line2.Point2.XY.X, 
TestParameter, AutoAnalysis.Line2.Point2.XY.Y, 
TestParameter, AutoAnalysis.Line2.Point2.Data.Var, 
TestParameter, AutoAnalysis.Line2.Point2.Data.Condition, 
TestParameter, AutoAnalysis.Line2.Point2.Data.Start, false
TestParameter, AutoAnalysis.Line2.Point2.Data.StartVar, 
TestParameter, AutoAnalysis.Line2.Point2.Data.StartCondition, 
TestParameter, AutoAnalysis.Line2.GradientExpr, 0
TestParameter, AutoAnalysis.Marker.Enabled, false
TestParameter, AutoAnalysis.Marker.Data.Var, 
TestParameter, AutoAnalysis.Marker.Data.Condition, 
TestParameter, AutoAnalysis.Marker.Data.Start, false
TestParameter, AutoAnalysis.Marker.Data.StartVar, 
TestParameter, AutoAnalysis.Marker.Data.StartCondition, 
MetaData, TestRecord.EntryPoint, false
MetaData, TestRecord.RecordTime, 03/04/2023 15:59:05
MetaData, TestRecord.TestTarget, 
MetaData, TestRecord.IterationIndex, 10
MetaData, TestRecord.Preservation, true
MetaData, TestRecord.Flag, 
MetaData, TestRecord.Remarks, 
MetaData, TestRecord.LinkKey, ab1d1765-cbed-48f2-8d8b-19136954a1f0
Dimension1, 21, 21, 21, 21
Dimension2, 1, 1, 1, 1
DataName, V1, I1, R, Rsheet
DataValue, 0, -5.5000000000000005E-14, -0, -0
DataValue, 0.05, 1.3661000000000002E-11, 3660054168.8016982, 366005416.88016975
DataValue, 0.1, 2.3476E-11, 4259669449.6507072, 425966944.96507066
DataValue, 0.15, 3.0632E-11, 4896839905.9806738, 489683990.59806728
DataValue, 0.2, 3.6564E-11, 5469861065.5289354, 546986106.5528934
DataValue, 0.25, 4.268E-11, 5857544517.3383312, 585754451.73383307
DataValue, 0.3, 4.8169000000000004E-11, 6228071996.5122786, 622807199.65122771
DataValue, 0.35000000000000003, 5.3825000000000005E-11, 6502554575.0116119, 650255457.5011611
DataValue, 0.4, 6.0149E-11, 6650152122.2297964, 665015212.22297955
DataValue, 0.45, 6.6072E-11, 6810751907.0105343, 681075190.70105326
DataValue, 0.5, 7.1896000000000009E-11, 6954489818.6269045, 695448981.86269033
DataValue, 0.55, 7.8049000000000009E-11, 7046855180.7198038, 704685518.07198036
DataValue, 0.6, 8.4773000000000008E-11, 7077725219.1145754, 707772521.91145742
DataValue, 0.65, 9.1135E-11, 7132276293.4108744, 713227629.34108734
DataValue, 0.70000000000000007, 9.7991000000000011E-11, 7143513179.7818165, 714351317.97818148
DataValue, 0.75, 1.04889E-10, 7150416154.2201757, 715041615.42201746
DataValue, 0.8, 1.1219100000000001E-10, 7130696758.2069864, 713069675.82069862
DataValue, 0.85000000000000009, 1.1952600000000002E-10, 7111423455.9844713, 711142345.598447
DataValue, 0.9, 1.2756300000000002E-10, 7055337362.7148924, 705533736.27148914
DataValue, 0.95000000000000007, 1.35488E-10, 7011691072.2720833, 701169107.22720826
DataValue, 1, 1.43733E-10, 6957344520.7433224, 695734452.07433224