
SetupTitle, R-V
ApplicationTest, R-V, Public
TestParameter, Name, Port1, Port2, V1Start, V1Stop, V1Step, V2, I1Limit, IntegTime, HoldTime, DelayTime, Port1MinRng
TestParameter, Value, SMU1:MP	MPSMU, SMU2:MP	MPSMU, 0, 1, 0.05, 0, 0.01, MEDIUM, 0, 0, 1nA
DutParameter, Name, L, W, Temp
DutParameter, Value, 1E-05, 1E-06, 25
MetaData, TestRecord.EntryPoint, true
MetaData, TestRecord.RecordTime, 03/04/2023 17:55:28
MetaData, TestRecord.TestTarget, 
MetaData, TestRecord.IterationIndex, 174
MetaData, TestRecord.Preservation, true
MetaData, TestRecord.Flag, 
MetaData, TestRecord.Remarks, 
MetaData, TestRecord.LinkKey, 9b8da83d-f3ab-4cec-a17c-91cd0b6e71ff
Dimension1, 21, 21, 21, 21
Dimension2, 1, 1, 1, 1
DataName, V1, I1, R, Rsheet
DataValue, 0, -1.7165399999999997E-08, -0, -0
DataValue, 0.05, 7.92208E-05, 631.14737543675392, 63.114737543675389
DataValue, 0.1, 0.00015835100000000002, 631.50848431648672, 63.150848431648662
DataValue, 0.15, 0.000237604, 631.3025033248598, 63.130250332485971
DataValue, 0.2, 0.00031670600000000004, 631.50050835790921, 63.150050835790914
DataValue, 0.25, 0.00039595600000000004, 631.38328501146589, 63.138328501146574
DataValue, 0.3, 0.00047508, 631.47259408941648, 63.147259408941636
DataValue, 0.35000000000000003, 0.00055432700000000007, 631.39626971083851, 63.13962697108385
DataValue, 0.4, 0.00063346700000000008, 631.44567909614864, 63.14456790961485
DataValue, 0.45, 0.000712577, 631.51069989629184, 63.151069989629178
DataValue, 0.5, 0.00079176100000000009, 631.50369871716327, 63.150369871716322
DataValue, 0.55, 0.000870841, 631.57338710510874, 63.157338710510864
DataValue, 0.6, 0.000949911, 631.6381218872084, 63.163812188720833
DataValue, 0.65, 0.001029027, 631.66466963451876, 63.166466963451867
DataValue, 0.70000000000000007, 0.001108143, 631.68742662273735, 63.168742662273722
DataValue, 0.75, 0.00118715, 631.76515183422475, 63.176515183422467
DataValue, 0.8, 0.0012661600000000001, 631.83168004043716, 63.183168004043715
DataValue, 0.85000000000000009, 0.00134508, 631.93267314955256, 63.19326731495525
DataValue, 0.9, 0.0014241500000000001, 631.95590352139868, 63.19559035213986
DataValue, 0.95000000000000007, 0.00150308, 632.035553663145, 63.2035553663145
DataValue, 1, 0.00158198, 632.11924297399457, 63.211924297399449
SetupTitle, R-V
PrimitiveTest, I/V Sweep
TestParameter, Context.MainFrame, B1500A
TestParameter, Channel.UnitType, SMU, SMU
TestParameter, Channel.Unit, Port1, Port2
TestParameter, Channel.IName, I1, I2
TestParameter, Channel.VName, V1, V2
TestParameter, Channel.Mode, V, V
TestParameter, Channel.Func, VAR1, CONST
TestParameter, Channel.Index, 
TestParameter, Channel.Time, 
TestParameter, Measurement.Port.Unit, Port1, Port2
TestParameter, Measurement.Port.SeriesResistor, NONE, NONE
TestParameter, Measurement.Port.Filter, OFF, OFF
TestParameter, Measurement.Port.OutputVoltageComparison, 0, 0
TestParameter, Measurement.Primary.Locus, Single
TestParameter, Measurement.Primary.Scale, LINEAR
TestParameter, Measurement.Primary.Start, V1Start
TestParameter, Measurement.Primary.Stop, V1Stop
TestParameter, Measurement.Primary.Step, V1Step
TestParameter, Measurement.Primary.Compliance, I1Limit
TestParameter, Measurement.Primary.PowerCompliance, 0
TestParameter, Measurement.Aborting.Condition, CONTINUE AT ANY
TestParameter, Measurement.PostOutput.Value, START
TestParameter, Measurement.PostOutput.Retention, OFF
TestParameter, Measurement.Bias.Source, 0, V2
TestParameter, Measurement.Bias.Compliance, 0.01, I1Limit
TestParameter, Measurement.Monitor.Unit, SMU:=Port1, SMU:=Port2
TestParameter, Measurement.Monitor.Adc, HR ADC, HR ADC
TestParameter, Measurement.Monitor.Measurement, Compliance Side, Compliance Side
TestParameter, Measurement.Monitor.RangingMode, LIMITED, LIMITED
TestParameter, Measurement.Monitor.RangeBoundary, Port1MinRng, 1nA
TestParameter, Measurement.Monitor.RangeRating, BY FULL RANGE, BY FULL RANGE
TestParameter, Measurement.Monitor.RangeRatingCoeff, 50, 50
TestParameter, Measurement.Timing.Hold, HoldTime
TestParameter, Measurement.Timing.Delay, DelayTime
TestParameter, Measurement.Adc.HighSpeed.Mode, AUTO
TestParameter, Measurement.Adc.HighSpeed.Coeff, 1
TestParameter, Measurement.Adc.HighResolution.AutoZero, ON
TestParameter, Measurement.Adc.HighResolution.Mode, IntegMode
TestParameter, Measurement.Adc.HighResolution.Coeff, AdcFactor
TestParameter, Measurement.WaitTime.Source.Coeff, 1
TestParameter, Measurement.WaitTime.Source.Offset, 0
TestParameter, Measurement.WaitTime.Monitor.Coeff, 1
TestParameter, Measurement.WaitTime.Monitor.Offset, 0
TestParameter, Function.User.Name, R, Rsheet
TestParameter, Function.User.Unit, ohm, ohm/sheet
TestParameter, Function.User.Definition, V1/I1, R*W/L
TestParameter, Output.Graph.Enabled, true
TestParameter, Output.Graph.AutoScaling, false
TestParameter, Output.Graph.XAxis.Data, V1
TestParameter, Output.Graph.XAxis.Scale, Linear
TestParameter, Output.Graph.XAxis.Left, V1Start
TestParameter, Output.Graph.XAxis.Right, V1Stop
TestParameter, Output.Graph.XAxis.RunTimeAutoScale, false
TestParameter, Output.Graph.YAxis.Data, R, I1
TestParameter, Output.Graph.YAxis.Scale, Linear, Linear
TestParameter, Output.Graph.YAxis.Bottom, 0, 0
TestParameter, Output.Graph.YAxis.Top, V1Stop/I1Limit, I1Limit
TestParameter, Output.Graph.YAxis.Group, , 
TestParameter, Output.Graph.YAxis.RunTimeAutoScale, false, false
TestParameter, Output.List.Data, V1, I1, R, Rsheet
TestParameter, AutoAnalysis.Interpolation, false
TestParameter, AutoAnalysis.Line1.Enabled, false
TestParameter, AutoAnalysis.Line1.Type, 1
TestParameter, AutoAnalysis.Line1.Fix, False
TestParameter, AutoAnalysis.Line1.YAxis, 0
TestParameter, AutoAnalysis.Line1.Point1.Type, 0
TestParameter, AutoAnalysis.Line1.Point1.XY.X, 
TestParameter, AutoAnalysis.Line1.Point1.XY.Y, 
TestParameter, AutoAnalysis.Line1.Point1.Data.Var, 
TestParameter, AutoAnalysis.Line1.Point1.Data.Condition, 
TestParameter, AutoAnalysis.Line1.Point1.Data.Start, false
TestParameter, AutoAnalysis.Line1.Point1.Data.StartVar, 
TestParameter, AutoAnalysis.Line1.Point1.Data.StartCondition, 
TestParameter, AutoAnalysis.Line1.Point2.Type, 0
TestParameter, AutoAnalysis.Line1.Point2.XY.X, 
TestParameter, AutoAnalysis.Line1.Point2.XY.Y, 
TestParameter, AutoAnalysis.Line1.Point2.Data.Var, 
TestParameter, AutoAnalysis.Line1.Point2.Data.Condition, 
TestParameter, AutoAnalysis.Line1.Point2.Data.Start, false
TestParameter, AutoAnalysis.Line1.Point2.Data.StartVar, 
TestParameter, AutoAnalysis.Line1.Point2.Data.StartCondition, 
TestParameter, AutoAnalysis.Line1.GradientExpr, 0
TestParameter, AutoAnalysis.Line2.Enabled, false
TestParameter, AutoAnalysis.Line2.Type, 1
TestParameter, AutoAnalysis.Line2.Fix, False
TestParameter, AutoAnalysis.Line2.YAxis, 0
TestParameter, AutoAnalysis.Line2.Point1.Type, 0
TestParameter, AutoAnalysis.Line2.Point1.XY.X, 
TestParameter, AutoAnalysis.Line2.Point1.XY.Y, 
TestParameter, AutoAnalysis.Line2.Point1.Data.Var, 
TestParameter, AutoAnalysis.Line2.Point1.Data.Condition, 
TestParameter, AutoAnalysis.Line2.Point1.Data.Start, false
TestParameter, AutoAnalysis.Line2.Point1.Data.StartVar, 
TestParameter, AutoAnalysis.Line2.Point1.Data.StartCondition, 
TestParameter, AutoAnalysis.Line2.Point2.Type, 0
TestParameter, AutoAnalysis.Line2.Point2.XY.X, 
TestParameter, AutoAnalysis.Line2.Point2.XY.Y, 
TestParameter, AutoAnalysis.Line2.Point2.Data.Var, 
TestParameter, AutoAnalysis.Line2.Point2.Data.Condition, 
TestParameter, AutoAnalysis.Line2.Point2.Data.Start, false
TestParameter, AutoAnalysis.Line2.Point2.Data.StartVar, 
TestParameter, AutoAnalysis.Line2.Point2.Data.StartCondition, 
TestParameter, AutoAnalysis.Line2.GradientExpr, 0
TestParameter, AutoAnalysis.Marker.Enabled, false
TestParameter, AutoAnalysis.Marker.Data.Var, 
TestParameter, AutoAnalysis.Marker.Data.Condition, 
TestParameter, AutoAnalysis.Marker.Data.Start, false
TestParameter, AutoAnalysis.Marker.Data.StartVar, 
TestParameter, AutoAnalysis.Marker.Data.StartCondition, 
MetaData, TestRecord.EntryPoint, false
MetaData, TestRecord.RecordTime, 03/04/2023 17:55:28
MetaData, TestRecord.TestTarget, 
MetaData, TestRecord.IterationIndex, 174
MetaData, TestRecord.Preservation, true
MetaData, TestRecord.Flag, 
MetaData, TestRecord.Remarks, 
MetaData, TestRecord.LinkKey, 9b8da83d-f3ab-4cec-a17c-91cd0b6e71ff
Dimension1, 21, 21, 21, 21
Dimension2, 1, 1, 1, 1
DataName, V1, I1, R, Rsheet
DataValue, 0, -1.7165399999999997E-08, -0, -0
DataValue, 0.05, 7.92208E-05, 631.14737543675392, 63.114737543675389
DataValue, 0.1, 0.00015835100000000002, 631.50848431648672, 63.150848431648662
DataValue, 0.15, 0.000237604, 631.3025033248598, 63.130250332485971
DataValue, 0.2, 0.00031670600000000004, 631.50050835790921, 63.150050835790914
DataValue, 0.25, 0.00039595600000000004, 631.38328501146589, 63.138328501146574
DataValue, 0.3, 0.00047508, 631.47259408941648, 63.147259408941636
DataValue, 0.35000000000000003, 0.00055432700000000007, 631.39626971083851, 63.13962697108385
DataValue, 0.4, 0.00063346700000000008, 631.44567909614864, 63.14456790961485
DataValue, 0.45, 0.000712577, 631.51069989629184, 63.151069989629178
DataValue, 0.5, 0.00079176100000000009, 631.50369871716327, 63.150369871716322
DataValue, 0.55, 0.000870841, 631.57338710510874, 63.157338710510864
DataValue, 0.6, 0.000949911, 631.6381218872084, 63.163812188720833
DataValue, 0.65, 0.001029027, 631.66466963451876, 63.166466963451867
DataValue, 0.70000000000000007, 0.001108143, 631.68742662273735, 63.168742662273722
DataValue, 0.75, 0.00118715, 631.76515183422475, 63.176515183422467
DataValue, 0.8, 0.0012661600000000001, 631.83168004043716, 63.183168004043715
DataValue, 0.85000000000000009, 0.00134508, 631.93267314955256, 63.19326731495525
DataValue, 0.9, 0.0014241500000000001, 631.95590352139868, 63.19559035213986
DataValue, 0.95000000000000007, 0.00150308, 632.035553663145, 63.2035553663145
DataValue, 1, 0.00158198, 632.11924297399457, 63.211924297399449