
SetupTitle, R-V
ApplicationTest, R-V, Public
TestParameter, Name, Port1, Port2, V1Start, V1Stop, V1Step, V2, I1Limit, IntegTime, HoldTime, DelayTime, Port1MinRng
TestParameter, Value, SMU1:MP	MPSMU, SMU2:MP	MPSMU, 0, 1, 0.05, 0, 0.01, MEDIUM, 0, 0, 1nA
DutParameter, Name, L, W, Temp
DutParameter, Value, 1E-05, 1E-06, 25
MetaData, TestRecord.EntryPoint, true
MetaData, TestRecord.RecordTime, 03/04/2023 15:07:34
MetaData, TestRecord.TestTarget, 
MetaData, TestRecord.IterationIndex, 57
MetaData, TestRecord.Preservation, true
MetaData, TestRecord.Flag, 
MetaData, TestRecord.Remarks, 
MetaData, TestRecord.LinkKey, 02beab0d-c801-458b-aab3-43bbc055c45c
Dimension1, 21, 21, 21, 21
Dimension2, 1, 1, 1, 1
DataName, V1, I1, R, Rsheet
DataValue, 0, 1.1E-14, 0, 0
DataValue, 0.05, -3.17E-13, -157728706624.60568, -15772870662.460566
DataValue, 0.1, -1.0100000000000001E-13, -990099009900.99, -99009900990.098984
DataValue, 0.15, 2.8900000000000003E-13, 519031141868.512, 51903114186.8512
DataValue, 0.2, -1.8400000000000002E-13, -1086956521739.1304, -108695652173.91303
DataValue, 0.25, 4.3900000000000005E-13, 569476082004.55579, 56947608200.455566
DataValue, 0.3, 4.0000000000000006E-14, 7499999999999.999, 749999999999.99988
DataValue, 0.35000000000000003, 1.25E-13, 2800000000000.0005, 280000000000
DataValue, 0.4, -1.0500000000000001E-13, -3809523809523.8096, -380952380952.38092
DataValue, 0.45, 2.49E-13, 1807228915662.6506, 180722891566.26505
DataValue, 0.5, 4.48E-13, 1116071428571.4285, 111607142857.14284
DataValue, 0.55, 1.4E-13, 3928571428571.4287, 392857142857.14282
DataValue, 0.6, 1.63E-13, 3680981595092.0239, 368098159509.20233
DataValue, 0.65, 1.82E-13, 3571428571428.5713, 357142857142.85706
DataValue, 0.70000000000000007, 4.35E-13, 1609195402298.8506, 160919540229.88504
DataValue, 0.75, 2.2200000000000001E-13, 3378378378378.3784, 337837837837.83777
DataValue, 0.8, 2.3100000000000003E-13, 3463203463203.4629, 346320346320.34625
DataValue, 0.85000000000000009, 2.6500000000000003E-13, 3207547169811.3208, 320754716981.132
DataValue, 0.9, -2.4000000000000004E-13, -3749999999999.9995, -374999999999.99994
DataValue, 0.95000000000000007, 2.44E-13, 3893442622950.82, 389344262295.082
DataValue, 1, 4.1E-14, 24390243902439.023, 2439024390243.9019
SetupTitle, R-V
PrimitiveTest, I/V Sweep
TestParameter, Context.MainFrame, B1500A
TestParameter, Channel.UnitType, SMU, SMU
TestParameter, Channel.Unit, Port1, Port2
TestParameter, Channel.IName, I1, I2
TestParameter, Channel.VName, V1, V2
TestParameter, Channel.Mode, V, V
TestParameter, Channel.Func, VAR1, CONST
TestParameter, Channel.Index, 
TestParameter, Channel.Time, 
TestParameter, Measurement.Port.Unit, Port1, Port2
TestParameter, Measurement.Port.SeriesResistor, NONE, NONE
TestParameter, Measurement.Port.Filter, OFF, OFF
TestParameter, Measurement.Port.OutputVoltageComparison, 0, 0
TestParameter, Measurement.Primary.Locus, Single
TestParameter, Measurement.Primary.Scale, LINEAR
TestParameter, Measurement.Primary.Start, V1Start
TestParameter, Measurement.Primary.Stop, V1Stop
TestParameter, Measurement.Primary.Step, V1Step
TestParameter, Measurement.Primary.Compliance, I1Limit
TestParameter, Measurement.Primary.PowerCompliance, 0
TestParameter, Measurement.Aborting.Condition, CONTINUE AT ANY
TestParameter, Measurement.PostOutput.Value, START
TestParameter, Measurement.PostOutput.Retention, OFF
TestParameter, Measurement.Bias.Source, 0, V2
TestParameter, Measurement.Bias.Compliance, 0.01, I1Limit
TestParameter, Measurement.Monitor.Unit, SMU:=Port1, SMU:=Port2
TestParameter, Measurement.Monitor.Adc, HR ADC, HR ADC
TestParameter, Measurement.Monitor.Measurement, Compliance Side, Compliance Side
TestParameter, Measurement.Monitor.RangingMode, LIMITED, LIMITED
TestParameter, Measurement.Monitor.RangeBoundary, Port1MinRng, 1nA
TestParameter, Measurement.Monitor.RangeRating, BY FULL RANGE, BY FULL RANGE
TestParameter, Measurement.Monitor.RangeRatingCoeff, 50, 50
TestParameter, Measurement.Timing.Hold, HoldTime
TestParameter, Measurement.Timing.Delay, DelayTime
TestParameter, Measurement.Adc.HighSpeed.Mode, AUTO
TestParameter, Measurement.Adc.HighSpeed.Coeff, 1
TestParameter, Measurement.Adc.HighResolution.AutoZero, ON
TestParameter, Measurement.Adc.HighResolution.Mode, IntegMode
TestParameter, Measurement.Adc.HighResolution.Coeff, AdcFactor
TestParameter, Measurement.WaitTime.Source.Coeff, 1
TestParameter, Measurement.WaitTime.Source.Offset, 0
TestParameter, Measurement.WaitTime.Monitor.Coeff, 1
TestParameter, Measurement.WaitTime.Monitor.Offset, 0
TestParameter, Function.User.Name, R, Rsheet
TestParameter, Function.User.Unit, ohm, ohm/sheet
TestParameter, Function.User.Definition, V1/I1, R*W/L
TestParameter, Output.Graph.Enabled, true
TestParameter, Output.Graph.AutoScaling, false
TestParameter, Output.Graph.XAxis.Data, V1
TestParameter, Output.Graph.XAxis.Scale, Linear
TestParameter, Output.Graph.XAxis.Left, V1Start
TestParameter, Output.Graph.XAxis.Right, V1Stop
TestParameter, Output.Graph.XAxis.RunTimeAutoScale, false
TestParameter, Output.Graph.YAxis.Data, R, I1
TestParameter, Output.Graph.YAxis.Scale, Linear, Linear
TestParameter, Output.Graph.YAxis.Bottom, 0, 0
TestParameter, Output.Graph.YAxis.Top, V1Stop/I1Limit, I1Limit
TestParameter, Output.Graph.YAxis.Group, , 
TestParameter, Output.Graph.YAxis.RunTimeAutoScale, false, false
TestParameter, Output.List.Data, V1, I1, R, Rsheet
TestParameter, AutoAnalysis.Interpolation, false
TestParameter, AutoAnalysis.Line1.Enabled, false
TestParameter, AutoAnalysis.Line1.Type, 1
TestParameter, AutoAnalysis.Line1.Fix, False
TestParameter, AutoAnalysis.Line1.YAxis, 0
TestParameter, AutoAnalysis.Line1.Point1.Type, 0
TestParameter, AutoAnalysis.Line1.Point1.XY.X, 
TestParameter, AutoAnalysis.Line1.Point1.XY.Y, 
TestParameter, AutoAnalysis.Line1.Point1.Data.Var, 
TestParameter, AutoAnalysis.Line1.Point1.Data.Condition, 
TestParameter, AutoAnalysis.Line1.Point1.Data.Start, false
TestParameter, AutoAnalysis.Line1.Point1.Data.StartVar, 
TestParameter, AutoAnalysis.Line1.Point1.Data.StartCondition, 
TestParameter, AutoAnalysis.Line1.Point2.Type, 0
TestParameter, AutoAnalysis.Line1.Point2.XY.X, 
TestParameter, AutoAnalysis.Line1.Point2.XY.Y, 
TestParameter, AutoAnalysis.Line1.Point2.Data.Var, 
TestParameter, AutoAnalysis.Line1.Point2.Data.Condition, 
TestParameter, AutoAnalysis.Line1.Point2.Data.Start, false
TestParameter, AutoAnalysis.Line1.Point2.Data.StartVar, 
TestParameter, AutoAnalysis.Line1.Point2.Data.StartCondition, 
TestParameter, AutoAnalysis.Line1.GradientExpr, 0
TestParameter, AutoAnalysis.Line2.Enabled, false
TestParameter, AutoAnalysis.Line2.Type, 1
TestParameter, AutoAnalysis.Line2.Fix, False
TestParameter, AutoAnalysis.Line2.YAxis, 0
TestParameter, AutoAnalysis.Line2.Point1.Type, 0
TestParameter, AutoAnalysis.Line2.Point1.XY.X, 
TestParameter, AutoAnalysis.Line2.Point1.XY.Y, 
TestParameter, AutoAnalysis.Line2.Point1.Data.Var, 
TestParameter, AutoAnalysis.Line2.Point1.Data.Condition, 
TestParameter, AutoAnalysis.Line2.Point1.Data.Start, false
TestParameter, AutoAnalysis.Line2.Point1.Data.StartVar, 
TestParameter, AutoAnalysis.Line2.Point1.Data.StartCondition, 
TestParameter, AutoAnalysis.Line2.Point2.Type, 0
TestParameter, AutoAnalysis.Line2.Point2.XY.X, 
TestParameter, AutoAnalysis.Line2.Point2.XY.Y, 
TestParameter, AutoAnalysis.Line2.Point2.Data.Var, 
TestParameter, AutoAnalysis.Line2.Point2.Data.Condition, 
TestParameter, AutoAnalysis.Line2.Point2.Data.Start, false
TestParameter, AutoAnalysis.Line2.Point2.Data.StartVar, 
TestParameter, AutoAnalysis.Line2.Point2.Data.StartCondition, 
TestParameter, AutoAnalysis.Line2.GradientExpr, 0
TestParameter, AutoAnalysis.Marker.Enabled, false
TestParameter, AutoAnalysis.Marker.Data.Var, 
TestParameter, AutoAnalysis.Marker.Data.Condition, 
TestParameter, AutoAnalysis.Marker.Data.Start, false
TestParameter, AutoAnalysis.Marker.Data.StartVar, 
TestParameter, AutoAnalysis.Marker.Data.StartCondition, 
MetaData, TestRecord.EntryPoint, false
MetaData, TestRecord.RecordTime, 03/04/2023 15:07:34
MetaData, TestRecord.TestTarget, 
MetaData, TestRecord.IterationIndex, 57
MetaData, TestRecord.Preservation, true
MetaData, TestRecord.Flag, 
MetaData, TestRecord.Remarks, 
MetaData, TestRecord.LinkKey, 02beab0d-c801-458b-aab3-43bbc055c45c
Dimension1, 21, 21, 21, 21
Dimension2, 1, 1, 1, 1
DataName, V1, I1, R, Rsheet
DataValue, 0, 1.1E-14, 0, 0
DataValue, 0.05, -3.17E-13, -157728706624.60568, -15772870662.460566
DataValue, 0.1, -1.0100000000000001E-13, -990099009900.99, -99009900990.098984
DataValue, 0.15, 2.8900000000000003E-13, 519031141868.512, 51903114186.8512
DataValue, 0.2, -1.8400000000000002E-13, -1086956521739.1304, -108695652173.91303
DataValue, 0.25, 4.3900000000000005E-13, 569476082004.55579, 56947608200.455566
DataValue, 0.3, 4.0000000000000006E-14, 7499999999999.999, 749999999999.99988
DataValue, 0.35000000000000003, 1.25E-13, 2800000000000.0005, 280000000000
DataValue, 0.4, -1.0500000000000001E-13, -3809523809523.8096, -380952380952.38092
DataValue, 0.45, 2.49E-13, 1807228915662.6506, 180722891566.26505
DataValue, 0.5, 4.48E-13, 1116071428571.4285, 111607142857.14284
DataValue, 0.55, 1.4E-13, 3928571428571.4287, 392857142857.14282
DataValue, 0.6, 1.63E-13, 3680981595092.0239, 368098159509.20233
DataValue, 0.65, 1.82E-13, 3571428571428.5713, 357142857142.85706
DataValue, 0.70000000000000007, 4.35E-13, 1609195402298.8506, 160919540229.88504
DataValue, 0.75, 2.2200000000000001E-13, 3378378378378.3784, 337837837837.83777
DataValue, 0.8, 2.3100000000000003E-13, 3463203463203.4629, 346320346320.34625
DataValue, 0.85000000000000009, 2.6500000000000003E-13, 3207547169811.3208, 320754716981.132
DataValue, 0.9, -2.4000000000000004E-13, -3749999999999.9995, -374999999999.99994
DataValue, 0.95000000000000007, 2.44E-13, 3893442622950.82, 389344262295.082
DataValue, 1, 4.1E-14, 24390243902439.023, 2439024390243.9019