
SetupTitle, R-V
ApplicationTest, R-V, Public
TestParameter, Name, Port1, Port2, V1Start, V1Stop, V1Step, V2, I1Limit, IntegTime, HoldTime, DelayTime, Port1MinRng
TestParameter, Value, SMU1:MP	MPSMU, SMU2:MP	MPSMU, 0, 1, 0.05, 0, 0.01, MEDIUM, 0, 0, 1nA
DutParameter, Name, L, W, Temp
DutParameter, Value, 1E-05, 1E-06, 25
MetaData, TestRecord.EntryPoint, true
MetaData, TestRecord.RecordTime, 03/04/2023 17:29:33
MetaData, TestRecord.TestTarget, 
MetaData, TestRecord.IterationIndex, 134
MetaData, TestRecord.Preservation, true
MetaData, TestRecord.Flag, 
MetaData, TestRecord.Remarks, 
MetaData, TestRecord.LinkKey, 92640dd4-a7d5-4a0e-858a-6abc9fb1e759
Dimension1, 21, 21, 21, 21
Dimension2, 1, 1, 1, 1
DataName, V1, I1, R, Rsheet
DataValue, 0, 1.4900000000000002E-13, 0, 0
DataValue, 0.05, 5.8000000000000005E-13, 86206896551.724136, 8620689655.1724129
DataValue, 0.1, 7.360000000000001E-13, 135869565217.3913, 13586956521.739128
DataValue, 0.15, 8.5700000000000008E-13, 175029171528.58807, 17502917152.858807
DataValue, 0.2, 1.019E-12, 196270853778.21396, 19627085377.821396
DataValue, 0.25, 1.0330000000000001E-12, 242013552758.95447, 24201355275.895443
DataValue, 0.3, 1.1830000000000001E-12, 253592561284.86896, 25359256128.486893
DataValue, 0.35000000000000003, 1.2800000000000002E-12, 273437499999.99997, 27343749999.999992
DataValue, 0.4, 1.2440000000000002E-12, 321543408360.1286, 32154340836.012856
DataValue, 0.45, 1.4260000000000002E-12, 315568022440.3927, 31556802244.039268
DataValue, 0.5, 1.3690000000000001E-12, 365230094959.82465, 36523009495.98246
DataValue, 0.55, 1.412E-12, 389518413597.7337, 38951841359.773369
DataValue, 0.6, 1.6350000000000002E-12, 366972477064.22015, 36697247706.422012
DataValue, 0.65, 1.6850000000000002E-12, 385756676557.86346, 38575667655.786339
DataValue, 0.70000000000000007, 1.715E-12, 408163265306.1225, 40816326530.612244
DataValue, 0.75, 1.9740000000000003E-12, 379939209726.44373, 37993920972.644363
DataValue, 0.8, 1.8360000000000003E-12, 435729847494.55334, 43572984749.45533
DataValue, 0.85000000000000009, 1.9900000000000002E-12, 427135678391.95978, 42713567839.195969
DataValue, 0.9, 2.0030000000000002E-12, 449326010983.52466, 44932601098.352455
DataValue, 0.95000000000000007, 2.086E-12, 455417066155.32117, 45541706615.532112
DataValue, 1, 2.0750000000000003E-12, 481927710843.37341, 48192771084.337334
SetupTitle, R-V
PrimitiveTest, I/V Sweep
TestParameter, Context.MainFrame, B1500A
TestParameter, Channel.UnitType, SMU, SMU
TestParameter, Channel.Unit, Port1, Port2
TestParameter, Channel.IName, I1, I2
TestParameter, Channel.VName, V1, V2
TestParameter, Channel.Mode, V, V
TestParameter, Channel.Func, VAR1, CONST
TestParameter, Channel.Index, 
TestParameter, Channel.Time, 
TestParameter, Measurement.Port.Unit, Port1, Port2
TestParameter, Measurement.Port.SeriesResistor, NONE, NONE
TestParameter, Measurement.Port.Filter, OFF, OFF
TestParameter, Measurement.Port.OutputVoltageComparison, 0, 0
TestParameter, Measurement.Primary.Locus, Single
TestParameter, Measurement.Primary.Scale, LINEAR
TestParameter, Measurement.Primary.Start, V1Start
TestParameter, Measurement.Primary.Stop, V1Stop
TestParameter, Measurement.Primary.Step, V1Step
TestParameter, Measurement.Primary.Compliance, I1Limit
TestParameter, Measurement.Primary.PowerCompliance, 0
TestParameter, Measurement.Aborting.Condition, CONTINUE AT ANY
TestParameter, Measurement.PostOutput.Value, START
TestParameter, Measurement.PostOutput.Retention, OFF
TestParameter, Measurement.Bias.Source, 0, V2
TestParameter, Measurement.Bias.Compliance, 0.01, I1Limit
TestParameter, Measurement.Monitor.Unit, SMU:=Port1, SMU:=Port2
TestParameter, Measurement.Monitor.Adc, HR ADC, HR ADC
TestParameter, Measurement.Monitor.Measurement, Compliance Side, Compliance Side
TestParameter, Measurement.Monitor.RangingMode, LIMITED, LIMITED
TestParameter, Measurement.Monitor.RangeBoundary, Port1MinRng, 1nA
TestParameter, Measurement.Monitor.RangeRating, BY FULL RANGE, BY FULL RANGE
TestParameter, Measurement.Monitor.RangeRatingCoeff, 50, 50
TestParameter, Measurement.Timing.Hold, HoldTime
TestParameter, Measurement.Timing.Delay, DelayTime
TestParameter, Measurement.Adc.HighSpeed.Mode, AUTO
TestParameter, Measurement.Adc.HighSpeed.Coeff, 1
TestParameter, Measurement.Adc.HighResolution.AutoZero, ON
TestParameter, Measurement.Adc.HighResolution.Mode, IntegMode
TestParameter, Measurement.Adc.HighResolution.Coeff, AdcFactor
TestParameter, Measurement.WaitTime.Source.Coeff, 1
TestParameter, Measurement.WaitTime.Source.Offset, 0
TestParameter, Measurement.WaitTime.Monitor.Coeff, 1
TestParameter, Measurement.WaitTime.Monitor.Offset, 0
TestParameter, Function.User.Name, R, Rsheet
TestParameter, Function.User.Unit, ohm, ohm/sheet
TestParameter, Function.User.Definition, V1/I1, R*W/L
TestParameter, Output.Graph.Enabled, true
TestParameter, Output.Graph.AutoScaling, false
TestParameter, Output.Graph.XAxis.Data, V1
TestParameter, Output.Graph.XAxis.Scale, Linear
TestParameter, Output.Graph.XAxis.Left, V1Start
TestParameter, Output.Graph.XAxis.Right, V1Stop
TestParameter, Output.Graph.XAxis.RunTimeAutoScale, false
TestParameter, Output.Graph.YAxis.Data, R, I1
TestParameter, Output.Graph.YAxis.Scale, Linear, Linear
TestParameter, Output.Graph.YAxis.Bottom, 0, 0
TestParameter, Output.Graph.YAxis.Top, V1Stop/I1Limit, I1Limit
TestParameter, Output.Graph.YAxis.Group, , 
TestParameter, Output.Graph.YAxis.RunTimeAutoScale, false, false
TestParameter, Output.List.Data, V1, I1, R, Rsheet
TestParameter, AutoAnalysis.Interpolation, false
TestParameter, AutoAnalysis.Line1.Enabled, false
TestParameter, AutoAnalysis.Line1.Type, 1
TestParameter, AutoAnalysis.Line1.Fix, False
TestParameter, AutoAnalysis.Line1.YAxis, 0
TestParameter, AutoAnalysis.Line1.Point1.Type, 0
TestParameter, AutoAnalysis.Line1.Point1.XY.X, 
TestParameter, AutoAnalysis.Line1.Point1.XY.Y, 
TestParameter, AutoAnalysis.Line1.Point1.Data.Var, 
TestParameter, AutoAnalysis.Line1.Point1.Data.Condition, 
TestParameter, AutoAnalysis.Line1.Point1.Data.Start, false
TestParameter, AutoAnalysis.Line1.Point1.Data.StartVar, 
TestParameter, AutoAnalysis.Line1.Point1.Data.StartCondition, 
TestParameter, AutoAnalysis.Line1.Point2.Type, 0
TestParameter, AutoAnalysis.Line1.Point2.XY.X, 
TestParameter, AutoAnalysis.Line1.Point2.XY.Y, 
TestParameter, AutoAnalysis.Line1.Point2.Data.Var, 
TestParameter, AutoAnalysis.Line1.Point2.Data.Condition, 
TestParameter, AutoAnalysis.Line1.Point2.Data.Start, false
TestParameter, AutoAnalysis.Line1.Point2.Data.StartVar, 
TestParameter, AutoAnalysis.Line1.Point2.Data.StartCondition, 
TestParameter, AutoAnalysis.Line1.GradientExpr, 0
TestParameter, AutoAnalysis.Line2.Enabled, false
TestParameter, AutoAnalysis.Line2.Type, 1
TestParameter, AutoAnalysis.Line2.Fix, False
TestParameter, AutoAnalysis.Line2.YAxis, 0
TestParameter, AutoAnalysis.Line2.Point1.Type, 0
TestParameter, AutoAnalysis.Line2.Point1.XY.X, 
TestParameter, AutoAnalysis.Line2.Point1.XY.Y, 
TestParameter, AutoAnalysis.Line2.Point1.Data.Var, 
TestParameter, AutoAnalysis.Line2.Point1.Data.Condition, 
TestParameter, AutoAnalysis.Line2.Point1.Data.Start, false
TestParameter, AutoAnalysis.Line2.Point1.Data.StartVar, 
TestParameter, AutoAnalysis.Line2.Point1.Data.StartCondition, 
TestParameter, AutoAnalysis.Line2.Point2.Type, 0
TestParameter, AutoAnalysis.Line2.Point2.XY.X, 
TestParameter, AutoAnalysis.Line2.Point2.XY.Y, 
TestParameter, AutoAnalysis.Line2.Point2.Data.Var, 
TestParameter, AutoAnalysis.Line2.Point2.Data.Condition, 
TestParameter, AutoAnalysis.Line2.Point2.Data.Start, false
TestParameter, AutoAnalysis.Line2.Point2.Data.StartVar, 
TestParameter, AutoAnalysis.Line2.Point2.Data.StartCondition, 
TestParameter, AutoAnalysis.Line2.GradientExpr, 0
TestParameter, AutoAnalysis.Marker.Enabled, false
TestParameter, AutoAnalysis.Marker.Data.Var, 
TestParameter, AutoAnalysis.Marker.Data.Condition, 
TestParameter, AutoAnalysis.Marker.Data.Start, false
TestParameter, AutoAnalysis.Marker.Data.StartVar, 
TestParameter, AutoAnalysis.Marker.Data.StartCondition, 
MetaData, TestRecord.EntryPoint, false
MetaData, TestRecord.RecordTime, 03/04/2023 17:29:33
MetaData, TestRecord.TestTarget, 
MetaData, TestRecord.IterationIndex, 134
MetaData, TestRecord.Preservation, true
MetaData, TestRecord.Flag, 
MetaData, TestRecord.Remarks, 
MetaData, TestRecord.LinkKey, 92640dd4-a7d5-4a0e-858a-6abc9fb1e759
Dimension1, 21, 21, 21, 21
Dimension2, 1, 1, 1, 1
DataName, V1, I1, R, Rsheet
DataValue, 0, 1.4900000000000002E-13, 0, 0
DataValue, 0.05, 5.8000000000000005E-13, 86206896551.724136, 8620689655.1724129
DataValue, 0.1, 7.360000000000001E-13, 135869565217.3913, 13586956521.739128
DataValue, 0.15, 8.5700000000000008E-13, 175029171528.58807, 17502917152.858807
DataValue, 0.2, 1.019E-12, 196270853778.21396, 19627085377.821396
DataValue, 0.25, 1.0330000000000001E-12, 242013552758.95447, 24201355275.895443
DataValue, 0.3, 1.1830000000000001E-12, 253592561284.86896, 25359256128.486893
DataValue, 0.35000000000000003, 1.2800000000000002E-12, 273437499999.99997, 27343749999.999992
DataValue, 0.4, 1.2440000000000002E-12, 321543408360.1286, 32154340836.012856
DataValue, 0.45, 1.4260000000000002E-12, 315568022440.3927, 31556802244.039268
DataValue, 0.5, 1.3690000000000001E-12, 365230094959.82465, 36523009495.98246
DataValue, 0.55, 1.412E-12, 389518413597.7337, 38951841359.773369
DataValue, 0.6, 1.6350000000000002E-12, 366972477064.22015, 36697247706.422012
DataValue, 0.65, 1.6850000000000002E-12, 385756676557.86346, 38575667655.786339
DataValue, 0.70000000000000007, 1.715E-12, 408163265306.1225, 40816326530.612244
DataValue, 0.75, 1.9740000000000003E-12, 379939209726.44373, 37993920972.644363
DataValue, 0.8, 1.8360000000000003E-12, 435729847494.55334, 43572984749.45533
DataValue, 0.85000000000000009, 1.9900000000000002E-12, 427135678391.95978, 42713567839.195969
DataValue, 0.9, 2.0030000000000002E-12, 449326010983.52466, 44932601098.352455
DataValue, 0.95000000000000007, 2.086E-12, 455417066155.32117, 45541706615.532112
DataValue, 1, 2.0750000000000003E-12, 481927710843.37341, 48192771084.337334