
SetupTitle, R-V
ApplicationTest, R-V, Public
TestParameter, Name, Port1, Port2, V1Start, V1Stop, V1Step, V2, I1Limit, IntegTime, HoldTime, DelayTime, Port1MinRng
TestParameter, Value, SMU1:MP	MPSMU, SMU2:MP	MPSMU, 0, 1, 0.05, 0, 0.01, MEDIUM, 0, 0, 1nA
DutParameter, Name, L, W, Temp
DutParameter, Value, 1E-05, 1E-06, 25
MetaData, TestRecord.EntryPoint, true
MetaData, TestRecord.RecordTime, 03/04/2023 17:31:24
MetaData, TestRecord.TestTarget, 
MetaData, TestRecord.IterationIndex, 138
MetaData, TestRecord.Preservation, true
MetaData, TestRecord.Flag, 
MetaData, TestRecord.Remarks, 
MetaData, TestRecord.LinkKey, dfb231fe-257b-40db-b0ac-e9254feca8a7
Dimension1, 21, 21, 21, 21
Dimension2, 1, 1, 1, 1
DataName, V1, I1, R, Rsheet
DataValue, 0, -4.16E-12, -0, -0
DataValue, 0.05, 7.6E-13, 65789473684.210533, 6578947368.4210529
DataValue, 0.1, 6.8E-13, 147058823529.41177, 14705882352.941177
DataValue, 0.15, 1.87E-12, 80213903743.3155, 8021390374.33155
DataValue, 0.2, 9.4E-13, 212765957446.8085, 21276595744.680847
DataValue, 0.25, 1.76E-12, 142045454545.45456, 14204545454.545454
DataValue, 0.3, 1.15E-12, 260869565217.3913, 26086956521.739128
DataValue, 0.35000000000000003, 1.95E-12, 179487179487.1795, 17948717948.717949
DataValue, 0.4, 1.85E-12, 216216216216.21622, 21621621621.62162
DataValue, 0.45, 2.33E-12, 193133047210.30045, 19313304721.030041
DataValue, 0.5, 1.76E-12, 284090909090.90912, 28409090909.090908
DataValue, 0.55, 2.46E-12, 223577235772.35773, 22357723577.235771
DataValue, 0.6, 1.65E-12, 363636363636.36359, 36363636363.636353
DataValue, 0.65, 1.62E-12, 401234567901.23462, 40123456790.123459
DataValue, 0.70000000000000007, 2.08E-12, 336538461538.46155, 33653846153.846153
DataValue, 0.75, 2.82E-12, 265957446808.51062, 26595744680.851063
DataValue, 0.8, 1.44E-12, 555555555555.55566, 55555555555.555557
DataValue, 0.85000000000000009, 2.28E-12, 372807017543.85968, 37280701754.385963
DataValue, 0.9, 2.5E-12, 360000000000.00006, 36000000000
DataValue, 0.95000000000000007, 2.87E-12, 331010452961.67249, 33101045296.16724
DataValue, 1, 2.96E-12, 337837837837.83783, 33783783783.783779
SetupTitle, R-V
PrimitiveTest, I/V Sweep
TestParameter, Context.MainFrame, B1500A
TestParameter, Channel.UnitType, SMU, SMU
TestParameter, Channel.Unit, Port1, Port2
TestParameter, Channel.IName, I1, I2
TestParameter, Channel.VName, V1, V2
TestParameter, Channel.Mode, V, V
TestParameter, Channel.Func, VAR1, CONST
TestParameter, Channel.Index, 
TestParameter, Channel.Time, 
TestParameter, Measurement.Port.Unit, Port1, Port2
TestParameter, Measurement.Port.SeriesResistor, NONE, NONE
TestParameter, Measurement.Port.Filter, OFF, OFF
TestParameter, Measurement.Port.OutputVoltageComparison, 0, 0
TestParameter, Measurement.Primary.Locus, Single
TestParameter, Measurement.Primary.Scale, LINEAR
TestParameter, Measurement.Primary.Start, V1Start
TestParameter, Measurement.Primary.Stop, V1Stop
TestParameter, Measurement.Primary.Step, V1Step
TestParameter, Measurement.Primary.Compliance, I1Limit
TestParameter, Measurement.Primary.PowerCompliance, 0
TestParameter, Measurement.Aborting.Condition, CONTINUE AT ANY
TestParameter, Measurement.PostOutput.Value, START
TestParameter, Measurement.PostOutput.Retention, OFF
TestParameter, Measurement.Bias.Source, 0, V2
TestParameter, Measurement.Bias.Compliance, 0.01, I1Limit
TestParameter, Measurement.Monitor.Unit, SMU:=Port1, SMU:=Port2
TestParameter, Measurement.Monitor.Adc, HR ADC, HR ADC
TestParameter, Measurement.Monitor.Measurement, Compliance Side, Compliance Side
TestParameter, Measurement.Monitor.RangingMode, LIMITED, LIMITED
TestParameter, Measurement.Monitor.RangeBoundary, Port1MinRng, 1nA
TestParameter, Measurement.Monitor.RangeRating, BY FULL RANGE, BY FULL RANGE
TestParameter, Measurement.Monitor.RangeRatingCoeff, 50, 50
TestParameter, Measurement.Timing.Hold, HoldTime
TestParameter, Measurement.Timing.Delay, DelayTime
TestParameter, Measurement.Adc.HighSpeed.Mode, AUTO
TestParameter, Measurement.Adc.HighSpeed.Coeff, 1
TestParameter, Measurement.Adc.HighResolution.AutoZero, ON
TestParameter, Measurement.Adc.HighResolution.Mode, IntegMode
TestParameter, Measurement.Adc.HighResolution.Coeff, AdcFactor
TestParameter, Measurement.WaitTime.Source.Coeff, 1
TestParameter, Measurement.WaitTime.Source.Offset, 0
TestParameter, Measurement.WaitTime.Monitor.Coeff, 1
TestParameter, Measurement.WaitTime.Monitor.Offset, 0
TestParameter, Function.User.Name, R, Rsheet
TestParameter, Function.User.Unit, ohm, ohm/sheet
TestParameter, Function.User.Definition, V1/I1, R*W/L
TestParameter, Output.Graph.Enabled, true
TestParameter, Output.Graph.AutoScaling, false
TestParameter, Output.Graph.XAxis.Data, V1
TestParameter, Output.Graph.XAxis.Scale, Linear
TestParameter, Output.Graph.XAxis.Left, V1Start
TestParameter, Output.Graph.XAxis.Right, V1Stop
TestParameter, Output.Graph.XAxis.RunTimeAutoScale, false
TestParameter, Output.Graph.YAxis.Data, R, I1
TestParameter, Output.Graph.YAxis.Scale, Linear, Linear
TestParameter, Output.Graph.YAxis.Bottom, 0, 0
TestParameter, Output.Graph.YAxis.Top, V1Stop/I1Limit, I1Limit
TestParameter, Output.Graph.YAxis.Group, , 
TestParameter, Output.Graph.YAxis.RunTimeAutoScale, false, false
TestParameter, Output.List.Data, V1, I1, R, Rsheet
TestParameter, AutoAnalysis.Interpolation, false
TestParameter, AutoAnalysis.Line1.Enabled, false
TestParameter, AutoAnalysis.Line1.Type, 1
TestParameter, AutoAnalysis.Line1.Fix, False
TestParameter, AutoAnalysis.Line1.YAxis, 0
TestParameter, AutoAnalysis.Line1.Point1.Type, 0
TestParameter, AutoAnalysis.Line1.Point1.XY.X, 
TestParameter, AutoAnalysis.Line1.Point1.XY.Y, 
TestParameter, AutoAnalysis.Line1.Point1.Data.Var, 
TestParameter, AutoAnalysis.Line1.Point1.Data.Condition, 
TestParameter, AutoAnalysis.Line1.Point1.Data.Start, false
TestParameter, AutoAnalysis.Line1.Point1.Data.StartVar, 
TestParameter, AutoAnalysis.Line1.Point1.Data.StartCondition, 
TestParameter, AutoAnalysis.Line1.Point2.Type, 0
TestParameter, AutoAnalysis.Line1.Point2.XY.X, 
TestParameter, AutoAnalysis.Line1.Point2.XY.Y, 
TestParameter, AutoAnalysis.Line1.Point2.Data.Var, 
TestParameter, AutoAnalysis.Line1.Point2.Data.Condition, 
TestParameter, AutoAnalysis.Line1.Point2.Data.Start, false
TestParameter, AutoAnalysis.Line1.Point2.Data.StartVar, 
TestParameter, AutoAnalysis.Line1.Point2.Data.StartCondition, 
TestParameter, AutoAnalysis.Line1.GradientExpr, 0
TestParameter, AutoAnalysis.Line2.Enabled, false
TestParameter, AutoAnalysis.Line2.Type, 1
TestParameter, AutoAnalysis.Line2.Fix, False
TestParameter, AutoAnalysis.Line2.YAxis, 0
TestParameter, AutoAnalysis.Line2.Point1.Type, 0
TestParameter, AutoAnalysis.Line2.Point1.XY.X, 
TestParameter, AutoAnalysis.Line2.Point1.XY.Y, 
TestParameter, AutoAnalysis.Line2.Point1.Data.Var, 
TestParameter, AutoAnalysis.Line2.Point1.Data.Condition, 
TestParameter, AutoAnalysis.Line2.Point1.Data.Start, false
TestParameter, AutoAnalysis.Line2.Point1.Data.StartVar, 
TestParameter, AutoAnalysis.Line2.Point1.Data.StartCondition, 
TestParameter, AutoAnalysis.Line2.Point2.Type, 0
TestParameter, AutoAnalysis.Line2.Point2.XY.X, 
TestParameter, AutoAnalysis.Line2.Point2.XY.Y, 
TestParameter, AutoAnalysis.Line2.Point2.Data.Var, 
TestParameter, AutoAnalysis.Line2.Point2.Data.Condition, 
TestParameter, AutoAnalysis.Line2.Point2.Data.Start, false
TestParameter, AutoAnalysis.Line2.Point2.Data.StartVar, 
TestParameter, AutoAnalysis.Line2.Point2.Data.StartCondition, 
TestParameter, AutoAnalysis.Line2.GradientExpr, 0
TestParameter, AutoAnalysis.Marker.Enabled, false
TestParameter, AutoAnalysis.Marker.Data.Var, 
TestParameter, AutoAnalysis.Marker.Data.Condition, 
TestParameter, AutoAnalysis.Marker.Data.Start, false
TestParameter, AutoAnalysis.Marker.Data.StartVar, 
TestParameter, AutoAnalysis.Marker.Data.StartCondition, 
MetaData, TestRecord.EntryPoint, false
MetaData, TestRecord.RecordTime, 03/04/2023 17:31:24
MetaData, TestRecord.TestTarget, 
MetaData, TestRecord.IterationIndex, 138
MetaData, TestRecord.Preservation, true
MetaData, TestRecord.Flag, 
MetaData, TestRecord.Remarks, 
MetaData, TestRecord.LinkKey, dfb231fe-257b-40db-b0ac-e9254feca8a7
Dimension1, 21, 21, 21, 21
Dimension2, 1, 1, 1, 1
DataName, V1, I1, R, Rsheet
DataValue, 0, -4.16E-12, -0, -0
DataValue, 0.05, 7.6E-13, 65789473684.210533, 6578947368.4210529
DataValue, 0.1, 6.8E-13, 147058823529.41177, 14705882352.941177
DataValue, 0.15, 1.87E-12, 80213903743.3155, 8021390374.33155
DataValue, 0.2, 9.4E-13, 212765957446.8085, 21276595744.680847
DataValue, 0.25, 1.76E-12, 142045454545.45456, 14204545454.545454
DataValue, 0.3, 1.15E-12, 260869565217.3913, 26086956521.739128
DataValue, 0.35000000000000003, 1.95E-12, 179487179487.1795, 17948717948.717949
DataValue, 0.4, 1.85E-12, 216216216216.21622, 21621621621.62162
DataValue, 0.45, 2.33E-12, 193133047210.30045, 19313304721.030041
DataValue, 0.5, 1.76E-12, 284090909090.90912, 28409090909.090908
DataValue, 0.55, 2.46E-12, 223577235772.35773, 22357723577.235771
DataValue, 0.6, 1.65E-12, 363636363636.36359, 36363636363.636353
DataValue, 0.65, 1.62E-12, 401234567901.23462, 40123456790.123459
DataValue, 0.70000000000000007, 2.08E-12, 336538461538.46155, 33653846153.846153
DataValue, 0.75, 2.82E-12, 265957446808.51062, 26595744680.851063
DataValue, 0.8, 1.44E-12, 555555555555.55566, 55555555555.555557
DataValue, 0.85000000000000009, 2.28E-12, 372807017543.85968, 37280701754.385963
DataValue, 0.9, 2.5E-12, 360000000000.00006, 36000000000
DataValue, 0.95000000000000007, 2.87E-12, 331010452961.67249, 33101045296.16724
DataValue, 1, 2.96E-12, 337837837837.83783, 33783783783.783779