
SetupTitle, R-V
ApplicationTest, R-V, Public
TestParameter, Name, Port1, Port2, V1Start, V1Stop, V1Step, V2, I1Limit, IntegTime, HoldTime, DelayTime, Port1MinRng
TestParameter, Value, SMU1:MP	MPSMU, SMU2:MP	MPSMU, 0, 1, 0.05, 0, 0.01, MEDIUM, 0, 0, 1nA
DutParameter, Name, L, W, Temp
DutParameter, Value, 1E-05, 1E-06, 25
MetaData, TestRecord.EntryPoint, true
MetaData, TestRecord.RecordTime, 03/04/2023 18:42:43
MetaData, TestRecord.TestTarget, 
MetaData, TestRecord.IterationIndex, 254
MetaData, TestRecord.Preservation, true
MetaData, TestRecord.Flag, 
MetaData, TestRecord.Remarks, 
MetaData, TestRecord.LinkKey, bc74bc17-3b37-493a-825e-ac423de2f8cc
Dimension1, 21, 21, 21, 21
Dimension2, 1, 1, 1, 1
DataName, V1, I1, R, Rsheet
DataValue, 0, 5.2900000000000007E-13, 0, 0
DataValue, 0.05, 6.6E-13, 75757575757.57576, 7575757575.757575
DataValue, 0.1, 6.5000000000000006E-13, 153846153846.15384, 15384615384.615383
DataValue, 0.15, 7.120000000000001E-13, 210674157303.37076, 21067415730.33707
DataValue, 0.2, 8.5000000000000011E-13, 235294117647.05881, 23529411764.705879
DataValue, 0.25, 7.02E-13, 356125356125.35608, 35612535612.5356
DataValue, 0.3, 8.71E-13, 344431687715.26978, 34443168771.52697
DataValue, 0.35000000000000003, 8.6200000000000006E-13, 406032482598.60791, 40603248259.860786
DataValue, 0.4, 9.32E-13, 429184549356.22314, 42918454935.622314
DataValue, 0.45, 8.44E-13, 533175355450.23694, 53317535545.023689
DataValue, 0.5, 9.27E-13, 539374325782.09277, 53937432578.209274
DataValue, 0.55, 9.13E-13, 602409638554.21692, 60240963855.421692
DataValue, 0.6, 9.42E-13, 636942675159.2356, 63694267515.923553
DataValue, 0.65, 9.96E-13, 652610441767.06824, 65261044176.706818
DataValue, 0.70000000000000007, 1.007E-12, 695134061569.017, 69513406156.901688
DataValue, 0.75, 9.3300000000000016E-13, 803858520900.32141, 80385852090.032135
DataValue, 0.8, 1.0710000000000002E-12, 746965452847.80566, 74696545284.780548
DataValue, 0.85000000000000009, 1.0020000000000002E-12, 848303393213.57275, 84830339321.357254
DataValue, 0.9, 1.003E-12, 897308075772.68188, 89730807577.268173
DataValue, 0.95000000000000007, 1.1560000000000001E-12, 821799307958.47754, 82179930795.847748
DataValue, 1, 1.003E-12, 997008973080.75769, 99700897308.07576
SetupTitle, R-V
PrimitiveTest, I/V Sweep
TestParameter, Context.MainFrame, B1500A
TestParameter, Channel.UnitType, SMU, SMU
TestParameter, Channel.Unit, Port1, Port2
TestParameter, Channel.IName, I1, I2
TestParameter, Channel.VName, V1, V2
TestParameter, Channel.Mode, V, V
TestParameter, Channel.Func, VAR1, CONST
TestParameter, Channel.Index, 
TestParameter, Channel.Time, 
TestParameter, Measurement.Port.Unit, Port1, Port2
TestParameter, Measurement.Port.SeriesResistor, NONE, NONE
TestParameter, Measurement.Port.Filter, OFF, OFF
TestParameter, Measurement.Port.OutputVoltageComparison, 0, 0
TestParameter, Measurement.Primary.Locus, Single
TestParameter, Measurement.Primary.Scale, LINEAR
TestParameter, Measurement.Primary.Start, V1Start
TestParameter, Measurement.Primary.Stop, V1Stop
TestParameter, Measurement.Primary.Step, V1Step
TestParameter, Measurement.Primary.Compliance, I1Limit
TestParameter, Measurement.Primary.PowerCompliance, 0
TestParameter, Measurement.Aborting.Condition, CONTINUE AT ANY
TestParameter, Measurement.PostOutput.Value, START
TestParameter, Measurement.PostOutput.Retention, OFF
TestParameter, Measurement.Bias.Source, 0, V2
TestParameter, Measurement.Bias.Compliance, 0.01, I1Limit
TestParameter, Measurement.Monitor.Unit, SMU:=Port1, SMU:=Port2
TestParameter, Measurement.Monitor.Adc, HR ADC, HR ADC
TestParameter, Measurement.Monitor.Measurement, Compliance Side, Compliance Side
TestParameter, Measurement.Monitor.RangingMode, LIMITED, LIMITED
TestParameter, Measurement.Monitor.RangeBoundary, Port1MinRng, 1nA
TestParameter, Measurement.Monitor.RangeRating, BY FULL RANGE, BY FULL RANGE
TestParameter, Measurement.Monitor.RangeRatingCoeff, 50, 50
TestParameter, Measurement.Timing.Hold, HoldTime
TestParameter, Measurement.Timing.Delay, DelayTime
TestParameter, Measurement.Adc.HighSpeed.Mode, AUTO
TestParameter, Measurement.Adc.HighSpeed.Coeff, 1
TestParameter, Measurement.Adc.HighResolution.AutoZero, ON
TestParameter, Measurement.Adc.HighResolution.Mode, IntegMode
TestParameter, Measurement.Adc.HighResolution.Coeff, AdcFactor
TestParameter, Measurement.WaitTime.Source.Coeff, 1
TestParameter, Measurement.WaitTime.Source.Offset, 0
TestParameter, Measurement.WaitTime.Monitor.Coeff, 1
TestParameter, Measurement.WaitTime.Monitor.Offset, 0
TestParameter, Function.User.Name, R, Rsheet
TestParameter, Function.User.Unit, ohm, ohm/sheet
TestParameter, Function.User.Definition, V1/I1, R*W/L
TestParameter, Output.Graph.Enabled, true
TestParameter, Output.Graph.AutoScaling, false
TestParameter, Output.Graph.XAxis.Data, V1
TestParameter, Output.Graph.XAxis.Scale, Linear
TestParameter, Output.Graph.XAxis.Left, V1Start
TestParameter, Output.Graph.XAxis.Right, V1Stop
TestParameter, Output.Graph.XAxis.RunTimeAutoScale, false
TestParameter, Output.Graph.YAxis.Data, R, I1
TestParameter, Output.Graph.YAxis.Scale, Linear, Linear
TestParameter, Output.Graph.YAxis.Bottom, 0, 0
TestParameter, Output.Graph.YAxis.Top, V1Stop/I1Limit, I1Limit
TestParameter, Output.Graph.YAxis.Group, , 
TestParameter, Output.Graph.YAxis.RunTimeAutoScale, false, false
TestParameter, Output.List.Data, V1, I1, R, Rsheet
TestParameter, AutoAnalysis.Interpolation, false
TestParameter, AutoAnalysis.Line1.Enabled, false
TestParameter, AutoAnalysis.Line1.Type, 1
TestParameter, AutoAnalysis.Line1.Fix, False
TestParameter, AutoAnalysis.Line1.YAxis, 0
TestParameter, AutoAnalysis.Line1.Point1.Type, 0
TestParameter, AutoAnalysis.Line1.Point1.XY.X, 
TestParameter, AutoAnalysis.Line1.Point1.XY.Y, 
TestParameter, AutoAnalysis.Line1.Point1.Data.Var, 
TestParameter, AutoAnalysis.Line1.Point1.Data.Condition, 
TestParameter, AutoAnalysis.Line1.Point1.Data.Start, false
TestParameter, AutoAnalysis.Line1.Point1.Data.StartVar, 
TestParameter, AutoAnalysis.Line1.Point1.Data.StartCondition, 
TestParameter, AutoAnalysis.Line1.Point2.Type, 0
TestParameter, AutoAnalysis.Line1.Point2.XY.X, 
TestParameter, AutoAnalysis.Line1.Point2.XY.Y, 
TestParameter, AutoAnalysis.Line1.Point2.Data.Var, 
TestParameter, AutoAnalysis.Line1.Point2.Data.Condition, 
TestParameter, AutoAnalysis.Line1.Point2.Data.Start, false
TestParameter, AutoAnalysis.Line1.Point2.Data.StartVar, 
TestParameter, AutoAnalysis.Line1.Point2.Data.StartCondition, 
TestParameter, AutoAnalysis.Line1.GradientExpr, 0
TestParameter, AutoAnalysis.Line2.Enabled, false
TestParameter, AutoAnalysis.Line2.Type, 1
TestParameter, AutoAnalysis.Line2.Fix, False
TestParameter, AutoAnalysis.Line2.YAxis, 0
TestParameter, AutoAnalysis.Line2.Point1.Type, 0
TestParameter, AutoAnalysis.Line2.Point1.XY.X, 
TestParameter, AutoAnalysis.Line2.Point1.XY.Y, 
TestParameter, AutoAnalysis.Line2.Point1.Data.Var, 
TestParameter, AutoAnalysis.Line2.Point1.Data.Condition, 
TestParameter, AutoAnalysis.Line2.Point1.Data.Start, false
TestParameter, AutoAnalysis.Line2.Point1.Data.StartVar, 
TestParameter, AutoAnalysis.Line2.Point1.Data.StartCondition, 
TestParameter, AutoAnalysis.Line2.Point2.Type, 0
TestParameter, AutoAnalysis.Line2.Point2.XY.X, 
TestParameter, AutoAnalysis.Line2.Point2.XY.Y, 
TestParameter, AutoAnalysis.Line2.Point2.Data.Var, 
TestParameter, AutoAnalysis.Line2.Point2.Data.Condition, 
TestParameter, AutoAnalysis.Line2.Point2.Data.Start, false
TestParameter, AutoAnalysis.Line2.Point2.Data.StartVar, 
TestParameter, AutoAnalysis.Line2.Point2.Data.StartCondition, 
TestParameter, AutoAnalysis.Line2.GradientExpr, 0
TestParameter, AutoAnalysis.Marker.Enabled, false
TestParameter, AutoAnalysis.Marker.Data.Var, 
TestParameter, AutoAnalysis.Marker.Data.Condition, 
TestParameter, AutoAnalysis.Marker.Data.Start, false
TestParameter, AutoAnalysis.Marker.Data.StartVar, 
TestParameter, AutoAnalysis.Marker.Data.StartCondition, 
MetaData, TestRecord.EntryPoint, false
MetaData, TestRecord.RecordTime, 03/04/2023 18:42:43
MetaData, TestRecord.TestTarget, 
MetaData, TestRecord.IterationIndex, 254
MetaData, TestRecord.Preservation, true
MetaData, TestRecord.Flag, 
MetaData, TestRecord.Remarks, 
MetaData, TestRecord.LinkKey, bc74bc17-3b37-493a-825e-ac423de2f8cc
Dimension1, 21, 21, 21, 21
Dimension2, 1, 1, 1, 1
DataName, V1, I1, R, Rsheet
DataValue, 0, 5.2900000000000007E-13, 0, 0
DataValue, 0.05, 6.6E-13, 75757575757.57576, 7575757575.757575
DataValue, 0.1, 6.5000000000000006E-13, 153846153846.15384, 15384615384.615383
DataValue, 0.15, 7.120000000000001E-13, 210674157303.37076, 21067415730.33707
DataValue, 0.2, 8.5000000000000011E-13, 235294117647.05881, 23529411764.705879
DataValue, 0.25, 7.02E-13, 356125356125.35608, 35612535612.5356
DataValue, 0.3, 8.71E-13, 344431687715.26978, 34443168771.52697
DataValue, 0.35000000000000003, 8.6200000000000006E-13, 406032482598.60791, 40603248259.860786
DataValue, 0.4, 9.32E-13, 429184549356.22314, 42918454935.622314
DataValue, 0.45, 8.44E-13, 533175355450.23694, 53317535545.023689
DataValue, 0.5, 9.27E-13, 539374325782.09277, 53937432578.209274
DataValue, 0.55, 9.13E-13, 602409638554.21692, 60240963855.421692
DataValue, 0.6, 9.42E-13, 636942675159.2356, 63694267515.923553
DataValue, 0.65, 9.96E-13, 652610441767.06824, 65261044176.706818
DataValue, 0.70000000000000007, 1.007E-12, 695134061569.017, 69513406156.901688
DataValue, 0.75, 9.3300000000000016E-13, 803858520900.32141, 80385852090.032135
DataValue, 0.8, 1.0710000000000002E-12, 746965452847.80566, 74696545284.780548
DataValue, 0.85000000000000009, 1.0020000000000002E-12, 848303393213.57275, 84830339321.357254
DataValue, 0.9, 1.003E-12, 897308075772.68188, 89730807577.268173
DataValue, 0.95000000000000007, 1.1560000000000001E-12, 821799307958.47754, 82179930795.847748
DataValue, 1, 1.003E-12, 997008973080.75769, 99700897308.07576