
SetupTitle, R-V
ApplicationTest, R-V, Public
TestParameter, Name, Port1, Port2, V1Start, V1Stop, V1Step, V2, I1Limit, IntegTime, HoldTime, DelayTime, Port1MinRng
TestParameter, Value, SMU1:MP	MPSMU, SMU2:MP	MPSMU, 0, 1, 0.05, 0, 0.01, MEDIUM, 0, 0, 1nA
DutParameter, Name, L, W, Temp
DutParameter, Value, 1E-05, 1E-06, 25
MetaData, TestRecord.EntryPoint, true
MetaData, TestRecord.RecordTime, 03/04/2023 18:41:36
MetaData, TestRecord.TestTarget, 
MetaData, TestRecord.IterationIndex, 252
MetaData, TestRecord.Preservation, true
MetaData, TestRecord.Flag, 
MetaData, TestRecord.Remarks, 
MetaData, TestRecord.LinkKey, 26be4141-b103-4951-9cbb-af9c4d53fb71
Dimension1, 21, 21, 21, 21
Dimension2, 1, 1, 1, 1
DataName, V1, I1, R, Rsheet
DataValue, 0, -1.70548E-08, -0, -0
DataValue, 0.05, 8.34298E-05, 599.30624309299549, 59.930624309299539
DataValue, 0.1, 0.000166765, 599.64620873684532, 59.964620873684524
DataValue, 0.15, 0.000250238, 599.42934326521151, 59.94293432652114
DataValue, 0.2, 0.00033354200000000004, 599.62463497850342, 59.962463497850329
DataValue, 0.25, 0.000417004, 599.51463295316114, 59.95146329531611
DataValue, 0.3, 0.000500338, 599.59467400037568, 59.95946740003756
DataValue, 0.35000000000000003, 0.000583802, 599.51832984470764, 59.951832984470755
DataValue, 0.4, 0.00066715, 599.56531514651874, 59.956531514651871
DataValue, 0.45, 0.00075047, 599.62423547909975, 59.962423547909971
DataValue, 0.5, 0.00083386800000000009, 599.61528683196855, 59.961528683196846
DataValue, 0.55, 0.000917163, 599.67530308134985, 59.967530308134982
DataValue, 0.6, 0.001000437, 599.7379145313497, 59.973791453134965
DataValue, 0.65, 0.001083769, 599.75880468992932, 59.975880468992926
DataValue, 0.70000000000000007, 0.00116707, 599.79264311480893, 59.97926431148089
DataValue, 0.75, 0.00125028, 599.86563009885776, 59.986563009885771
DataValue, 0.8, 0.0013335600000000001, 599.89801733705269, 59.989801733705264
DataValue, 0.85000000000000009, 0.00141668, 599.9943529943248, 59.999435299432477
DataValue, 0.9, 0.00149997, 600.0120002400048, 60.001200024000475
DataValue, 0.95000000000000007, 0.00158309, 600.092224699796, 60.009222469979591
DataValue, 1, 0.00166627, 600.14283399449062, 60.014283399449049
SetupTitle, R-V
PrimitiveTest, I/V Sweep
TestParameter, Context.MainFrame, B1500A
TestParameter, Channel.UnitType, SMU, SMU
TestParameter, Channel.Unit, Port1, Port2
TestParameter, Channel.IName, I1, I2
TestParameter, Channel.VName, V1, V2
TestParameter, Channel.Mode, V, V
TestParameter, Channel.Func, VAR1, CONST
TestParameter, Channel.Index, 
TestParameter, Channel.Time, 
TestParameter, Measurement.Port.Unit, Port1, Port2
TestParameter, Measurement.Port.SeriesResistor, NONE, NONE
TestParameter, Measurement.Port.Filter, OFF, OFF
TestParameter, Measurement.Port.OutputVoltageComparison, 0, 0
TestParameter, Measurement.Primary.Locus, Single
TestParameter, Measurement.Primary.Scale, LINEAR
TestParameter, Measurement.Primary.Start, V1Start
TestParameter, Measurement.Primary.Stop, V1Stop
TestParameter, Measurement.Primary.Step, V1Step
TestParameter, Measurement.Primary.Compliance, I1Limit
TestParameter, Measurement.Primary.PowerCompliance, 0
TestParameter, Measurement.Aborting.Condition, CONTINUE AT ANY
TestParameter, Measurement.PostOutput.Value, START
TestParameter, Measurement.PostOutput.Retention, OFF
TestParameter, Measurement.Bias.Source, 0, V2
TestParameter, Measurement.Bias.Compliance, 0.01, I1Limit
TestParameter, Measurement.Monitor.Unit, SMU:=Port1, SMU:=Port2
TestParameter, Measurement.Monitor.Adc, HR ADC, HR ADC
TestParameter, Measurement.Monitor.Measurement, Compliance Side, Compliance Side
TestParameter, Measurement.Monitor.RangingMode, LIMITED, LIMITED
TestParameter, Measurement.Monitor.RangeBoundary, Port1MinRng, 1nA
TestParameter, Measurement.Monitor.RangeRating, BY FULL RANGE, BY FULL RANGE
TestParameter, Measurement.Monitor.RangeRatingCoeff, 50, 50
TestParameter, Measurement.Timing.Hold, HoldTime
TestParameter, Measurement.Timing.Delay, DelayTime
TestParameter, Measurement.Adc.HighSpeed.Mode, AUTO
TestParameter, Measurement.Adc.HighSpeed.Coeff, 1
TestParameter, Measurement.Adc.HighResolution.AutoZero, ON
TestParameter, Measurement.Adc.HighResolution.Mode, IntegMode
TestParameter, Measurement.Adc.HighResolution.Coeff, AdcFactor
TestParameter, Measurement.WaitTime.Source.Coeff, 1
TestParameter, Measurement.WaitTime.Source.Offset, 0
TestParameter, Measurement.WaitTime.Monitor.Coeff, 1
TestParameter, Measurement.WaitTime.Monitor.Offset, 0
TestParameter, Function.User.Name, R, Rsheet
TestParameter, Function.User.Unit, ohm, ohm/sheet
TestParameter, Function.User.Definition, V1/I1, R*W/L
TestParameter, Output.Graph.Enabled, true
TestParameter, Output.Graph.AutoScaling, false
TestParameter, Output.Graph.XAxis.Data, V1
TestParameter, Output.Graph.XAxis.Scale, Linear
TestParameter, Output.Graph.XAxis.Left, V1Start
TestParameter, Output.Graph.XAxis.Right, V1Stop
TestParameter, Output.Graph.XAxis.RunTimeAutoScale, false
TestParameter, Output.Graph.YAxis.Data, R, I1
TestParameter, Output.Graph.YAxis.Scale, Linear, Linear
TestParameter, Output.Graph.YAxis.Bottom, 0, 0
TestParameter, Output.Graph.YAxis.Top, V1Stop/I1Limit, I1Limit
TestParameter, Output.Graph.YAxis.Group, , 
TestParameter, Output.Graph.YAxis.RunTimeAutoScale, false, false
TestParameter, Output.List.Data, V1, I1, R, Rsheet
TestParameter, AutoAnalysis.Interpolation, false
TestParameter, AutoAnalysis.Line1.Enabled, false
TestParameter, AutoAnalysis.Line1.Type, 1
TestParameter, AutoAnalysis.Line1.Fix, False
TestParameter, AutoAnalysis.Line1.YAxis, 0
TestParameter, AutoAnalysis.Line1.Point1.Type, 0
TestParameter, AutoAnalysis.Line1.Point1.XY.X, 
TestParameter, AutoAnalysis.Line1.Point1.XY.Y, 
TestParameter, AutoAnalysis.Line1.Point1.Data.Var, 
TestParameter, AutoAnalysis.Line1.Point1.Data.Condition, 
TestParameter, AutoAnalysis.Line1.Point1.Data.Start, false
TestParameter, AutoAnalysis.Line1.Point1.Data.StartVar, 
TestParameter, AutoAnalysis.Line1.Point1.Data.StartCondition, 
TestParameter, AutoAnalysis.Line1.Point2.Type, 0
TestParameter, AutoAnalysis.Line1.Point2.XY.X, 
TestParameter, AutoAnalysis.Line1.Point2.XY.Y, 
TestParameter, AutoAnalysis.Line1.Point2.Data.Var, 
TestParameter, AutoAnalysis.Line1.Point2.Data.Condition, 
TestParameter, AutoAnalysis.Line1.Point2.Data.Start, false
TestParameter, AutoAnalysis.Line1.Point2.Data.StartVar, 
TestParameter, AutoAnalysis.Line1.Point2.Data.StartCondition, 
TestParameter, AutoAnalysis.Line1.GradientExpr, 0
TestParameter, AutoAnalysis.Line2.Enabled, false
TestParameter, AutoAnalysis.Line2.Type, 1
TestParameter, AutoAnalysis.Line2.Fix, False
TestParameter, AutoAnalysis.Line2.YAxis, 0
TestParameter, AutoAnalysis.Line2.Point1.Type, 0
TestParameter, AutoAnalysis.Line2.Point1.XY.X, 
TestParameter, AutoAnalysis.Line2.Point1.XY.Y, 
TestParameter, AutoAnalysis.Line2.Point1.Data.Var, 
TestParameter, AutoAnalysis.Line2.Point1.Data.Condition, 
TestParameter, AutoAnalysis.Line2.Point1.Data.Start, false
TestParameter, AutoAnalysis.Line2.Point1.Data.StartVar, 
TestParameter, AutoAnalysis.Line2.Point1.Data.StartCondition, 
TestParameter, AutoAnalysis.Line2.Point2.Type, 0
TestParameter, AutoAnalysis.Line2.Point2.XY.X, 
TestParameter, AutoAnalysis.Line2.Point2.XY.Y, 
TestParameter, AutoAnalysis.Line2.Point2.Data.Var, 
TestParameter, AutoAnalysis.Line2.Point2.Data.Condition, 
TestParameter, AutoAnalysis.Line2.Point2.Data.Start, false
TestParameter, AutoAnalysis.Line2.Point2.Data.StartVar, 
TestParameter, AutoAnalysis.Line2.Point2.Data.StartCondition, 
TestParameter, AutoAnalysis.Line2.GradientExpr, 0
TestParameter, AutoAnalysis.Marker.Enabled, false
TestParameter, AutoAnalysis.Marker.Data.Var, 
TestParameter, AutoAnalysis.Marker.Data.Condition, 
TestParameter, AutoAnalysis.Marker.Data.Start, false
TestParameter, AutoAnalysis.Marker.Data.StartVar, 
TestParameter, AutoAnalysis.Marker.Data.StartCondition, 
MetaData, TestRecord.EntryPoint, false
MetaData, TestRecord.RecordTime, 03/04/2023 18:41:35
MetaData, TestRecord.TestTarget, 
MetaData, TestRecord.IterationIndex, 252
MetaData, TestRecord.Preservation, true
MetaData, TestRecord.Flag, 
MetaData, TestRecord.Remarks, 
MetaData, TestRecord.LinkKey, 26be4141-b103-4951-9cbb-af9c4d53fb71
Dimension1, 21, 21, 21, 21
Dimension2, 1, 1, 1, 1
DataName, V1, I1, R, Rsheet
DataValue, 0, -1.70548E-08, -0, -0
DataValue, 0.05, 8.34298E-05, 599.30624309299549, 59.930624309299539
DataValue, 0.1, 0.000166765, 599.64620873684532, 59.964620873684524
DataValue, 0.15, 0.000250238, 599.42934326521151, 59.94293432652114
DataValue, 0.2, 0.00033354200000000004, 599.62463497850342, 59.962463497850329
DataValue, 0.25, 0.000417004, 599.51463295316114, 59.95146329531611
DataValue, 0.3, 0.000500338, 599.59467400037568, 59.95946740003756
DataValue, 0.35000000000000003, 0.000583802, 599.51832984470764, 59.951832984470755
DataValue, 0.4, 0.00066715, 599.56531514651874, 59.956531514651871
DataValue, 0.45, 0.00075047, 599.62423547909975, 59.962423547909971
DataValue, 0.5, 0.00083386800000000009, 599.61528683196855, 59.961528683196846
DataValue, 0.55, 0.000917163, 599.67530308134985, 59.967530308134982
DataValue, 0.6, 0.001000437, 599.7379145313497, 59.973791453134965
DataValue, 0.65, 0.001083769, 599.75880468992932, 59.975880468992926
DataValue, 0.70000000000000007, 0.00116707, 599.79264311480893, 59.97926431148089
DataValue, 0.75, 0.00125028, 599.86563009885776, 59.986563009885771
DataValue, 0.8, 0.0013335600000000001, 599.89801733705269, 59.989801733705264
DataValue, 0.85000000000000009, 0.00141668, 599.9943529943248, 59.999435299432477
DataValue, 0.9, 0.00149997, 600.0120002400048, 60.001200024000475
DataValue, 0.95000000000000007, 0.00158309, 600.092224699796, 60.009222469979591
DataValue, 1, 0.00166627, 600.14283399449062, 60.014283399449049