
SetupTitle, R-V
ApplicationTest, R-V, Public
TestParameter, Name, Port1, Port2, V1Start, V1Stop, V1Step, V2, I1Limit, IntegTime, HoldTime, DelayTime, Port1MinRng
TestParameter, Value, SMU1:MP	MPSMU, SMU2:MP	MPSMU, 0, 1, 0.05, 0, 0.01, MEDIUM, 0, 0, 1nA
DutParameter, Name, L, W, Temp
DutParameter, Value, 1E-05, 1E-06, 25
MetaData, TestRecord.EntryPoint, true
MetaData, TestRecord.RecordTime, 03/04/2023 16:38:24
MetaData, TestRecord.TestTarget, 
MetaData, TestRecord.IterationIndex, 56
MetaData, TestRecord.Preservation, true
MetaData, TestRecord.Flag, 
MetaData, TestRecord.Remarks, 
MetaData, TestRecord.LinkKey, 45344e9c-0452-47ea-81c4-31731070338b
Dimension1, 21, 21, 21, 21
Dimension2, 1, 1, 1, 1
DataName, V1, I1, R, Rsheet
DataValue, 0, 1.35E-13, 0, 0
DataValue, 0.05, 2.92E-13, 171232876712.32877, 17123287671.232874
DataValue, 0.1, 4.92E-13, 203252032520.3252, 20325203252.032516
DataValue, 0.15, 8.21E-13, 182704019488.42874, 18270401948.842869
DataValue, 0.2, 8.0300000000000011E-13, 249066002490.66, 24906600249.065998
DataValue, 0.25, 2.386E-12, 104777870913.66303, 10477787091.3663
DataValue, 0.3, 1.2020000000000001E-12, 249584026622.29614, 24958402662.22961
DataValue, 0.35000000000000003, 9.84E-13, 355691056910.56909, 35569105691.056908
DataValue, 0.4, 1.028E-12, 389105058365.75873, 38910505836.575867
DataValue, 0.45, 1.072E-12, 419776119402.98505, 41977611940.2985
DataValue, 0.5, 9.15E-13, 546448087431.694, 54644808743.169388
DataValue, 0.55, 9.000000000000001E-13, 611111111111.11108, 61111111111.1111
DataValue, 0.6, 9.7900000000000017E-13, 612870275791.624, 61287027579.162392
DataValue, 0.65, 1.2500000000000001E-12, 519999999999.99994, 51999999999.999992
DataValue, 0.70000000000000007, 8.46E-13, 827423167848.69983, 82742316784.86998
DataValue, 0.75, 1.174E-12, 638841567291.31177, 63884156729.131165
DataValue, 0.8, 1.406E-12, 568990042674.25317, 56899004267.425308
DataValue, 0.85000000000000009, 1.0810000000000001E-12, 786308973172.98792, 78630897317.298782
DataValue, 0.9, 1.301E-12, 691775557263.64331, 69177555726.364319
DataValue, 0.95000000000000007, 1.458E-12, 651577503429.35535, 65157750342.935532
DataValue, 1, 1.3500000000000001E-12, 740740740740.74072, 74074074074.074066
SetupTitle, R-V
PrimitiveTest, I/V Sweep
TestParameter, Context.MainFrame, B1500A
TestParameter, Channel.UnitType, SMU, SMU
TestParameter, Channel.Unit, Port1, Port2
TestParameter, Channel.IName, I1, I2
TestParameter, Channel.VName, V1, V2
TestParameter, Channel.Mode, V, V
TestParameter, Channel.Func, VAR1, CONST
TestParameter, Channel.Index, 
TestParameter, Channel.Time, 
TestParameter, Measurement.Port.Unit, Port1, Port2
TestParameter, Measurement.Port.SeriesResistor, NONE, NONE
TestParameter, Measurement.Port.Filter, OFF, OFF
TestParameter, Measurement.Port.OutputVoltageComparison, 0, 0
TestParameter, Measurement.Primary.Locus, Single
TestParameter, Measurement.Primary.Scale, LINEAR
TestParameter, Measurement.Primary.Start, V1Start
TestParameter, Measurement.Primary.Stop, V1Stop
TestParameter, Measurement.Primary.Step, V1Step
TestParameter, Measurement.Primary.Compliance, I1Limit
TestParameter, Measurement.Primary.PowerCompliance, 0
TestParameter, Measurement.Aborting.Condition, CONTINUE AT ANY
TestParameter, Measurement.PostOutput.Value, START
TestParameter, Measurement.PostOutput.Retention, OFF
TestParameter, Measurement.Bias.Source, 0, V2
TestParameter, Measurement.Bias.Compliance, 0.01, I1Limit
TestParameter, Measurement.Monitor.Unit, SMU:=Port1, SMU:=Port2
TestParameter, Measurement.Monitor.Adc, HR ADC, HR ADC
TestParameter, Measurement.Monitor.Measurement, Compliance Side, Compliance Side
TestParameter, Measurement.Monitor.RangingMode, LIMITED, LIMITED
TestParameter, Measurement.Monitor.RangeBoundary, Port1MinRng, 1nA
TestParameter, Measurement.Monitor.RangeRating, BY FULL RANGE, BY FULL RANGE
TestParameter, Measurement.Monitor.RangeRatingCoeff, 50, 50
TestParameter, Measurement.Timing.Hold, HoldTime
TestParameter, Measurement.Timing.Delay, DelayTime
TestParameter, Measurement.Adc.HighSpeed.Mode, AUTO
TestParameter, Measurement.Adc.HighSpeed.Coeff, 1
TestParameter, Measurement.Adc.HighResolution.AutoZero, ON
TestParameter, Measurement.Adc.HighResolution.Mode, IntegMode
TestParameter, Measurement.Adc.HighResolution.Coeff, AdcFactor
TestParameter, Measurement.WaitTime.Source.Coeff, 1
TestParameter, Measurement.WaitTime.Source.Offset, 0
TestParameter, Measurement.WaitTime.Monitor.Coeff, 1
TestParameter, Measurement.WaitTime.Monitor.Offset, 0
TestParameter, Function.User.Name, R, Rsheet
TestParameter, Function.User.Unit, ohm, ohm/sheet
TestParameter, Function.User.Definition, V1/I1, R*W/L
TestParameter, Output.Graph.Enabled, true
TestParameter, Output.Graph.AutoScaling, false
TestParameter, Output.Graph.XAxis.Data, V1
TestParameter, Output.Graph.XAxis.Scale, Linear
TestParameter, Output.Graph.XAxis.Left, V1Start
TestParameter, Output.Graph.XAxis.Right, V1Stop
TestParameter, Output.Graph.XAxis.RunTimeAutoScale, false
TestParameter, Output.Graph.YAxis.Data, R, I1
TestParameter, Output.Graph.YAxis.Scale, Linear, Linear
TestParameter, Output.Graph.YAxis.Bottom, 0, 0
TestParameter, Output.Graph.YAxis.Top, V1Stop/I1Limit, I1Limit
TestParameter, Output.Graph.YAxis.Group, , 
TestParameter, Output.Graph.YAxis.RunTimeAutoScale, false, false
TestParameter, Output.List.Data, V1, I1, R, Rsheet
TestParameter, AutoAnalysis.Interpolation, false
TestParameter, AutoAnalysis.Line1.Enabled, false
TestParameter, AutoAnalysis.Line1.Type, 1
TestParameter, AutoAnalysis.Line1.Fix, False
TestParameter, AutoAnalysis.Line1.YAxis, 0
TestParameter, AutoAnalysis.Line1.Point1.Type, 0
TestParameter, AutoAnalysis.Line1.Point1.XY.X, 
TestParameter, AutoAnalysis.Line1.Point1.XY.Y, 
TestParameter, AutoAnalysis.Line1.Point1.Data.Var, 
TestParameter, AutoAnalysis.Line1.Point1.Data.Condition, 
TestParameter, AutoAnalysis.Line1.Point1.Data.Start, false
TestParameter, AutoAnalysis.Line1.Point1.Data.StartVar, 
TestParameter, AutoAnalysis.Line1.Point1.Data.StartCondition, 
TestParameter, AutoAnalysis.Line1.Point2.Type, 0
TestParameter, AutoAnalysis.Line1.Point2.XY.X, 
TestParameter, AutoAnalysis.Line1.Point2.XY.Y, 
TestParameter, AutoAnalysis.Line1.Point2.Data.Var, 
TestParameter, AutoAnalysis.Line1.Point2.Data.Condition, 
TestParameter, AutoAnalysis.Line1.Point2.Data.Start, false
TestParameter, AutoAnalysis.Line1.Point2.Data.StartVar, 
TestParameter, AutoAnalysis.Line1.Point2.Data.StartCondition, 
TestParameter, AutoAnalysis.Line1.GradientExpr, 0
TestParameter, AutoAnalysis.Line2.Enabled, false
TestParameter, AutoAnalysis.Line2.Type, 1
TestParameter, AutoAnalysis.Line2.Fix, False
TestParameter, AutoAnalysis.Line2.YAxis, 0
TestParameter, AutoAnalysis.Line2.Point1.Type, 0
TestParameter, AutoAnalysis.Line2.Point1.XY.X, 
TestParameter, AutoAnalysis.Line2.Point1.XY.Y, 
TestParameter, AutoAnalysis.Line2.Point1.Data.Var, 
TestParameter, AutoAnalysis.Line2.Point1.Data.Condition, 
TestParameter, AutoAnalysis.Line2.Point1.Data.Start, false
TestParameter, AutoAnalysis.Line2.Point1.Data.StartVar, 
TestParameter, AutoAnalysis.Line2.Point1.Data.StartCondition, 
TestParameter, AutoAnalysis.Line2.Point2.Type, 0
TestParameter, AutoAnalysis.Line2.Point2.XY.X, 
TestParameter, AutoAnalysis.Line2.Point2.XY.Y, 
TestParameter, AutoAnalysis.Line2.Point2.Data.Var, 
TestParameter, AutoAnalysis.Line2.Point2.Data.Condition, 
TestParameter, AutoAnalysis.Line2.Point2.Data.Start, false
TestParameter, AutoAnalysis.Line2.Point2.Data.StartVar, 
TestParameter, AutoAnalysis.Line2.Point2.Data.StartCondition, 
TestParameter, AutoAnalysis.Line2.GradientExpr, 0
TestParameter, AutoAnalysis.Marker.Enabled, false
TestParameter, AutoAnalysis.Marker.Data.Var, 
TestParameter, AutoAnalysis.Marker.Data.Condition, 
TestParameter, AutoAnalysis.Marker.Data.Start, false
TestParameter, AutoAnalysis.Marker.Data.StartVar, 
TestParameter, AutoAnalysis.Marker.Data.StartCondition, 
MetaData, TestRecord.EntryPoint, false
MetaData, TestRecord.RecordTime, 03/04/2023 16:38:24
MetaData, TestRecord.TestTarget, 
MetaData, TestRecord.IterationIndex, 56
MetaData, TestRecord.Preservation, true
MetaData, TestRecord.Flag, 
MetaData, TestRecord.Remarks, 
MetaData, TestRecord.LinkKey, 45344e9c-0452-47ea-81c4-31731070338b
Dimension1, 21, 21, 21, 21
Dimension2, 1, 1, 1, 1
DataName, V1, I1, R, Rsheet
DataValue, 0, 1.35E-13, 0, 0
DataValue, 0.05, 2.92E-13, 171232876712.32877, 17123287671.232874
DataValue, 0.1, 4.92E-13, 203252032520.3252, 20325203252.032516
DataValue, 0.15, 8.21E-13, 182704019488.42874, 18270401948.842869
DataValue, 0.2, 8.0300000000000011E-13, 249066002490.66, 24906600249.065998
DataValue, 0.25, 2.386E-12, 104777870913.66303, 10477787091.3663
DataValue, 0.3, 1.2020000000000001E-12, 249584026622.29614, 24958402662.22961
DataValue, 0.35000000000000003, 9.84E-13, 355691056910.56909, 35569105691.056908
DataValue, 0.4, 1.028E-12, 389105058365.75873, 38910505836.575867
DataValue, 0.45, 1.072E-12, 419776119402.98505, 41977611940.2985
DataValue, 0.5, 9.15E-13, 546448087431.694, 54644808743.169388
DataValue, 0.55, 9.000000000000001E-13, 611111111111.11108, 61111111111.1111
DataValue, 0.6, 9.7900000000000017E-13, 612870275791.624, 61287027579.162392
DataValue, 0.65, 1.2500000000000001E-12, 519999999999.99994, 51999999999.999992
DataValue, 0.70000000000000007, 8.46E-13, 827423167848.69983, 82742316784.86998
DataValue, 0.75, 1.174E-12, 638841567291.31177, 63884156729.131165
DataValue, 0.8, 1.406E-12, 568990042674.25317, 56899004267.425308
DataValue, 0.85000000000000009, 1.0810000000000001E-12, 786308973172.98792, 78630897317.298782
DataValue, 0.9, 1.301E-12, 691775557263.64331, 69177555726.364319
DataValue, 0.95000000000000007, 1.458E-12, 651577503429.35535, 65157750342.935532
DataValue, 1, 1.3500000000000001E-12, 740740740740.74072, 74074074074.074066