
SetupTitle, R-V
ApplicationTest, R-V, Public
TestParameter, Name, Port1, Port2, V1Start, V1Stop, V1Step, V2, I1Limit, IntegTime, HoldTime, DelayTime, Port1MinRng
TestParameter, Value, SMU1:MP	MPSMU, SMU2:MP	MPSMU, 0, 1, 0.05, 0, 0.01, MEDIUM, 0, 0, 1nA
DutParameter, Name, L, W, Temp
DutParameter, Value, 1E-05, 1E-06, 25
MetaData, TestRecord.EntryPoint, true
MetaData, TestRecord.RecordTime, 03/04/2023 16:54:09
MetaData, TestRecord.TestTarget, 
MetaData, TestRecord.IterationIndex, 79
MetaData, TestRecord.Preservation, true
MetaData, TestRecord.Flag, 
MetaData, TestRecord.Remarks, 
MetaData, TestRecord.LinkKey, b0b2c65d-627e-48cb-b61c-643ea9006533
Dimension1, 21, 21, 21, 21
Dimension2, 1, 1, 1, 1
DataName, V1, I1, R, Rsheet
DataValue, 0, -1.3336E-11, -0, -0
DataValue, 0.05, 3.13146E-08, 1596699.3032004242, 159669.93032004242
DataValue, 0.1, 6.2591E-08, 1597673.7869661774, 159767.3786966177
DataValue, 0.15, 9.39124E-08, 1597233.1662272501, 159723.316622725
DataValue, 0.2, 1.25163E-07, 1597916.3171224725, 159791.63171224724
DataValue, 0.25, 1.56474E-07, 1597709.5236269285, 159770.95236269283
DataValue, 0.3, 1.87728E-07, 1598056.7629762208, 159805.67629762206
DataValue, 0.35000000000000003, 2.19035E-07, 1597918.1409363803, 159791.814093638
DataValue, 0.4, 2.50295E-07, 1598114.2252142474, 159811.42252142471
DataValue, 0.45, 2.81545E-07, 1598323.5362020282, 159832.3536202028
DataValue, 0.5, 3.12829E-07, 1598317.2915554503, 159831.729155545
DataValue, 0.55, 3.44072E-07, 1598502.6389825388, 159850.26389825385
DataValue, 0.6, 3.75311E-07, 1598674.1662248108, 159867.41662248105
DataValue, 0.65, 4.06569E-07, 1598744.6165349549, 159874.46165349547
DataValue, 0.70000000000000007, 4.37834E-07, 1598779.4460914412, 159877.94460914409
DataValue, 0.75, 4.69055E-07, 1598959.6102802444, 159895.96102802441
DataValue, 0.8, 5.00306E-07, 1599021.398903871, 159902.13989038707
DataValue, 0.85000000000000009, 5.3150899999999995E-07, 1599220.3330517456, 159922.03330517453
DataValue, 0.9, 5.62775E-07, 1599218.1600106615, 159921.81600106612
DataValue, 0.95000000000000007, 5.94002E-07, 1599321.2144066857, 159932.12144066853
DataValue, 1, 6.2521099999999995E-07, 1599460.0222964729, 159946.00222964727
SetupTitle, R-V
PrimitiveTest, I/V Sweep
TestParameter, Context.MainFrame, B1500A
TestParameter, Channel.UnitType, SMU, SMU
TestParameter, Channel.Unit, Port1, Port2
TestParameter, Channel.IName, I1, I2
TestParameter, Channel.VName, V1, V2
TestParameter, Channel.Mode, V, V
TestParameter, Channel.Func, VAR1, CONST
TestParameter, Channel.Index, 
TestParameter, Channel.Time, 
TestParameter, Measurement.Port.Unit, Port1, Port2
TestParameter, Measurement.Port.SeriesResistor, NONE, NONE
TestParameter, Measurement.Port.Filter, OFF, OFF
TestParameter, Measurement.Port.OutputVoltageComparison, 0, 0
TestParameter, Measurement.Primary.Locus, Single
TestParameter, Measurement.Primary.Scale, LINEAR
TestParameter, Measurement.Primary.Start, V1Start
TestParameter, Measurement.Primary.Stop, V1Stop
TestParameter, Measurement.Primary.Step, V1Step
TestParameter, Measurement.Primary.Compliance, I1Limit
TestParameter, Measurement.Primary.PowerCompliance, 0
TestParameter, Measurement.Aborting.Condition, CONTINUE AT ANY
TestParameter, Measurement.PostOutput.Value, START
TestParameter, Measurement.PostOutput.Retention, OFF
TestParameter, Measurement.Bias.Source, 0, V2
TestParameter, Measurement.Bias.Compliance, 0.01, I1Limit
TestParameter, Measurement.Monitor.Unit, SMU:=Port1, SMU:=Port2
TestParameter, Measurement.Monitor.Adc, HR ADC, HR ADC
TestParameter, Measurement.Monitor.Measurement, Compliance Side, Compliance Side
TestParameter, Measurement.Monitor.RangingMode, LIMITED, LIMITED
TestParameter, Measurement.Monitor.RangeBoundary, Port1MinRng, 1nA
TestParameter, Measurement.Monitor.RangeRating, BY FULL RANGE, BY FULL RANGE
TestParameter, Measurement.Monitor.RangeRatingCoeff, 50, 50
TestParameter, Measurement.Timing.Hold, HoldTime
TestParameter, Measurement.Timing.Delay, DelayTime
TestParameter, Measurement.Adc.HighSpeed.Mode, AUTO
TestParameter, Measurement.Adc.HighSpeed.Coeff, 1
TestParameter, Measurement.Adc.HighResolution.AutoZero, ON
TestParameter, Measurement.Adc.HighResolution.Mode, IntegMode
TestParameter, Measurement.Adc.HighResolution.Coeff, AdcFactor
TestParameter, Measurement.WaitTime.Source.Coeff, 1
TestParameter, Measurement.WaitTime.Source.Offset, 0
TestParameter, Measurement.WaitTime.Monitor.Coeff, 1
TestParameter, Measurement.WaitTime.Monitor.Offset, 0
TestParameter, Function.User.Name, R, Rsheet
TestParameter, Function.User.Unit, ohm, ohm/sheet
TestParameter, Function.User.Definition, V1/I1, R*W/L
TestParameter, Output.Graph.Enabled, true
TestParameter, Output.Graph.AutoScaling, false
TestParameter, Output.Graph.XAxis.Data, V1
TestParameter, Output.Graph.XAxis.Scale, Linear
TestParameter, Output.Graph.XAxis.Left, V1Start
TestParameter, Output.Graph.XAxis.Right, V1Stop
TestParameter, Output.Graph.XAxis.RunTimeAutoScale, false
TestParameter, Output.Graph.YAxis.Data, R, I1
TestParameter, Output.Graph.YAxis.Scale, Linear, Linear
TestParameter, Output.Graph.YAxis.Bottom, 0, 0
TestParameter, Output.Graph.YAxis.Top, V1Stop/I1Limit, I1Limit
TestParameter, Output.Graph.YAxis.Group, , 
TestParameter, Output.Graph.YAxis.RunTimeAutoScale, false, false
TestParameter, Output.List.Data, V1, I1, R, Rsheet
TestParameter, AutoAnalysis.Interpolation, false
TestParameter, AutoAnalysis.Line1.Enabled, false
TestParameter, AutoAnalysis.Line1.Type, 1
TestParameter, AutoAnalysis.Line1.Fix, False
TestParameter, AutoAnalysis.Line1.YAxis, 0
TestParameter, AutoAnalysis.Line1.Point1.Type, 0
TestParameter, AutoAnalysis.Line1.Point1.XY.X, 
TestParameter, AutoAnalysis.Line1.Point1.XY.Y, 
TestParameter, AutoAnalysis.Line1.Point1.Data.Var, 
TestParameter, AutoAnalysis.Line1.Point1.Data.Condition, 
TestParameter, AutoAnalysis.Line1.Point1.Data.Start, false
TestParameter, AutoAnalysis.Line1.Point1.Data.StartVar, 
TestParameter, AutoAnalysis.Line1.Point1.Data.StartCondition, 
TestParameter, AutoAnalysis.Line1.Point2.Type, 0
TestParameter, AutoAnalysis.Line1.Point2.XY.X, 
TestParameter, AutoAnalysis.Line1.Point2.XY.Y, 
TestParameter, AutoAnalysis.Line1.Point2.Data.Var, 
TestParameter, AutoAnalysis.Line1.Point2.Data.Condition, 
TestParameter, AutoAnalysis.Line1.Point2.Data.Start, false
TestParameter, AutoAnalysis.Line1.Point2.Data.StartVar, 
TestParameter, AutoAnalysis.Line1.Point2.Data.StartCondition, 
TestParameter, AutoAnalysis.Line1.GradientExpr, 0
TestParameter, AutoAnalysis.Line2.Enabled, false
TestParameter, AutoAnalysis.Line2.Type, 1
TestParameter, AutoAnalysis.Line2.Fix, False
TestParameter, AutoAnalysis.Line2.YAxis, 0
TestParameter, AutoAnalysis.Line2.Point1.Type, 0
TestParameter, AutoAnalysis.Line2.Point1.XY.X, 
TestParameter, AutoAnalysis.Line2.Point1.XY.Y, 
TestParameter, AutoAnalysis.Line2.Point1.Data.Var, 
TestParameter, AutoAnalysis.Line2.Point1.Data.Condition, 
TestParameter, AutoAnalysis.Line2.Point1.Data.Start, false
TestParameter, AutoAnalysis.Line2.Point1.Data.StartVar, 
TestParameter, AutoAnalysis.Line2.Point1.Data.StartCondition, 
TestParameter, AutoAnalysis.Line2.Point2.Type, 0
TestParameter, AutoAnalysis.Line2.Point2.XY.X, 
TestParameter, AutoAnalysis.Line2.Point2.XY.Y, 
TestParameter, AutoAnalysis.Line2.Point2.Data.Var, 
TestParameter, AutoAnalysis.Line2.Point2.Data.Condition, 
TestParameter, AutoAnalysis.Line2.Point2.Data.Start, false
TestParameter, AutoAnalysis.Line2.Point2.Data.StartVar, 
TestParameter, AutoAnalysis.Line2.Point2.Data.StartCondition, 
TestParameter, AutoAnalysis.Line2.GradientExpr, 0
TestParameter, AutoAnalysis.Marker.Enabled, false
TestParameter, AutoAnalysis.Marker.Data.Var, 
TestParameter, AutoAnalysis.Marker.Data.Condition, 
TestParameter, AutoAnalysis.Marker.Data.Start, false
TestParameter, AutoAnalysis.Marker.Data.StartVar, 
TestParameter, AutoAnalysis.Marker.Data.StartCondition, 
MetaData, TestRecord.EntryPoint, false
MetaData, TestRecord.RecordTime, 03/04/2023 16:54:09
MetaData, TestRecord.TestTarget, 
MetaData, TestRecord.IterationIndex, 79
MetaData, TestRecord.Preservation, true
MetaData, TestRecord.Flag, 
MetaData, TestRecord.Remarks, 
MetaData, TestRecord.LinkKey, b0b2c65d-627e-48cb-b61c-643ea9006533
Dimension1, 21, 21, 21, 21
Dimension2, 1, 1, 1, 1
DataName, V1, I1, R, Rsheet
DataValue, 0, -1.3336E-11, -0, -0
DataValue, 0.05, 3.13146E-08, 1596699.3032004242, 159669.93032004242
DataValue, 0.1, 6.2591E-08, 1597673.7869661774, 159767.3786966177
DataValue, 0.15, 9.39124E-08, 1597233.1662272501, 159723.316622725
DataValue, 0.2, 1.25163E-07, 1597916.3171224725, 159791.63171224724
DataValue, 0.25, 1.56474E-07, 1597709.5236269285, 159770.95236269283
DataValue, 0.3, 1.87728E-07, 1598056.7629762208, 159805.67629762206
DataValue, 0.35000000000000003, 2.19035E-07, 1597918.1409363803, 159791.814093638
DataValue, 0.4, 2.50295E-07, 1598114.2252142474, 159811.42252142471
DataValue, 0.45, 2.81545E-07, 1598323.5362020282, 159832.3536202028
DataValue, 0.5, 3.12829E-07, 1598317.2915554503, 159831.729155545
DataValue, 0.55, 3.44072E-07, 1598502.6389825388, 159850.26389825385
DataValue, 0.6, 3.75311E-07, 1598674.1662248108, 159867.41662248105
DataValue, 0.65, 4.06569E-07, 1598744.6165349549, 159874.46165349547
DataValue, 0.70000000000000007, 4.37834E-07, 1598779.4460914412, 159877.94460914409
DataValue, 0.75, 4.69055E-07, 1598959.6102802444, 159895.96102802441
DataValue, 0.8, 5.00306E-07, 1599021.398903871, 159902.13989038707
DataValue, 0.85000000000000009, 5.3150899999999995E-07, 1599220.3330517456, 159922.03330517453
DataValue, 0.9, 5.62775E-07, 1599218.1600106615, 159921.81600106612
DataValue, 0.95000000000000007, 5.94002E-07, 1599321.2144066857, 159932.12144066853
DataValue, 1, 6.2521099999999995E-07, 1599460.0222964729, 159946.00222964727