
SetupTitle, R-V
ApplicationTest, R-V, Public
TestParameter, Name, Port1, Port2, V1Start, V1Stop, V1Step, V2, I1Limit, IntegTime, HoldTime, DelayTime, Port1MinRng
TestParameter, Value, SMU1:MP	MPSMU, SMU2:MP	MPSMU, 0, 1, 0.05, 0, 0.01, MEDIUM, 0, 0, 1nA
DutParameter, Name, L, W, Temp
DutParameter, Value, 1E-05, 1E-06, 25
MetaData, TestRecord.EntryPoint, true
MetaData, TestRecord.RecordTime, 03/04/2023 16:54:45
MetaData, TestRecord.TestTarget, 
MetaData, TestRecord.IterationIndex, 80
MetaData, TestRecord.Preservation, true
MetaData, TestRecord.Flag, 
MetaData, TestRecord.Remarks, 
MetaData, TestRecord.LinkKey, 9fd26546-f775-4302-af4d-301edf8bd644
Dimension1, 21, 21, 21, 21
Dimension2, 1, 1, 1, 1
DataName, V1, I1, R, Rsheet
DataValue, 0, -1.1423000000000001E-11, -0, -0
DataValue, 0.05, 2.60765E-08, 1917435.2386248156, 191743.52386248153
DataValue, 0.1, 5.2118199999999995E-08, 1918715.5350722016, 191871.55350722015
DataValue, 0.15, 7.8201099999999992E-08, 1918131.5863843348, 191813.15863843347
DataValue, 0.2, 1.0422299999999999E-07, 1918962.2252285967, 191896.22252285967
DataValue, 0.25, 1.3029E-07, 1918796.5308158721, 191879.6530815872
DataValue, 0.3, 1.56314E-07, 1919213.8899906597, 191921.38899906594
DataValue, 0.35000000000000003, 1.82386E-07, 1919006.9413222508, 191900.69413222504
DataValue, 0.4, 2.0841E-07, 1919293.69991843, 191929.36999184298
DataValue, 0.45, 2.3442699999999999E-07, 1919574.110490686, 191957.41104906859
DataValue, 0.5, 2.60468E-07, 1919621.6041893822, 191962.16041893821
DataValue, 0.55, 2.86485E-07, 1919821.2820915582, 191982.12820915581
DataValue, 0.6, 3.12497E-07, 1920018.4321769488, 192001.84321769484
DataValue, 0.65, 3.38528E-07, 1920077.5120521789, 192007.75120521785
DataValue, 0.70000000000000007, 3.64555E-07, 1920149.2230253324, 192014.9223025332
DataValue, 0.75, 3.90545E-07, 1920393.296547133, 192039.32965471328
DataValue, 0.8, 4.16572E-07, 1920436.323132616, 192043.63231326157
DataValue, 0.85000000000000009, 4.42551E-07, 1920682.5879955082, 192068.25879955079
DataValue, 0.9, 4.68587E-07, 1920667.8802442236, 192066.78802442233
DataValue, 0.95000000000000007, 4.94593E-07, 1920771.2199727858, 192077.12199727856
DataValue, 1, 5.20578E-07, 1920941.7224700239, 192094.17224700237
SetupTitle, R-V
PrimitiveTest, I/V Sweep
TestParameter, Context.MainFrame, B1500A
TestParameter, Channel.UnitType, SMU, SMU
TestParameter, Channel.Unit, Port1, Port2
TestParameter, Channel.IName, I1, I2
TestParameter, Channel.VName, V1, V2
TestParameter, Channel.Mode, V, V
TestParameter, Channel.Func, VAR1, CONST
TestParameter, Channel.Index, 
TestParameter, Channel.Time, 
TestParameter, Measurement.Port.Unit, Port1, Port2
TestParameter, Measurement.Port.SeriesResistor, NONE, NONE
TestParameter, Measurement.Port.Filter, OFF, OFF
TestParameter, Measurement.Port.OutputVoltageComparison, 0, 0
TestParameter, Measurement.Primary.Locus, Single
TestParameter, Measurement.Primary.Scale, LINEAR
TestParameter, Measurement.Primary.Start, V1Start
TestParameter, Measurement.Primary.Stop, V1Stop
TestParameter, Measurement.Primary.Step, V1Step
TestParameter, Measurement.Primary.Compliance, I1Limit
TestParameter, Measurement.Primary.PowerCompliance, 0
TestParameter, Measurement.Aborting.Condition, CONTINUE AT ANY
TestParameter, Measurement.PostOutput.Value, START
TestParameter, Measurement.PostOutput.Retention, OFF
TestParameter, Measurement.Bias.Source, 0, V2
TestParameter, Measurement.Bias.Compliance, 0.01, I1Limit
TestParameter, Measurement.Monitor.Unit, SMU:=Port1, SMU:=Port2
TestParameter, Measurement.Monitor.Adc, HR ADC, HR ADC
TestParameter, Measurement.Monitor.Measurement, Compliance Side, Compliance Side
TestParameter, Measurement.Monitor.RangingMode, LIMITED, LIMITED
TestParameter, Measurement.Monitor.RangeBoundary, Port1MinRng, 1nA
TestParameter, Measurement.Monitor.RangeRating, BY FULL RANGE, BY FULL RANGE
TestParameter, Measurement.Monitor.RangeRatingCoeff, 50, 50
TestParameter, Measurement.Timing.Hold, HoldTime
TestParameter, Measurement.Timing.Delay, DelayTime
TestParameter, Measurement.Adc.HighSpeed.Mode, AUTO
TestParameter, Measurement.Adc.HighSpeed.Coeff, 1
TestParameter, Measurement.Adc.HighResolution.AutoZero, ON
TestParameter, Measurement.Adc.HighResolution.Mode, IntegMode
TestParameter, Measurement.Adc.HighResolution.Coeff, AdcFactor
TestParameter, Measurement.WaitTime.Source.Coeff, 1
TestParameter, Measurement.WaitTime.Source.Offset, 0
TestParameter, Measurement.WaitTime.Monitor.Coeff, 1
TestParameter, Measurement.WaitTime.Monitor.Offset, 0
TestParameter, Function.User.Name, R, Rsheet
TestParameter, Function.User.Unit, ohm, ohm/sheet
TestParameter, Function.User.Definition, V1/I1, R*W/L
TestParameter, Output.Graph.Enabled, true
TestParameter, Output.Graph.AutoScaling, false
TestParameter, Output.Graph.XAxis.Data, V1
TestParameter, Output.Graph.XAxis.Scale, Linear
TestParameter, Output.Graph.XAxis.Left, V1Start
TestParameter, Output.Graph.XAxis.Right, V1Stop
TestParameter, Output.Graph.XAxis.RunTimeAutoScale, false
TestParameter, Output.Graph.YAxis.Data, R, I1
TestParameter, Output.Graph.YAxis.Scale, Linear, Linear
TestParameter, Output.Graph.YAxis.Bottom, 0, 0
TestParameter, Output.Graph.YAxis.Top, V1Stop/I1Limit, I1Limit
TestParameter, Output.Graph.YAxis.Group, , 
TestParameter, Output.Graph.YAxis.RunTimeAutoScale, false, false
TestParameter, Output.List.Data, V1, I1, R, Rsheet
TestParameter, AutoAnalysis.Interpolation, false
TestParameter, AutoAnalysis.Line1.Enabled, false
TestParameter, AutoAnalysis.Line1.Type, 1
TestParameter, AutoAnalysis.Line1.Fix, False
TestParameter, AutoAnalysis.Line1.YAxis, 0
TestParameter, AutoAnalysis.Line1.Point1.Type, 0
TestParameter, AutoAnalysis.Line1.Point1.XY.X, 
TestParameter, AutoAnalysis.Line1.Point1.XY.Y, 
TestParameter, AutoAnalysis.Line1.Point1.Data.Var, 
TestParameter, AutoAnalysis.Line1.Point1.Data.Condition, 
TestParameter, AutoAnalysis.Line1.Point1.Data.Start, false
TestParameter, AutoAnalysis.Line1.Point1.Data.StartVar, 
TestParameter, AutoAnalysis.Line1.Point1.Data.StartCondition, 
TestParameter, AutoAnalysis.Line1.Point2.Type, 0
TestParameter, AutoAnalysis.Line1.Point2.XY.X, 
TestParameter, AutoAnalysis.Line1.Point2.XY.Y, 
TestParameter, AutoAnalysis.Line1.Point2.Data.Var, 
TestParameter, AutoAnalysis.Line1.Point2.Data.Condition, 
TestParameter, AutoAnalysis.Line1.Point2.Data.Start, false
TestParameter, AutoAnalysis.Line1.Point2.Data.StartVar, 
TestParameter, AutoAnalysis.Line1.Point2.Data.StartCondition, 
TestParameter, AutoAnalysis.Line1.GradientExpr, 0
TestParameter, AutoAnalysis.Line2.Enabled, false
TestParameter, AutoAnalysis.Line2.Type, 1
TestParameter, AutoAnalysis.Line2.Fix, False
TestParameter, AutoAnalysis.Line2.YAxis, 0
TestParameter, AutoAnalysis.Line2.Point1.Type, 0
TestParameter, AutoAnalysis.Line2.Point1.XY.X, 
TestParameter, AutoAnalysis.Line2.Point1.XY.Y, 
TestParameter, AutoAnalysis.Line2.Point1.Data.Var, 
TestParameter, AutoAnalysis.Line2.Point1.Data.Condition, 
TestParameter, AutoAnalysis.Line2.Point1.Data.Start, false
TestParameter, AutoAnalysis.Line2.Point1.Data.StartVar, 
TestParameter, AutoAnalysis.Line2.Point1.Data.StartCondition, 
TestParameter, AutoAnalysis.Line2.Point2.Type, 0
TestParameter, AutoAnalysis.Line2.Point2.XY.X, 
TestParameter, AutoAnalysis.Line2.Point2.XY.Y, 
TestParameter, AutoAnalysis.Line2.Point2.Data.Var, 
TestParameter, AutoAnalysis.Line2.Point2.Data.Condition, 
TestParameter, AutoAnalysis.Line2.Point2.Data.Start, false
TestParameter, AutoAnalysis.Line2.Point2.Data.StartVar, 
TestParameter, AutoAnalysis.Line2.Point2.Data.StartCondition, 
TestParameter, AutoAnalysis.Line2.GradientExpr, 0
TestParameter, AutoAnalysis.Marker.Enabled, false
TestParameter, AutoAnalysis.Marker.Data.Var, 
TestParameter, AutoAnalysis.Marker.Data.Condition, 
TestParameter, AutoAnalysis.Marker.Data.Start, false
TestParameter, AutoAnalysis.Marker.Data.StartVar, 
TestParameter, AutoAnalysis.Marker.Data.StartCondition, 
MetaData, TestRecord.EntryPoint, false
MetaData, TestRecord.RecordTime, 03/04/2023 16:54:45
MetaData, TestRecord.TestTarget, 
MetaData, TestRecord.IterationIndex, 80
MetaData, TestRecord.Preservation, true
MetaData, TestRecord.Flag, 
MetaData, TestRecord.Remarks, 
MetaData, TestRecord.LinkKey, 9fd26546-f775-4302-af4d-301edf8bd644
Dimension1, 21, 21, 21, 21
Dimension2, 1, 1, 1, 1
DataName, V1, I1, R, Rsheet
DataValue, 0, -1.1423000000000001E-11, -0, -0
DataValue, 0.05, 2.60765E-08, 1917435.2386248156, 191743.52386248153
DataValue, 0.1, 5.2118199999999995E-08, 1918715.5350722016, 191871.55350722015
DataValue, 0.15, 7.8201099999999992E-08, 1918131.5863843348, 191813.15863843347
DataValue, 0.2, 1.0422299999999999E-07, 1918962.2252285967, 191896.22252285967
DataValue, 0.25, 1.3029E-07, 1918796.5308158721, 191879.6530815872
DataValue, 0.3, 1.56314E-07, 1919213.8899906597, 191921.38899906594
DataValue, 0.35000000000000003, 1.82386E-07, 1919006.9413222508, 191900.69413222504
DataValue, 0.4, 2.0841E-07, 1919293.69991843, 191929.36999184298
DataValue, 0.45, 2.3442699999999999E-07, 1919574.110490686, 191957.41104906859
DataValue, 0.5, 2.60468E-07, 1919621.6041893822, 191962.16041893821
DataValue, 0.55, 2.86485E-07, 1919821.2820915582, 191982.12820915581
DataValue, 0.6, 3.12497E-07, 1920018.4321769488, 192001.84321769484
DataValue, 0.65, 3.38528E-07, 1920077.5120521789, 192007.75120521785
DataValue, 0.70000000000000007, 3.64555E-07, 1920149.2230253324, 192014.9223025332
DataValue, 0.75, 3.90545E-07, 1920393.296547133, 192039.32965471328
DataValue, 0.8, 4.16572E-07, 1920436.323132616, 192043.63231326157
DataValue, 0.85000000000000009, 4.42551E-07, 1920682.5879955082, 192068.25879955079
DataValue, 0.9, 4.68587E-07, 1920667.8802442236, 192066.78802442233
DataValue, 0.95000000000000007, 4.94593E-07, 1920771.2199727858, 192077.12199727856
DataValue, 1, 5.20578E-07, 1920941.7224700239, 192094.17224700237