
SetupTitle, R-V
ApplicationTest, R-V, Public
TestParameter, Name, Port1, Port2, V1Start, V1Stop, V1Step, V2, I1Limit, IntegTime, HoldTime, DelayTime, Port1MinRng
TestParameter, Value, SMU1:MP	MPSMU, SMU2:MP	MPSMU, 0, 1, 0.05, 0, 0.01, MEDIUM, 0, 0, 1nA
DutParameter, Name, L, W, Temp
DutParameter, Value, 1E-05, 1E-06, 25
MetaData, TestRecord.EntryPoint, true
MetaData, TestRecord.RecordTime, 03/04/2023 16:18:00
MetaData, TestRecord.TestTarget, 
MetaData, TestRecord.IterationIndex, 32
MetaData, TestRecord.Preservation, true
MetaData, TestRecord.Flag, 
MetaData, TestRecord.Remarks, 
MetaData, TestRecord.LinkKey, ef2b11b1-18a7-4bc9-92c2-e0a4c6bf75e1
Dimension1, 21, 21, 21, 21
Dimension2, 1, 1, 1, 1
DataName, V1, I1, R, Rsheet
DataValue, 0, 2.1600000000000001E-13, 0, 0
DataValue, 0.05, 8.24E-13, 60679611650.485435, 6067961165.048543
DataValue, 0.1, 6.77E-13, 147710487444.60855, 14771048744.460852
DataValue, 0.15, 1.53E-13, 980392156862.745, 98039215686.27449
DataValue, 0.2, 9.000000000000001E-13, 222222222222.2222, 22222222222.222218
DataValue, 0.25, 2.2900000000000003E-13, 1091703056768.5588, 109170305676.85587
DataValue, 0.3, 4.45E-13, 674157303370.7865, 67415730337.078644
DataValue, 0.35000000000000003, -6.2500000000000006E-13, -560000000000, -55999999999.999992
DataValue, 0.4, 3.2000000000000005E-13, 1249999999999.9998, 124999999999.99997
DataValue, 0.45, -4.5000000000000004E-14, -10000000000000, -999999999999.99988
DataValue, 0.5, 7.1500000000000008E-13, 699300699300.69922, 69930069930.069916
DataValue, 0.55, 6.880000000000001E-13, 799418604651.16272, 79941860465.116257
DataValue, 0.6, 4.94E-13, 1214574898785.4251, 121457489878.54248
DataValue, 0.65, 5.13E-13, 1267056530214.4248, 126705653021.44246
DataValue, 0.70000000000000007, 6.39E-13, 1095461658841.9407, 109546165884.19405
DataValue, 0.75, 5.39E-13, 1391465677179.9629, 139146567717.99628
DataValue, 0.8, 5.8E-14, 13793103448275.861, 1379310344827.5859
DataValue, 0.85000000000000009, 5.4700000000000009E-13, 1553930530164.5337, 155393053016.45334
DataValue, 0.9, 5.2600000000000008E-13, 1711026615969.5815, 171102661596.95813
DataValue, 0.95000000000000007, 1.893E-12, 501848917062.86316, 50184891706.286308
DataValue, 1, 5.9800000000000008E-13, 1672240802675.585, 167224080267.55847
SetupTitle, R-V
PrimitiveTest, I/V Sweep
TestParameter, Context.MainFrame, B1500A
TestParameter, Channel.UnitType, SMU, SMU
TestParameter, Channel.Unit, Port1, Port2
TestParameter, Channel.IName, I1, I2
TestParameter, Channel.VName, V1, V2
TestParameter, Channel.Mode, V, V
TestParameter, Channel.Func, VAR1, CONST
TestParameter, Channel.Index, 
TestParameter, Channel.Time, 
TestParameter, Measurement.Port.Unit, Port1, Port2
TestParameter, Measurement.Port.SeriesResistor, NONE, NONE
TestParameter, Measurement.Port.Filter, OFF, OFF
TestParameter, Measurement.Port.OutputVoltageComparison, 0, 0
TestParameter, Measurement.Primary.Locus, Single
TestParameter, Measurement.Primary.Scale, LINEAR
TestParameter, Measurement.Primary.Start, V1Start
TestParameter, Measurement.Primary.Stop, V1Stop
TestParameter, Measurement.Primary.Step, V1Step
TestParameter, Measurement.Primary.Compliance, I1Limit
TestParameter, Measurement.Primary.PowerCompliance, 0
TestParameter, Measurement.Aborting.Condition, CONTINUE AT ANY
TestParameter, Measurement.PostOutput.Value, START
TestParameter, Measurement.PostOutput.Retention, OFF
TestParameter, Measurement.Bias.Source, 0, V2
TestParameter, Measurement.Bias.Compliance, 0.01, I1Limit
TestParameter, Measurement.Monitor.Unit, SMU:=Port1, SMU:=Port2
TestParameter, Measurement.Monitor.Adc, HR ADC, HR ADC
TestParameter, Measurement.Monitor.Measurement, Compliance Side, Compliance Side
TestParameter, Measurement.Monitor.RangingMode, LIMITED, LIMITED
TestParameter, Measurement.Monitor.RangeBoundary, Port1MinRng, 1nA
TestParameter, Measurement.Monitor.RangeRating, BY FULL RANGE, BY FULL RANGE
TestParameter, Measurement.Monitor.RangeRatingCoeff, 50, 50
TestParameter, Measurement.Timing.Hold, HoldTime
TestParameter, Measurement.Timing.Delay, DelayTime
TestParameter, Measurement.Adc.HighSpeed.Mode, AUTO
TestParameter, Measurement.Adc.HighSpeed.Coeff, 1
TestParameter, Measurement.Adc.HighResolution.AutoZero, ON
TestParameter, Measurement.Adc.HighResolution.Mode, IntegMode
TestParameter, Measurement.Adc.HighResolution.Coeff, AdcFactor
TestParameter, Measurement.WaitTime.Source.Coeff, 1
TestParameter, Measurement.WaitTime.Source.Offset, 0
TestParameter, Measurement.WaitTime.Monitor.Coeff, 1
TestParameter, Measurement.WaitTime.Monitor.Offset, 0
TestParameter, Function.User.Name, R, Rsheet
TestParameter, Function.User.Unit, ohm, ohm/sheet
TestParameter, Function.User.Definition, V1/I1, R*W/L
TestParameter, Output.Graph.Enabled, true
TestParameter, Output.Graph.AutoScaling, false
TestParameter, Output.Graph.XAxis.Data, V1
TestParameter, Output.Graph.XAxis.Scale, Linear
TestParameter, Output.Graph.XAxis.Left, V1Start
TestParameter, Output.Graph.XAxis.Right, V1Stop
TestParameter, Output.Graph.XAxis.RunTimeAutoScale, false
TestParameter, Output.Graph.YAxis.Data, R, I1
TestParameter, Output.Graph.YAxis.Scale, Linear, Linear
TestParameter, Output.Graph.YAxis.Bottom, 0, 0
TestParameter, Output.Graph.YAxis.Top, V1Stop/I1Limit, I1Limit
TestParameter, Output.Graph.YAxis.Group, , 
TestParameter, Output.Graph.YAxis.RunTimeAutoScale, false, false
TestParameter, Output.List.Data, V1, I1, R, Rsheet
TestParameter, AutoAnalysis.Interpolation, false
TestParameter, AutoAnalysis.Line1.Enabled, false
TestParameter, AutoAnalysis.Line1.Type, 1
TestParameter, AutoAnalysis.Line1.Fix, False
TestParameter, AutoAnalysis.Line1.YAxis, 0
TestParameter, AutoAnalysis.Line1.Point1.Type, 0
TestParameter, AutoAnalysis.Line1.Point1.XY.X, 
TestParameter, AutoAnalysis.Line1.Point1.XY.Y, 
TestParameter, AutoAnalysis.Line1.Point1.Data.Var, 
TestParameter, AutoAnalysis.Line1.Point1.Data.Condition, 
TestParameter, AutoAnalysis.Line1.Point1.Data.Start, false
TestParameter, AutoAnalysis.Line1.Point1.Data.StartVar, 
TestParameter, AutoAnalysis.Line1.Point1.Data.StartCondition, 
TestParameter, AutoAnalysis.Line1.Point2.Type, 0
TestParameter, AutoAnalysis.Line1.Point2.XY.X, 
TestParameter, AutoAnalysis.Line1.Point2.XY.Y, 
TestParameter, AutoAnalysis.Line1.Point2.Data.Var, 
TestParameter, AutoAnalysis.Line1.Point2.Data.Condition, 
TestParameter, AutoAnalysis.Line1.Point2.Data.Start, false
TestParameter, AutoAnalysis.Line1.Point2.Data.StartVar, 
TestParameter, AutoAnalysis.Line1.Point2.Data.StartCondition, 
TestParameter, AutoAnalysis.Line1.GradientExpr, 0
TestParameter, AutoAnalysis.Line2.Enabled, false
TestParameter, AutoAnalysis.Line2.Type, 1
TestParameter, AutoAnalysis.Line2.Fix, False
TestParameter, AutoAnalysis.Line2.YAxis, 0
TestParameter, AutoAnalysis.Line2.Point1.Type, 0
TestParameter, AutoAnalysis.Line2.Point1.XY.X, 
TestParameter, AutoAnalysis.Line2.Point1.XY.Y, 
TestParameter, AutoAnalysis.Line2.Point1.Data.Var, 
TestParameter, AutoAnalysis.Line2.Point1.Data.Condition, 
TestParameter, AutoAnalysis.Line2.Point1.Data.Start, false
TestParameter, AutoAnalysis.Line2.Point1.Data.StartVar, 
TestParameter, AutoAnalysis.Line2.Point1.Data.StartCondition, 
TestParameter, AutoAnalysis.Line2.Point2.Type, 0
TestParameter, AutoAnalysis.Line2.Point2.XY.X, 
TestParameter, AutoAnalysis.Line2.Point2.XY.Y, 
TestParameter, AutoAnalysis.Line2.Point2.Data.Var, 
TestParameter, AutoAnalysis.Line2.Point2.Data.Condition, 
TestParameter, AutoAnalysis.Line2.Point2.Data.Start, false
TestParameter, AutoAnalysis.Line2.Point2.Data.StartVar, 
TestParameter, AutoAnalysis.Line2.Point2.Data.StartCondition, 
TestParameter, AutoAnalysis.Line2.GradientExpr, 0
TestParameter, AutoAnalysis.Marker.Enabled, false
TestParameter, AutoAnalysis.Marker.Data.Var, 
TestParameter, AutoAnalysis.Marker.Data.Condition, 
TestParameter, AutoAnalysis.Marker.Data.Start, false
TestParameter, AutoAnalysis.Marker.Data.StartVar, 
TestParameter, AutoAnalysis.Marker.Data.StartCondition, 
MetaData, TestRecord.EntryPoint, false
MetaData, TestRecord.RecordTime, 03/04/2023 16:17:59
MetaData, TestRecord.TestTarget, 
MetaData, TestRecord.IterationIndex, 32
MetaData, TestRecord.Preservation, true
MetaData, TestRecord.Flag, 
MetaData, TestRecord.Remarks, 
MetaData, TestRecord.LinkKey, ef2b11b1-18a7-4bc9-92c2-e0a4c6bf75e1
Dimension1, 21, 21, 21, 21
Dimension2, 1, 1, 1, 1
DataName, V1, I1, R, Rsheet
DataValue, 0, 2.1600000000000001E-13, 0, 0
DataValue, 0.05, 8.24E-13, 60679611650.485435, 6067961165.048543
DataValue, 0.1, 6.77E-13, 147710487444.60855, 14771048744.460852
DataValue, 0.15, 1.53E-13, 980392156862.745, 98039215686.27449
DataValue, 0.2, 9.000000000000001E-13, 222222222222.2222, 22222222222.222218
DataValue, 0.25, 2.2900000000000003E-13, 1091703056768.5588, 109170305676.85587
DataValue, 0.3, 4.45E-13, 674157303370.7865, 67415730337.078644
DataValue, 0.35000000000000003, -6.2500000000000006E-13, -560000000000, -55999999999.999992
DataValue, 0.4, 3.2000000000000005E-13, 1249999999999.9998, 124999999999.99997
DataValue, 0.45, -4.5000000000000004E-14, -10000000000000, -999999999999.99988
DataValue, 0.5, 7.1500000000000008E-13, 699300699300.69922, 69930069930.069916
DataValue, 0.55, 6.880000000000001E-13, 799418604651.16272, 79941860465.116257
DataValue, 0.6, 4.94E-13, 1214574898785.4251, 121457489878.54248
DataValue, 0.65, 5.13E-13, 1267056530214.4248, 126705653021.44246
DataValue, 0.70000000000000007, 6.39E-13, 1095461658841.9407, 109546165884.19405
DataValue, 0.75, 5.39E-13, 1391465677179.9629, 139146567717.99628
DataValue, 0.8, 5.8E-14, 13793103448275.861, 1379310344827.5859
DataValue, 0.85000000000000009, 5.4700000000000009E-13, 1553930530164.5337, 155393053016.45334
DataValue, 0.9, 5.2600000000000008E-13, 1711026615969.5815, 171102661596.95813
DataValue, 0.95000000000000007, 1.893E-12, 501848917062.86316, 50184891706.286308
DataValue, 1, 5.9800000000000008E-13, 1672240802675.585, 167224080267.55847