
SetupTitle, R-V
ApplicationTest, R-V, Public
TestParameter, Name, Port1, Port2, V1Start, V1Stop, V1Step, V2, I1Limit, IntegTime, HoldTime, DelayTime, Port1MinRng
TestParameter, Value, SMU1:MP	MPSMU, SMU2:MP	MPSMU, 0, 1, 0.05, 0, 0.01, MEDIUM, 0, 0, 1nA
DutParameter, Name, L, W, Temp
DutParameter, Value, 1E-05, 1E-06, 25
MetaData, TestRecord.EntryPoint, true
MetaData, TestRecord.RecordTime, 03/04/2023 14:51:48
MetaData, TestRecord.TestTarget, 
MetaData, TestRecord.IterationIndex, 40
MetaData, TestRecord.Preservation, true
MetaData, TestRecord.Flag, 
MetaData, TestRecord.Remarks, 
MetaData, TestRecord.LinkKey, 644b6b73-6d0f-4059-86e5-01b648387df2
Dimension1, 21, 21, 21, 21
Dimension2, 1, 1, 1, 1
DataName, V1, I1, R, Rsheet
DataValue, 0, 1E-13, 0, 0
DataValue, 0.05, 2.0200000000000002E-13, 247524752475.2475, 24752475247.524746
DataValue, 0.1, 2.73E-13, 366300366300.36633, 36630036630.036629
DataValue, 0.15, 5.5400000000000006E-13, 270758122743.68228, 27075812274.368229
DataValue, 0.2, 2.06E-13, 970873786407.767, 97087378640.776688
DataValue, 0.25, 2.8900000000000003E-13, 865051903114.18677, 86505190311.418671
DataValue, 0.3, 4.0700000000000003E-13, 737100737100.737, 73710073710.0737
DataValue, 0.35000000000000003, 3.52E-13, 994318181818.18188, 99431818181.818176
DataValue, 0.4, 1.23E-13, 3252032520325.2031, 325203252032.52026
DataValue, 0.45, 6.05E-13, 743801652892.56189, 74380165289.25618
DataValue, 0.5, 4.1E-13, 1219512195121.9512, 121951219512.19511
DataValue, 0.55, 5.34E-13, 1029962546816.4794, 102996254681.64792
DataValue, 0.6, 5.3100000000000006E-13, 1129943502824.8586, 112994350282.48584
DataValue, 0.65, 7.55E-13, 860927152317.88086, 86092715231.788071
DataValue, 0.70000000000000007, 5.0700000000000006E-13, 1380670611439.8423, 138067061143.98422
DataValue, 0.75, 3.7200000000000003E-13, 2016129032258.0645, 201612903225.8064
DataValue, 0.8, 3.27E-13, 2446483180428.1348, 244648318042.81345
DataValue, 0.85000000000000009, 5.2E-13, 1634615384615.3848, 163461538461.53845
DataValue, 0.9, 1.71E-13, 5263157894736.8418, 526315789473.68408
DataValue, 0.95000000000000007, 5.15E-13, 1844660194174.7573, 184466019417.47571
DataValue, 1, 3.1200000000000003E-13, 3205128205128.2046, 320512820512.82043
SetupTitle, R-V
PrimitiveTest, I/V Sweep
TestParameter, Context.MainFrame, B1500A
TestParameter, Channel.UnitType, SMU, SMU
TestParameter, Channel.Unit, Port1, Port2
TestParameter, Channel.IName, I1, I2
TestParameter, Channel.VName, V1, V2
TestParameter, Channel.Mode, V, V
TestParameter, Channel.Func, VAR1, CONST
TestParameter, Channel.Index, 
TestParameter, Channel.Time, 
TestParameter, Measurement.Port.Unit, Port1, Port2
TestParameter, Measurement.Port.SeriesResistor, NONE, NONE
TestParameter, Measurement.Port.Filter, OFF, OFF
TestParameter, Measurement.Port.OutputVoltageComparison, 0, 0
TestParameter, Measurement.Primary.Locus, Single
TestParameter, Measurement.Primary.Scale, LINEAR
TestParameter, Measurement.Primary.Start, V1Start
TestParameter, Measurement.Primary.Stop, V1Stop
TestParameter, Measurement.Primary.Step, V1Step
TestParameter, Measurement.Primary.Compliance, I1Limit
TestParameter, Measurement.Primary.PowerCompliance, 0
TestParameter, Measurement.Aborting.Condition, CONTINUE AT ANY
TestParameter, Measurement.PostOutput.Value, START
TestParameter, Measurement.PostOutput.Retention, OFF
TestParameter, Measurement.Bias.Source, 0, V2
TestParameter, Measurement.Bias.Compliance, 0.01, I1Limit
TestParameter, Measurement.Monitor.Unit, SMU:=Port1, SMU:=Port2
TestParameter, Measurement.Monitor.Adc, HR ADC, HR ADC
TestParameter, Measurement.Monitor.Measurement, Compliance Side, Compliance Side
TestParameter, Measurement.Monitor.RangingMode, LIMITED, LIMITED
TestParameter, Measurement.Monitor.RangeBoundary, Port1MinRng, 1nA
TestParameter, Measurement.Monitor.RangeRating, BY FULL RANGE, BY FULL RANGE
TestParameter, Measurement.Monitor.RangeRatingCoeff, 50, 50
TestParameter, Measurement.Timing.Hold, HoldTime
TestParameter, Measurement.Timing.Delay, DelayTime
TestParameter, Measurement.Adc.HighSpeed.Mode, AUTO
TestParameter, Measurement.Adc.HighSpeed.Coeff, 1
TestParameter, Measurement.Adc.HighResolution.AutoZero, ON
TestParameter, Measurement.Adc.HighResolution.Mode, IntegMode
TestParameter, Measurement.Adc.HighResolution.Coeff, AdcFactor
TestParameter, Measurement.WaitTime.Source.Coeff, 1
TestParameter, Measurement.WaitTime.Source.Offset, 0
TestParameter, Measurement.WaitTime.Monitor.Coeff, 1
TestParameter, Measurement.WaitTime.Monitor.Offset, 0
TestParameter, Function.User.Name, R, Rsheet
TestParameter, Function.User.Unit, ohm, ohm/sheet
TestParameter, Function.User.Definition, V1/I1, R*W/L
TestParameter, Output.Graph.Enabled, true
TestParameter, Output.Graph.AutoScaling, false
TestParameter, Output.Graph.XAxis.Data, V1
TestParameter, Output.Graph.XAxis.Scale, Linear
TestParameter, Output.Graph.XAxis.Left, V1Start
TestParameter, Output.Graph.XAxis.Right, V1Stop
TestParameter, Output.Graph.XAxis.RunTimeAutoScale, false
TestParameter, Output.Graph.YAxis.Data, R, I1
TestParameter, Output.Graph.YAxis.Scale, Linear, Linear
TestParameter, Output.Graph.YAxis.Bottom, 0, 0
TestParameter, Output.Graph.YAxis.Top, V1Stop/I1Limit, I1Limit
TestParameter, Output.Graph.YAxis.Group, , 
TestParameter, Output.Graph.YAxis.RunTimeAutoScale, false, false
TestParameter, Output.List.Data, V1, I1, R, Rsheet
TestParameter, AutoAnalysis.Interpolation, false
TestParameter, AutoAnalysis.Line1.Enabled, false
TestParameter, AutoAnalysis.Line1.Type, 1
TestParameter, AutoAnalysis.Line1.Fix, False
TestParameter, AutoAnalysis.Line1.YAxis, 0
TestParameter, AutoAnalysis.Line1.Point1.Type, 0
TestParameter, AutoAnalysis.Line1.Point1.XY.X, 
TestParameter, AutoAnalysis.Line1.Point1.XY.Y, 
TestParameter, AutoAnalysis.Line1.Point1.Data.Var, 
TestParameter, AutoAnalysis.Line1.Point1.Data.Condition, 
TestParameter, AutoAnalysis.Line1.Point1.Data.Start, false
TestParameter, AutoAnalysis.Line1.Point1.Data.StartVar, 
TestParameter, AutoAnalysis.Line1.Point1.Data.StartCondition, 
TestParameter, AutoAnalysis.Line1.Point2.Type, 0
TestParameter, AutoAnalysis.Line1.Point2.XY.X, 
TestParameter, AutoAnalysis.Line1.Point2.XY.Y, 
TestParameter, AutoAnalysis.Line1.Point2.Data.Var, 
TestParameter, AutoAnalysis.Line1.Point2.Data.Condition, 
TestParameter, AutoAnalysis.Line1.Point2.Data.Start, false
TestParameter, AutoAnalysis.Line1.Point2.Data.StartVar, 
TestParameter, AutoAnalysis.Line1.Point2.Data.StartCondition, 
TestParameter, AutoAnalysis.Line1.GradientExpr, 0
TestParameter, AutoAnalysis.Line2.Enabled, false
TestParameter, AutoAnalysis.Line2.Type, 1
TestParameter, AutoAnalysis.Line2.Fix, False
TestParameter, AutoAnalysis.Line2.YAxis, 0
TestParameter, AutoAnalysis.Line2.Point1.Type, 0
TestParameter, AutoAnalysis.Line2.Point1.XY.X, 
TestParameter, AutoAnalysis.Line2.Point1.XY.Y, 
TestParameter, AutoAnalysis.Line2.Point1.Data.Var, 
TestParameter, AutoAnalysis.Line2.Point1.Data.Condition, 
TestParameter, AutoAnalysis.Line2.Point1.Data.Start, false
TestParameter, AutoAnalysis.Line2.Point1.Data.StartVar, 
TestParameter, AutoAnalysis.Line2.Point1.Data.StartCondition, 
TestParameter, AutoAnalysis.Line2.Point2.Type, 0
TestParameter, AutoAnalysis.Line2.Point2.XY.X, 
TestParameter, AutoAnalysis.Line2.Point2.XY.Y, 
TestParameter, AutoAnalysis.Line2.Point2.Data.Var, 
TestParameter, AutoAnalysis.Line2.Point2.Data.Condition, 
TestParameter, AutoAnalysis.Line2.Point2.Data.Start, false
TestParameter, AutoAnalysis.Line2.Point2.Data.StartVar, 
TestParameter, AutoAnalysis.Line2.Point2.Data.StartCondition, 
TestParameter, AutoAnalysis.Line2.GradientExpr, 0
TestParameter, AutoAnalysis.Marker.Enabled, false
TestParameter, AutoAnalysis.Marker.Data.Var, 
TestParameter, AutoAnalysis.Marker.Data.Condition, 
TestParameter, AutoAnalysis.Marker.Data.Start, false
TestParameter, AutoAnalysis.Marker.Data.StartVar, 
TestParameter, AutoAnalysis.Marker.Data.StartCondition, 
MetaData, TestRecord.EntryPoint, false
MetaData, TestRecord.RecordTime, 03/04/2023 14:51:48
MetaData, TestRecord.TestTarget, 
MetaData, TestRecord.IterationIndex, 40
MetaData, TestRecord.Preservation, true
MetaData, TestRecord.Flag, 
MetaData, TestRecord.Remarks, 
MetaData, TestRecord.LinkKey, 644b6b73-6d0f-4059-86e5-01b648387df2
Dimension1, 21, 21, 21, 21
Dimension2, 1, 1, 1, 1
DataName, V1, I1, R, Rsheet
DataValue, 0, 1E-13, 0, 0
DataValue, 0.05, 2.0200000000000002E-13, 247524752475.2475, 24752475247.524746
DataValue, 0.1, 2.73E-13, 366300366300.36633, 36630036630.036629
DataValue, 0.15, 5.5400000000000006E-13, 270758122743.68228, 27075812274.368229
DataValue, 0.2, 2.06E-13, 970873786407.767, 97087378640.776688
DataValue, 0.25, 2.8900000000000003E-13, 865051903114.18677, 86505190311.418671
DataValue, 0.3, 4.0700000000000003E-13, 737100737100.737, 73710073710.0737
DataValue, 0.35000000000000003, 3.52E-13, 994318181818.18188, 99431818181.818176
DataValue, 0.4, 1.23E-13, 3252032520325.2031, 325203252032.52026
DataValue, 0.45, 6.05E-13, 743801652892.56189, 74380165289.25618
DataValue, 0.5, 4.1E-13, 1219512195121.9512, 121951219512.19511
DataValue, 0.55, 5.34E-13, 1029962546816.4794, 102996254681.64792
DataValue, 0.6, 5.3100000000000006E-13, 1129943502824.8586, 112994350282.48584
DataValue, 0.65, 7.55E-13, 860927152317.88086, 86092715231.788071
DataValue, 0.70000000000000007, 5.0700000000000006E-13, 1380670611439.8423, 138067061143.98422
DataValue, 0.75, 3.7200000000000003E-13, 2016129032258.0645, 201612903225.8064
DataValue, 0.8, 3.27E-13, 2446483180428.1348, 244648318042.81345
DataValue, 0.85000000000000009, 5.2E-13, 1634615384615.3848, 163461538461.53845
DataValue, 0.9, 1.71E-13, 5263157894736.8418, 526315789473.68408
DataValue, 0.95000000000000007, 5.15E-13, 1844660194174.7573, 184466019417.47571
DataValue, 1, 3.1200000000000003E-13, 3205128205128.2046, 320512820512.82043