
SetupTitle, R-V
ApplicationTest, R-V, Public
TestParameter, Name, Port1, Port2, V1Start, V1Stop, V1Step, V2, I1Limit, IntegTime, HoldTime, DelayTime, Port1MinRng
TestParameter, Value, SMU1:MP	MPSMU, SMU2:MP	MPSMU, 0, 1, 0.05, 0, 0.01, MEDIUM, 0, 0, 1nA
DutParameter, Name, L, W, Temp
DutParameter, Value, 1E-05, 1E-06, 25
MetaData, TestRecord.EntryPoint, true
MetaData, TestRecord.RecordTime, 03/04/2023 14:48:41
MetaData, TestRecord.TestTarget, 
MetaData, TestRecord.IterationIndex, 35
MetaData, TestRecord.Preservation, true
MetaData, TestRecord.Flag, 
MetaData, TestRecord.Remarks, 
MetaData, TestRecord.LinkKey, bd856194-e759-4e08-bdee-32ab4dd66260
Dimension1, 21, 21, 21, 21
Dimension2, 1, 1, 1, 1
DataName, V1, I1, R, Rsheet
DataValue, 0, -3.0000000000000002E-15, -0, -0
DataValue, 0.05, 6.5E-14, 769230769230.76929, 76923076923.07692
DataValue, 0.1, 1.0700000000000001E-13, 934579439252.33643, 93457943925.233627
DataValue, 0.15, 4.1E-14, 3658536585365.8535, 365853658536.58533
DataValue, 0.2, 1.6000000000000003E-13, 1249999999999.9998, 124999999999.99997
DataValue, 0.25, 1.59E-13, 1572327044025.1572, 157232704402.51569
DataValue, 0.3, 1.3E-13, 2307692307692.3076, 230769230769.23074
DataValue, 0.35000000000000003, 1.16E-13, 3017241379310.3447, 301724137931.03448
DataValue, 0.4, 1.47E-13, 2721088435374.15, 272108843537.41495
DataValue, 0.45, 1.16E-13, 3879310344827.5859, 387931034482.75854
DataValue, 0.5, 2.11E-13, 2369668246445.4976, 236966824644.54974
DataValue, 0.55, 1.3E-13, 4230769230769.231, 423076923076.92303
DataValue, 0.6, 2.48E-13, 2419354838709.6772, 241935483870.96768
DataValue, 0.65, 1.81E-13, 3591160220994.4751, 359116022099.44745
DataValue, 0.70000000000000007, 7.3E-14, 9589041095890.4121, 958904109589.04114
DataValue, 0.75, 2.0300000000000002E-13, 3694581280788.1772, 369458128078.81769
DataValue, 0.8, 3.2000000000000005E-13, 2499999999999.9995, 249999999999.99994
DataValue, 0.85000000000000009, 3.43E-13, 2478134110787.1724, 247813411078.71722
DataValue, 0.9, 2.06E-13, 4368932038834.9517, 436893203883.49512
DataValue, 0.95000000000000007, 1.8000000000000002E-13, 5277777777777.7773, 527777777777.77765
DataValue, 1, 2.5200000000000004E-13, 3968253968253.9678, 396825396825.39673
SetupTitle, R-V
PrimitiveTest, I/V Sweep
TestParameter, Context.MainFrame, B1500A
TestParameter, Channel.UnitType, SMU, SMU
TestParameter, Channel.Unit, Port1, Port2
TestParameter, Channel.IName, I1, I2
TestParameter, Channel.VName, V1, V2
TestParameter, Channel.Mode, V, V
TestParameter, Channel.Func, VAR1, CONST
TestParameter, Channel.Index, 
TestParameter, Channel.Time, 
TestParameter, Measurement.Port.Unit, Port1, Port2
TestParameter, Measurement.Port.SeriesResistor, NONE, NONE
TestParameter, Measurement.Port.Filter, OFF, OFF
TestParameter, Measurement.Port.OutputVoltageComparison, 0, 0
TestParameter, Measurement.Primary.Locus, Single
TestParameter, Measurement.Primary.Scale, LINEAR
TestParameter, Measurement.Primary.Start, V1Start
TestParameter, Measurement.Primary.Stop, V1Stop
TestParameter, Measurement.Primary.Step, V1Step
TestParameter, Measurement.Primary.Compliance, I1Limit
TestParameter, Measurement.Primary.PowerCompliance, 0
TestParameter, Measurement.Aborting.Condition, CONTINUE AT ANY
TestParameter, Measurement.PostOutput.Value, START
TestParameter, Measurement.PostOutput.Retention, OFF
TestParameter, Measurement.Bias.Source, 0, V2
TestParameter, Measurement.Bias.Compliance, 0.01, I1Limit
TestParameter, Measurement.Monitor.Unit, SMU:=Port1, SMU:=Port2
TestParameter, Measurement.Monitor.Adc, HR ADC, HR ADC
TestParameter, Measurement.Monitor.Measurement, Compliance Side, Compliance Side
TestParameter, Measurement.Monitor.RangingMode, LIMITED, LIMITED
TestParameter, Measurement.Monitor.RangeBoundary, Port1MinRng, 1nA
TestParameter, Measurement.Monitor.RangeRating, BY FULL RANGE, BY FULL RANGE
TestParameter, Measurement.Monitor.RangeRatingCoeff, 50, 50
TestParameter, Measurement.Timing.Hold, HoldTime
TestParameter, Measurement.Timing.Delay, DelayTime
TestParameter, Measurement.Adc.HighSpeed.Mode, AUTO
TestParameter, Measurement.Adc.HighSpeed.Coeff, 1
TestParameter, Measurement.Adc.HighResolution.AutoZero, ON
TestParameter, Measurement.Adc.HighResolution.Mode, IntegMode
TestParameter, Measurement.Adc.HighResolution.Coeff, AdcFactor
TestParameter, Measurement.WaitTime.Source.Coeff, 1
TestParameter, Measurement.WaitTime.Source.Offset, 0
TestParameter, Measurement.WaitTime.Monitor.Coeff, 1
TestParameter, Measurement.WaitTime.Monitor.Offset, 0
TestParameter, Function.User.Name, R, Rsheet
TestParameter, Function.User.Unit, ohm, ohm/sheet
TestParameter, Function.User.Definition, V1/I1, R*W/L
TestParameter, Output.Graph.Enabled, true
TestParameter, Output.Graph.AutoScaling, false
TestParameter, Output.Graph.XAxis.Data, V1
TestParameter, Output.Graph.XAxis.Scale, Linear
TestParameter, Output.Graph.XAxis.Left, V1Start
TestParameter, Output.Graph.XAxis.Right, V1Stop
TestParameter, Output.Graph.XAxis.RunTimeAutoScale, false
TestParameter, Output.Graph.YAxis.Data, R, I1
TestParameter, Output.Graph.YAxis.Scale, Linear, Linear
TestParameter, Output.Graph.YAxis.Bottom, 0, 0
TestParameter, Output.Graph.YAxis.Top, V1Stop/I1Limit, I1Limit
TestParameter, Output.Graph.YAxis.Group, , 
TestParameter, Output.Graph.YAxis.RunTimeAutoScale, false, false
TestParameter, Output.List.Data, V1, I1, R, Rsheet
TestParameter, AutoAnalysis.Interpolation, false
TestParameter, AutoAnalysis.Line1.Enabled, false
TestParameter, AutoAnalysis.Line1.Type, 1
TestParameter, AutoAnalysis.Line1.Fix, False
TestParameter, AutoAnalysis.Line1.YAxis, 0
TestParameter, AutoAnalysis.Line1.Point1.Type, 0
TestParameter, AutoAnalysis.Line1.Point1.XY.X, 
TestParameter, AutoAnalysis.Line1.Point1.XY.Y, 
TestParameter, AutoAnalysis.Line1.Point1.Data.Var, 
TestParameter, AutoAnalysis.Line1.Point1.Data.Condition, 
TestParameter, AutoAnalysis.Line1.Point1.Data.Start, false
TestParameter, AutoAnalysis.Line1.Point1.Data.StartVar, 
TestParameter, AutoAnalysis.Line1.Point1.Data.StartCondition, 
TestParameter, AutoAnalysis.Line1.Point2.Type, 0
TestParameter, AutoAnalysis.Line1.Point2.XY.X, 
TestParameter, AutoAnalysis.Line1.Point2.XY.Y, 
TestParameter, AutoAnalysis.Line1.Point2.Data.Var, 
TestParameter, AutoAnalysis.Line1.Point2.Data.Condition, 
TestParameter, AutoAnalysis.Line1.Point2.Data.Start, false
TestParameter, AutoAnalysis.Line1.Point2.Data.StartVar, 
TestParameter, AutoAnalysis.Line1.Point2.Data.StartCondition, 
TestParameter, AutoAnalysis.Line1.GradientExpr, 0
TestParameter, AutoAnalysis.Line2.Enabled, false
TestParameter, AutoAnalysis.Line2.Type, 1
TestParameter, AutoAnalysis.Line2.Fix, False
TestParameter, AutoAnalysis.Line2.YAxis, 0
TestParameter, AutoAnalysis.Line2.Point1.Type, 0
TestParameter, AutoAnalysis.Line2.Point1.XY.X, 
TestParameter, AutoAnalysis.Line2.Point1.XY.Y, 
TestParameter, AutoAnalysis.Line2.Point1.Data.Var, 
TestParameter, AutoAnalysis.Line2.Point1.Data.Condition, 
TestParameter, AutoAnalysis.Line2.Point1.Data.Start, false
TestParameter, AutoAnalysis.Line2.Point1.Data.StartVar, 
TestParameter, AutoAnalysis.Line2.Point1.Data.StartCondition, 
TestParameter, AutoAnalysis.Line2.Point2.Type, 0
TestParameter, AutoAnalysis.Line2.Point2.XY.X, 
TestParameter, AutoAnalysis.Line2.Point2.XY.Y, 
TestParameter, AutoAnalysis.Line2.Point2.Data.Var, 
TestParameter, AutoAnalysis.Line2.Point2.Data.Condition, 
TestParameter, AutoAnalysis.Line2.Point2.Data.Start, false
TestParameter, AutoAnalysis.Line2.Point2.Data.StartVar, 
TestParameter, AutoAnalysis.Line2.Point2.Data.StartCondition, 
TestParameter, AutoAnalysis.Line2.GradientExpr, 0
TestParameter, AutoAnalysis.Marker.Enabled, false
TestParameter, AutoAnalysis.Marker.Data.Var, 
TestParameter, AutoAnalysis.Marker.Data.Condition, 
TestParameter, AutoAnalysis.Marker.Data.Start, false
TestParameter, AutoAnalysis.Marker.Data.StartVar, 
TestParameter, AutoAnalysis.Marker.Data.StartCondition, 
MetaData, TestRecord.EntryPoint, false
MetaData, TestRecord.RecordTime, 03/04/2023 14:48:41
MetaData, TestRecord.TestTarget, 
MetaData, TestRecord.IterationIndex, 35
MetaData, TestRecord.Preservation, true
MetaData, TestRecord.Flag, 
MetaData, TestRecord.Remarks, 
MetaData, TestRecord.LinkKey, bd856194-e759-4e08-bdee-32ab4dd66260
Dimension1, 21, 21, 21, 21
Dimension2, 1, 1, 1, 1
DataName, V1, I1, R, Rsheet
DataValue, 0, -3.0000000000000002E-15, -0, -0
DataValue, 0.05, 6.5E-14, 769230769230.76929, 76923076923.07692
DataValue, 0.1, 1.0700000000000001E-13, 934579439252.33643, 93457943925.233627
DataValue, 0.15, 4.1E-14, 3658536585365.8535, 365853658536.58533
DataValue, 0.2, 1.6000000000000003E-13, 1249999999999.9998, 124999999999.99997
DataValue, 0.25, 1.59E-13, 1572327044025.1572, 157232704402.51569
DataValue, 0.3, 1.3E-13, 2307692307692.3076, 230769230769.23074
DataValue, 0.35000000000000003, 1.16E-13, 3017241379310.3447, 301724137931.03448
DataValue, 0.4, 1.47E-13, 2721088435374.15, 272108843537.41495
DataValue, 0.45, 1.16E-13, 3879310344827.5859, 387931034482.75854
DataValue, 0.5, 2.11E-13, 2369668246445.4976, 236966824644.54974
DataValue, 0.55, 1.3E-13, 4230769230769.231, 423076923076.92303
DataValue, 0.6, 2.48E-13, 2419354838709.6772, 241935483870.96768
DataValue, 0.65, 1.81E-13, 3591160220994.4751, 359116022099.44745
DataValue, 0.70000000000000007, 7.3E-14, 9589041095890.4121, 958904109589.04114
DataValue, 0.75, 2.0300000000000002E-13, 3694581280788.1772, 369458128078.81769
DataValue, 0.8, 3.2000000000000005E-13, 2499999999999.9995, 249999999999.99994
DataValue, 0.85000000000000009, 3.43E-13, 2478134110787.1724, 247813411078.71722
DataValue, 0.9, 2.06E-13, 4368932038834.9517, 436893203883.49512
DataValue, 0.95000000000000007, 1.8000000000000002E-13, 5277777777777.7773, 527777777777.77765
DataValue, 1, 2.5200000000000004E-13, 3968253968253.9678, 396825396825.39673