
SetupTitle, R-V
ApplicationTest, R-V, Public
TestParameter, Name, Port1, Port2, V1Start, V1Stop, V1Step, V2, I1Limit, IntegTime, HoldTime, DelayTime, Port1MinRng
TestParameter, Value, SMU1:MP	MPSMU, SMU2:MP	MPSMU, 0, 1, 0.05, 0, 0.01, MEDIUM, 0, 0, 1nA
DutParameter, Name, L, W, Temp
DutParameter, Value, 1E-05, 1E-06, 25
MetaData, TestRecord.EntryPoint, true
MetaData, TestRecord.RecordTime, 03/04/2023 14:46:29
MetaData, TestRecord.TestTarget, 
MetaData, TestRecord.IterationIndex, 33
MetaData, TestRecord.Preservation, true
MetaData, TestRecord.Flag, 
MetaData, TestRecord.Remarks, 
MetaData, TestRecord.LinkKey, 513b4844-10e9-49ee-a142-f922b2a1a4af
Dimension1, 21, 21, 21, 21
Dimension2, 1, 1, 1, 1
DataName, V1, I1, R, Rsheet
DataValue, 0, -1.81E-13, -0, -0
DataValue, 0.05, 1.4E-13, 357142857142.85712, 35714285714.285706
DataValue, 0.1, 0, , 
DataValue, 0.15, 1.6700000000000002E-13, 898203592814.37109, 89820359281.4371
DataValue, 0.2, 2.46E-13, 813008130081.30078, 81300813008.130066
DataValue, 0.25, 2.49E-13, 1004016064257.0281, 100401606425.70279
DataValue, 0.3, 2.8900000000000003E-13, 1038062283737.0241, 103806228373.70239
DataValue, 0.35000000000000003, 3.6000000000000003E-13, 972222222222.22229, 97222222222.222214
DataValue, 0.4, 4.71E-13, 849256900212.31421, 84925690021.231415
DataValue, 0.45, 2.82E-13, 1595744680851.0637, 159574468085.10635
DataValue, 0.5, 4.0800000000000003E-13, 1225490196078.4314, 122549019607.84312
DataValue, 0.55, 3.8300000000000003E-13, 1436031331592.6892, 143603133159.26889
DataValue, 0.6, 4.4100000000000004E-13, 1360544217687.0747, 136054421768.70744
DataValue, 0.65, 4.21E-13, 1543942992874.1091, 154394299287.41089
DataValue, 0.70000000000000007, 5.2400000000000009E-13, 1335877862595.4197, 133587786259.54195
DataValue, 0.75, 5.5200000000000007E-13, 1358695652173.9128, 135869565217.39128
DataValue, 0.8, 4.2600000000000005E-13, 1877934272300.4692, 187793427230.04691
DataValue, 0.85000000000000009, 5.9600000000000009E-13, 1426174496644.2952, 142617449664.4295
DataValue, 0.9, 6.76E-13, 1331360946745.562, 133136094674.55618
DataValue, 0.95000000000000007, 4.3000000000000004E-13, 2209302325581.3955, 220930232558.13953
DataValue, 1, 5.9400000000000009E-13, 1683501683501.6834, 168350168350.1683
SetupTitle, R-V
PrimitiveTest, I/V Sweep
TestParameter, Context.MainFrame, B1500A
TestParameter, Channel.UnitType, SMU, SMU
TestParameter, Channel.Unit, Port1, Port2
TestParameter, Channel.IName, I1, I2
TestParameter, Channel.VName, V1, V2
TestParameter, Channel.Mode, V, V
TestParameter, Channel.Func, VAR1, CONST
TestParameter, Channel.Index, 
TestParameter, Channel.Time, 
TestParameter, Measurement.Port.Unit, Port1, Port2
TestParameter, Measurement.Port.SeriesResistor, NONE, NONE
TestParameter, Measurement.Port.Filter, OFF, OFF
TestParameter, Measurement.Port.OutputVoltageComparison, 0, 0
TestParameter, Measurement.Primary.Locus, Single
TestParameter, Measurement.Primary.Scale, LINEAR
TestParameter, Measurement.Primary.Start, V1Start
TestParameter, Measurement.Primary.Stop, V1Stop
TestParameter, Measurement.Primary.Step, V1Step
TestParameter, Measurement.Primary.Compliance, I1Limit
TestParameter, Measurement.Primary.PowerCompliance, 0
TestParameter, Measurement.Aborting.Condition, CONTINUE AT ANY
TestParameter, Measurement.PostOutput.Value, START
TestParameter, Measurement.PostOutput.Retention, OFF
TestParameter, Measurement.Bias.Source, 0, V2
TestParameter, Measurement.Bias.Compliance, 0.01, I1Limit
TestParameter, Measurement.Monitor.Unit, SMU:=Port1, SMU:=Port2
TestParameter, Measurement.Monitor.Adc, HR ADC, HR ADC
TestParameter, Measurement.Monitor.Measurement, Compliance Side, Compliance Side
TestParameter, Measurement.Monitor.RangingMode, LIMITED, LIMITED
TestParameter, Measurement.Monitor.RangeBoundary, Port1MinRng, 1nA
TestParameter, Measurement.Monitor.RangeRating, BY FULL RANGE, BY FULL RANGE
TestParameter, Measurement.Monitor.RangeRatingCoeff, 50, 50
TestParameter, Measurement.Timing.Hold, HoldTime
TestParameter, Measurement.Timing.Delay, DelayTime
TestParameter, Measurement.Adc.HighSpeed.Mode, AUTO
TestParameter, Measurement.Adc.HighSpeed.Coeff, 1
TestParameter, Measurement.Adc.HighResolution.AutoZero, ON
TestParameter, Measurement.Adc.HighResolution.Mode, IntegMode
TestParameter, Measurement.Adc.HighResolution.Coeff, AdcFactor
TestParameter, Measurement.WaitTime.Source.Coeff, 1
TestParameter, Measurement.WaitTime.Source.Offset, 0
TestParameter, Measurement.WaitTime.Monitor.Coeff, 1
TestParameter, Measurement.WaitTime.Monitor.Offset, 0
TestParameter, Function.User.Name, R, Rsheet
TestParameter, Function.User.Unit, ohm, ohm/sheet
TestParameter, Function.User.Definition, V1/I1, R*W/L
TestParameter, Output.Graph.Enabled, true
TestParameter, Output.Graph.AutoScaling, false
TestParameter, Output.Graph.XAxis.Data, V1
TestParameter, Output.Graph.XAxis.Scale, Linear
TestParameter, Output.Graph.XAxis.Left, V1Start
TestParameter, Output.Graph.XAxis.Right, V1Stop
TestParameter, Output.Graph.XAxis.RunTimeAutoScale, false
TestParameter, Output.Graph.YAxis.Data, R, I1
TestParameter, Output.Graph.YAxis.Scale, Linear, Linear
TestParameter, Output.Graph.YAxis.Bottom, 0, 0
TestParameter, Output.Graph.YAxis.Top, V1Stop/I1Limit, I1Limit
TestParameter, Output.Graph.YAxis.Group, , 
TestParameter, Output.Graph.YAxis.RunTimeAutoScale, false, false
TestParameter, Output.List.Data, V1, I1, R, Rsheet
TestParameter, AutoAnalysis.Interpolation, false
TestParameter, AutoAnalysis.Line1.Enabled, false
TestParameter, AutoAnalysis.Line1.Type, 1
TestParameter, AutoAnalysis.Line1.Fix, False
TestParameter, AutoAnalysis.Line1.YAxis, 0
TestParameter, AutoAnalysis.Line1.Point1.Type, 0
TestParameter, AutoAnalysis.Line1.Point1.XY.X, 
TestParameter, AutoAnalysis.Line1.Point1.XY.Y, 
TestParameter, AutoAnalysis.Line1.Point1.Data.Var, 
TestParameter, AutoAnalysis.Line1.Point1.Data.Condition, 
TestParameter, AutoAnalysis.Line1.Point1.Data.Start, false
TestParameter, AutoAnalysis.Line1.Point1.Data.StartVar, 
TestParameter, AutoAnalysis.Line1.Point1.Data.StartCondition, 
TestParameter, AutoAnalysis.Line1.Point2.Type, 0
TestParameter, AutoAnalysis.Line1.Point2.XY.X, 
TestParameter, AutoAnalysis.Line1.Point2.XY.Y, 
TestParameter, AutoAnalysis.Line1.Point2.Data.Var, 
TestParameter, AutoAnalysis.Line1.Point2.Data.Condition, 
TestParameter, AutoAnalysis.Line1.Point2.Data.Start, false
TestParameter, AutoAnalysis.Line1.Point2.Data.StartVar, 
TestParameter, AutoAnalysis.Line1.Point2.Data.StartCondition, 
TestParameter, AutoAnalysis.Line1.GradientExpr, 0
TestParameter, AutoAnalysis.Line2.Enabled, false
TestParameter, AutoAnalysis.Line2.Type, 1
TestParameter, AutoAnalysis.Line2.Fix, False
TestParameter, AutoAnalysis.Line2.YAxis, 0
TestParameter, AutoAnalysis.Line2.Point1.Type, 0
TestParameter, AutoAnalysis.Line2.Point1.XY.X, 
TestParameter, AutoAnalysis.Line2.Point1.XY.Y, 
TestParameter, AutoAnalysis.Line2.Point1.Data.Var, 
TestParameter, AutoAnalysis.Line2.Point1.Data.Condition, 
TestParameter, AutoAnalysis.Line2.Point1.Data.Start, false
TestParameter, AutoAnalysis.Line2.Point1.Data.StartVar, 
TestParameter, AutoAnalysis.Line2.Point1.Data.StartCondition, 
TestParameter, AutoAnalysis.Line2.Point2.Type, 0
TestParameter, AutoAnalysis.Line2.Point2.XY.X, 
TestParameter, AutoAnalysis.Line2.Point2.XY.Y, 
TestParameter, AutoAnalysis.Line2.Point2.Data.Var, 
TestParameter, AutoAnalysis.Line2.Point2.Data.Condition, 
TestParameter, AutoAnalysis.Line2.Point2.Data.Start, false
TestParameter, AutoAnalysis.Line2.Point2.Data.StartVar, 
TestParameter, AutoAnalysis.Line2.Point2.Data.StartCondition, 
TestParameter, AutoAnalysis.Line2.GradientExpr, 0
TestParameter, AutoAnalysis.Marker.Enabled, false
TestParameter, AutoAnalysis.Marker.Data.Var, 
TestParameter, AutoAnalysis.Marker.Data.Condition, 
TestParameter, AutoAnalysis.Marker.Data.Start, false
TestParameter, AutoAnalysis.Marker.Data.StartVar, 
TestParameter, AutoAnalysis.Marker.Data.StartCondition, 
MetaData, TestRecord.EntryPoint, false
MetaData, TestRecord.RecordTime, 03/04/2023 14:46:29
MetaData, TestRecord.TestTarget, 
MetaData, TestRecord.IterationIndex, 33
MetaData, TestRecord.Preservation, true
MetaData, TestRecord.Flag, 
MetaData, TestRecord.Remarks, 
MetaData, TestRecord.LinkKey, 513b4844-10e9-49ee-a142-f922b2a1a4af
Dimension1, 21, 21, 21, 21
Dimension2, 1, 1, 1, 1
DataName, V1, I1, R, Rsheet
DataValue, 0, -1.81E-13, -0, -0
DataValue, 0.05, 1.4E-13, 357142857142.85712, 35714285714.285706
DataValue, 0.1, 0, , 
DataValue, 0.15, 1.6700000000000002E-13, 898203592814.37109, 89820359281.4371
DataValue, 0.2, 2.46E-13, 813008130081.30078, 81300813008.130066
DataValue, 0.25, 2.49E-13, 1004016064257.0281, 100401606425.70279
DataValue, 0.3, 2.8900000000000003E-13, 1038062283737.0241, 103806228373.70239
DataValue, 0.35000000000000003, 3.6000000000000003E-13, 972222222222.22229, 97222222222.222214
DataValue, 0.4, 4.71E-13, 849256900212.31421, 84925690021.231415
DataValue, 0.45, 2.82E-13, 1595744680851.0637, 159574468085.10635
DataValue, 0.5, 4.0800000000000003E-13, 1225490196078.4314, 122549019607.84312
DataValue, 0.55, 3.8300000000000003E-13, 1436031331592.6892, 143603133159.26889
DataValue, 0.6, 4.4100000000000004E-13, 1360544217687.0747, 136054421768.70744
DataValue, 0.65, 4.21E-13, 1543942992874.1091, 154394299287.41089
DataValue, 0.70000000000000007, 5.2400000000000009E-13, 1335877862595.4197, 133587786259.54195
DataValue, 0.75, 5.5200000000000007E-13, 1358695652173.9128, 135869565217.39128
DataValue, 0.8, 4.2600000000000005E-13, 1877934272300.4692, 187793427230.04691
DataValue, 0.85000000000000009, 5.9600000000000009E-13, 1426174496644.2952, 142617449664.4295
DataValue, 0.9, 6.76E-13, 1331360946745.562, 133136094674.55618
DataValue, 0.95000000000000007, 4.3000000000000004E-13, 2209302325581.3955, 220930232558.13953
DataValue, 1, 5.9400000000000009E-13, 1683501683501.6834, 168350168350.1683