
SetupTitle, R-V
ApplicationTest, R-V, Public
TestParameter, Name, Port1, Port2, V1Start, V1Stop, V1Step, V2, I1Limit, IntegTime, HoldTime, DelayTime, Port1MinRng
TestParameter, Value, SMU1:MP	MPSMU, SMU2:MP	MPSMU, 0, 1, 0.05, 0, 0.01, MEDIUM, 0, 0, 1nA
DutParameter, Name, L, W, Temp
DutParameter, Value, 1E-05, 1E-06, 25
MetaData, TestRecord.EntryPoint, true
MetaData, TestRecord.RecordTime, 03/04/2023 17:19:11
MetaData, TestRecord.TestTarget, 
MetaData, TestRecord.IterationIndex, 121
MetaData, TestRecord.Preservation, true
MetaData, TestRecord.Flag, 
MetaData, TestRecord.Remarks, 
MetaData, TestRecord.LinkKey, 5e347de9-088c-45c7-b03a-2175a3090b40
Dimension1, 21, 21, 21, 21
Dimension2, 1, 1, 1, 1
DataName, V1, I1, R, Rsheet
DataValue, 0, 1.031111E-08, 0, 0
DataValue, 0.05, 3.3989400000000004E-05, 1471.0468557844504, 147.10468557844504
DataValue, 0.1, 6.79376E-05, 1471.9389557476275, 147.19389557476274
DataValue, 0.15, 0.0001019369, 1471.4985446879391, 147.14985446879388
DataValue, 0.2, 0.000135863, 1472.0711304770246, 147.20711304770245
DataValue, 0.25, 0.00016984700000000002, 1471.9129569553772, 147.19129569553772
DataValue, 0.3, 0.00020378300000000002, 1472.1542032456091, 147.21542032456088
DataValue, 0.35000000000000003, 0.00023775300000000003, 1472.116019566525, 147.21160195665249
DataValue, 0.4, 0.000271673, 1472.3583131190808, 147.23583131190807
DataValue, 0.45, 0.000305587, 1472.5757312974702, 147.257573129747
DataValue, 0.5, 0.000339527, 1472.6369331452286, 147.26369331452284
DataValue, 0.55, 0.00037341800000000004, 1472.8802575130283, 147.28802575130283
DataValue, 0.6, 0.00040730400000000004, 1473.1011725885333, 147.3101172588533
DataValue, 0.65, 0.00044121300000000003, 1473.2113514334346, 147.32113514334344
DataValue, 0.70000000000000007, 0.000475114, 1473.3306111796328, 147.33306111796324
DataValue, 0.75, 0.000508959, 1473.5961049907753, 147.35961049907749
DataValue, 0.8, 0.00054284100000000007, 1473.728034544185, 147.37280345441849
DataValue, 0.85000000000000009, 0.000576674, 1473.9696951830672, 147.39696951830669
DataValue, 0.9, 0.000610554, 1474.071089535078, 147.40710895350779
DataValue, 0.95000000000000007, 0.000644397, 1474.246466076037, 147.42464660760368
DataValue, 1, 0.00067821800000000007, 1474.4521672972405, 147.44521672972405
SetupTitle, R-V
PrimitiveTest, I/V Sweep
TestParameter, Context.MainFrame, B1500A
TestParameter, Channel.UnitType, SMU, SMU
TestParameter, Channel.Unit, Port1, Port2
TestParameter, Channel.IName, I1, I2
TestParameter, Channel.VName, V1, V2
TestParameter, Channel.Mode, V, V
TestParameter, Channel.Func, VAR1, CONST
TestParameter, Channel.Index, 
TestParameter, Channel.Time, 
TestParameter, Measurement.Port.Unit, Port1, Port2
TestParameter, Measurement.Port.SeriesResistor, NONE, NONE
TestParameter, Measurement.Port.Filter, OFF, OFF
TestParameter, Measurement.Port.OutputVoltageComparison, 0, 0
TestParameter, Measurement.Primary.Locus, Single
TestParameter, Measurement.Primary.Scale, LINEAR
TestParameter, Measurement.Primary.Start, V1Start
TestParameter, Measurement.Primary.Stop, V1Stop
TestParameter, Measurement.Primary.Step, V1Step
TestParameter, Measurement.Primary.Compliance, I1Limit
TestParameter, Measurement.Primary.PowerCompliance, 0
TestParameter, Measurement.Aborting.Condition, CONTINUE AT ANY
TestParameter, Measurement.PostOutput.Value, START
TestParameter, Measurement.PostOutput.Retention, OFF
TestParameter, Measurement.Bias.Source, 0, V2
TestParameter, Measurement.Bias.Compliance, 0.01, I1Limit
TestParameter, Measurement.Monitor.Unit, SMU:=Port1, SMU:=Port2
TestParameter, Measurement.Monitor.Adc, HR ADC, HR ADC
TestParameter, Measurement.Monitor.Measurement, Compliance Side, Compliance Side
TestParameter, Measurement.Monitor.RangingMode, LIMITED, LIMITED
TestParameter, Measurement.Monitor.RangeBoundary, Port1MinRng, 1nA
TestParameter, Measurement.Monitor.RangeRating, BY FULL RANGE, BY FULL RANGE
TestParameter, Measurement.Monitor.RangeRatingCoeff, 50, 50
TestParameter, Measurement.Timing.Hold, HoldTime
TestParameter, Measurement.Timing.Delay, DelayTime
TestParameter, Measurement.Adc.HighSpeed.Mode, AUTO
TestParameter, Measurement.Adc.HighSpeed.Coeff, 1
TestParameter, Measurement.Adc.HighResolution.AutoZero, ON
TestParameter, Measurement.Adc.HighResolution.Mode, IntegMode
TestParameter, Measurement.Adc.HighResolution.Coeff, AdcFactor
TestParameter, Measurement.WaitTime.Source.Coeff, 1
TestParameter, Measurement.WaitTime.Source.Offset, 0
TestParameter, Measurement.WaitTime.Monitor.Coeff, 1
TestParameter, Measurement.WaitTime.Monitor.Offset, 0
TestParameter, Function.User.Name, R, Rsheet
TestParameter, Function.User.Unit, ohm, ohm/sheet
TestParameter, Function.User.Definition, V1/I1, R*W/L
TestParameter, Output.Graph.Enabled, true
TestParameter, Output.Graph.AutoScaling, false
TestParameter, Output.Graph.XAxis.Data, V1
TestParameter, Output.Graph.XAxis.Scale, Linear
TestParameter, Output.Graph.XAxis.Left, V1Start
TestParameter, Output.Graph.XAxis.Right, V1Stop
TestParameter, Output.Graph.XAxis.RunTimeAutoScale, false
TestParameter, Output.Graph.YAxis.Data, R, I1
TestParameter, Output.Graph.YAxis.Scale, Linear, Linear
TestParameter, Output.Graph.YAxis.Bottom, 0, 0
TestParameter, Output.Graph.YAxis.Top, V1Stop/I1Limit, I1Limit
TestParameter, Output.Graph.YAxis.Group, , 
TestParameter, Output.Graph.YAxis.RunTimeAutoScale, false, false
TestParameter, Output.List.Data, V1, I1, R, Rsheet
TestParameter, AutoAnalysis.Interpolation, false
TestParameter, AutoAnalysis.Line1.Enabled, false
TestParameter, AutoAnalysis.Line1.Type, 1
TestParameter, AutoAnalysis.Line1.Fix, False
TestParameter, AutoAnalysis.Line1.YAxis, 0
TestParameter, AutoAnalysis.Line1.Point1.Type, 0
TestParameter, AutoAnalysis.Line1.Point1.XY.X, 
TestParameter, AutoAnalysis.Line1.Point1.XY.Y, 
TestParameter, AutoAnalysis.Line1.Point1.Data.Var, 
TestParameter, AutoAnalysis.Line1.Point1.Data.Condition, 
TestParameter, AutoAnalysis.Line1.Point1.Data.Start, false
TestParameter, AutoAnalysis.Line1.Point1.Data.StartVar, 
TestParameter, AutoAnalysis.Line1.Point1.Data.StartCondition, 
TestParameter, AutoAnalysis.Line1.Point2.Type, 0
TestParameter, AutoAnalysis.Line1.Point2.XY.X, 
TestParameter, AutoAnalysis.Line1.Point2.XY.Y, 
TestParameter, AutoAnalysis.Line1.Point2.Data.Var, 
TestParameter, AutoAnalysis.Line1.Point2.Data.Condition, 
TestParameter, AutoAnalysis.Line1.Point2.Data.Start, false
TestParameter, AutoAnalysis.Line1.Point2.Data.StartVar, 
TestParameter, AutoAnalysis.Line1.Point2.Data.StartCondition, 
TestParameter, AutoAnalysis.Line1.GradientExpr, 0
TestParameter, AutoAnalysis.Line2.Enabled, false
TestParameter, AutoAnalysis.Line2.Type, 1
TestParameter, AutoAnalysis.Line2.Fix, False
TestParameter, AutoAnalysis.Line2.YAxis, 0
TestParameter, AutoAnalysis.Line2.Point1.Type, 0
TestParameter, AutoAnalysis.Line2.Point1.XY.X, 
TestParameter, AutoAnalysis.Line2.Point1.XY.Y, 
TestParameter, AutoAnalysis.Line2.Point1.Data.Var, 
TestParameter, AutoAnalysis.Line2.Point1.Data.Condition, 
TestParameter, AutoAnalysis.Line2.Point1.Data.Start, false
TestParameter, AutoAnalysis.Line2.Point1.Data.StartVar, 
TestParameter, AutoAnalysis.Line2.Point1.Data.StartCondition, 
TestParameter, AutoAnalysis.Line2.Point2.Type, 0
TestParameter, AutoAnalysis.Line2.Point2.XY.X, 
TestParameter, AutoAnalysis.Line2.Point2.XY.Y, 
TestParameter, AutoAnalysis.Line2.Point2.Data.Var, 
TestParameter, AutoAnalysis.Line2.Point2.Data.Condition, 
TestParameter, AutoAnalysis.Line2.Point2.Data.Start, false
TestParameter, AutoAnalysis.Line2.Point2.Data.StartVar, 
TestParameter, AutoAnalysis.Line2.Point2.Data.StartCondition, 
TestParameter, AutoAnalysis.Line2.GradientExpr, 0
TestParameter, AutoAnalysis.Marker.Enabled, false
TestParameter, AutoAnalysis.Marker.Data.Var, 
TestParameter, AutoAnalysis.Marker.Data.Condition, 
TestParameter, AutoAnalysis.Marker.Data.Start, false
TestParameter, AutoAnalysis.Marker.Data.StartVar, 
TestParameter, AutoAnalysis.Marker.Data.StartCondition, 
MetaData, TestRecord.EntryPoint, false
MetaData, TestRecord.RecordTime, 03/04/2023 17:19:11
MetaData, TestRecord.TestTarget, 
MetaData, TestRecord.IterationIndex, 121
MetaData, TestRecord.Preservation, true
MetaData, TestRecord.Flag, 
MetaData, TestRecord.Remarks, 
MetaData, TestRecord.LinkKey, 5e347de9-088c-45c7-b03a-2175a3090b40
Dimension1, 21, 21, 21, 21
Dimension2, 1, 1, 1, 1
DataName, V1, I1, R, Rsheet
DataValue, 0, 1.031111E-08, 0, 0
DataValue, 0.05, 3.3989400000000004E-05, 1471.0468557844504, 147.10468557844504
DataValue, 0.1, 6.79376E-05, 1471.9389557476275, 147.19389557476274
DataValue, 0.15, 0.0001019369, 1471.4985446879391, 147.14985446879388
DataValue, 0.2, 0.000135863, 1472.0711304770246, 147.20711304770245
DataValue, 0.25, 0.00016984700000000002, 1471.9129569553772, 147.19129569553772
DataValue, 0.3, 0.00020378300000000002, 1472.1542032456091, 147.21542032456088
DataValue, 0.35000000000000003, 0.00023775300000000003, 1472.116019566525, 147.21160195665249
DataValue, 0.4, 0.000271673, 1472.3583131190808, 147.23583131190807
DataValue, 0.45, 0.000305587, 1472.5757312974702, 147.257573129747
DataValue, 0.5, 0.000339527, 1472.6369331452286, 147.26369331452284
DataValue, 0.55, 0.00037341800000000004, 1472.8802575130283, 147.28802575130283
DataValue, 0.6, 0.00040730400000000004, 1473.1011725885333, 147.3101172588533
DataValue, 0.65, 0.00044121300000000003, 1473.2113514334346, 147.32113514334344
DataValue, 0.70000000000000007, 0.000475114, 1473.3306111796328, 147.33306111796324
DataValue, 0.75, 0.000508959, 1473.5961049907753, 147.35961049907749
DataValue, 0.8, 0.00054284100000000007, 1473.728034544185, 147.37280345441849
DataValue, 0.85000000000000009, 0.000576674, 1473.9696951830672, 147.39696951830669
DataValue, 0.9, 0.000610554, 1474.071089535078, 147.40710895350779
DataValue, 0.95000000000000007, 0.000644397, 1474.246466076037, 147.42464660760368
DataValue, 1, 0.00067821800000000007, 1474.4521672972405, 147.44521672972405