
SetupTitle, R-V
ApplicationTest, R-V, Public
TestParameter, Name, Port1, Port2, V1Start, V1Stop, V1Step, V2, I1Limit, IntegTime, HoldTime, DelayTime, Port1MinRng
TestParameter, Value, SMU1:MP	MPSMU, SMU2:MP	MPSMU, 0, 1, 0.05, 0, 0.01, MEDIUM, 0, 0, 1nA
DutParameter, Name, L, W, Temp
DutParameter, Value, 1E-05, 1E-06, 25
MetaData, TestRecord.EntryPoint, true
MetaData, TestRecord.RecordTime, 03/04/2023 16:05:22
MetaData, TestRecord.TestTarget, 
MetaData, TestRecord.IterationIndex, 16
MetaData, TestRecord.Preservation, true
MetaData, TestRecord.Flag, 
MetaData, TestRecord.Remarks, 
MetaData, TestRecord.LinkKey, e0479c2c-4b55-4804-a6d9-73f353cd5208
Dimension1, 21, 21, 21, 21
Dimension2, 1, 1, 1, 1
DataName, V1, I1, R, Rsheet
DataValue, 0, -1.04815E-10, -0, -0
DataValue, 0.05, 2.24956E-07, 222265.68751222463, 22226.568751222461
DataValue, 0.1, 4.49636E-07, 222402.12082662422, 22240.212082662416
DataValue, 0.15, 6.74707E-07, 222318.72501693328, 22231.872501693328
DataValue, 0.2, 8.99335E-07, 222386.54116652859, 22238.654116652859
DataValue, 0.25, 1.124384E-06, 222343.96789708856, 22234.396789708851
DataValue, 0.3, 1.3488200000000002E-06, 222416.63083287611, 22241.663083287607
DataValue, 0.35000000000000003, 1.5738400000000001E-06, 222386.01128450161, 22238.601128450158
DataValue, 0.4, 1.7985800000000001E-06, 222397.66927242602, 22239.7669272426
DataValue, 0.45, 2.02333E-06, 222405.63823004649, 22240.563823004646
DataValue, 0.5, 2.2483E-06, 222390.25041142196, 22239.025041142195
DataValue, 0.55, 2.4730600000000003E-06, 222396.5451707601, 22239.654517076007
DataValue, 0.6, 2.69781E-06, 222402.61545475773, 22240.261545475772
DataValue, 0.65, 2.9227300000000004E-06, 222394.8158057706, 22239.481580577056
DataValue, 0.70000000000000007, 3.14774E-06, 222381.77231918773, 22238.177231918769
DataValue, 0.75, 3.3723900000000002E-06, 222394.20707569408, 22239.420707569407
DataValue, 0.8, 3.5972900000000004E-06, 222389.63219534705, 22238.963219534704
DataValue, 0.85000000000000009, 3.82193E-06, 222400.72424141731, 22240.072424141727
DataValue, 0.9, 4.04701E-06, 222386.40378946433, 22238.640378946428
DataValue, 0.95000000000000007, 4.2718300000000007E-06, 222387.12682854888, 22238.712682854883
DataValue, 1, 4.49654E-06, 222393.21789642703, 22239.3217896427
SetupTitle, R-V
PrimitiveTest, I/V Sweep
TestParameter, Context.MainFrame, B1500A
TestParameter, Channel.UnitType, SMU, SMU
TestParameter, Channel.Unit, Port1, Port2
TestParameter, Channel.IName, I1, I2
TestParameter, Channel.VName, V1, V2
TestParameter, Channel.Mode, V, V
TestParameter, Channel.Func, VAR1, CONST
TestParameter, Channel.Index, 
TestParameter, Channel.Time, 
TestParameter, Measurement.Port.Unit, Port1, Port2
TestParameter, Measurement.Port.SeriesResistor, NONE, NONE
TestParameter, Measurement.Port.Filter, OFF, OFF
TestParameter, Measurement.Port.OutputVoltageComparison, 0, 0
TestParameter, Measurement.Primary.Locus, Single
TestParameter, Measurement.Primary.Scale, LINEAR
TestParameter, Measurement.Primary.Start, V1Start
TestParameter, Measurement.Primary.Stop, V1Stop
TestParameter, Measurement.Primary.Step, V1Step
TestParameter, Measurement.Primary.Compliance, I1Limit
TestParameter, Measurement.Primary.PowerCompliance, 0
TestParameter, Measurement.Aborting.Condition, CONTINUE AT ANY
TestParameter, Measurement.PostOutput.Value, START
TestParameter, Measurement.PostOutput.Retention, OFF
TestParameter, Measurement.Bias.Source, 0, V2
TestParameter, Measurement.Bias.Compliance, 0.01, I1Limit
TestParameter, Measurement.Monitor.Unit, SMU:=Port1, SMU:=Port2
TestParameter, Measurement.Monitor.Adc, HR ADC, HR ADC
TestParameter, Measurement.Monitor.Measurement, Compliance Side, Compliance Side
TestParameter, Measurement.Monitor.RangingMode, LIMITED, LIMITED
TestParameter, Measurement.Monitor.RangeBoundary, Port1MinRng, 1nA
TestParameter, Measurement.Monitor.RangeRating, BY FULL RANGE, BY FULL RANGE
TestParameter, Measurement.Monitor.RangeRatingCoeff, 50, 50
TestParameter, Measurement.Timing.Hold, HoldTime
TestParameter, Measurement.Timing.Delay, DelayTime
TestParameter, Measurement.Adc.HighSpeed.Mode, AUTO
TestParameter, Measurement.Adc.HighSpeed.Coeff, 1
TestParameter, Measurement.Adc.HighResolution.AutoZero, ON
TestParameter, Measurement.Adc.HighResolution.Mode, IntegMode
TestParameter, Measurement.Adc.HighResolution.Coeff, AdcFactor
TestParameter, Measurement.WaitTime.Source.Coeff, 1
TestParameter, Measurement.WaitTime.Source.Offset, 0
TestParameter, Measurement.WaitTime.Monitor.Coeff, 1
TestParameter, Measurement.WaitTime.Monitor.Offset, 0
TestParameter, Function.User.Name, R, Rsheet
TestParameter, Function.User.Unit, ohm, ohm/sheet
TestParameter, Function.User.Definition, V1/I1, R*W/L
TestParameter, Output.Graph.Enabled, true
TestParameter, Output.Graph.AutoScaling, false
TestParameter, Output.Graph.XAxis.Data, V1
TestParameter, Output.Graph.XAxis.Scale, Linear
TestParameter, Output.Graph.XAxis.Left, V1Start
TestParameter, Output.Graph.XAxis.Right, V1Stop
TestParameter, Output.Graph.XAxis.RunTimeAutoScale, false
TestParameter, Output.Graph.YAxis.Data, R, I1
TestParameter, Output.Graph.YAxis.Scale, Linear, Linear
TestParameter, Output.Graph.YAxis.Bottom, 0, 0
TestParameter, Output.Graph.YAxis.Top, V1Stop/I1Limit, I1Limit
TestParameter, Output.Graph.YAxis.Group, , 
TestParameter, Output.Graph.YAxis.RunTimeAutoScale, false, false
TestParameter, Output.List.Data, V1, I1, R, Rsheet
TestParameter, AutoAnalysis.Interpolation, false
TestParameter, AutoAnalysis.Line1.Enabled, false
TestParameter, AutoAnalysis.Line1.Type, 1
TestParameter, AutoAnalysis.Line1.Fix, False
TestParameter, AutoAnalysis.Line1.YAxis, 0
TestParameter, AutoAnalysis.Line1.Point1.Type, 0
TestParameter, AutoAnalysis.Line1.Point1.XY.X, 
TestParameter, AutoAnalysis.Line1.Point1.XY.Y, 
TestParameter, AutoAnalysis.Line1.Point1.Data.Var, 
TestParameter, AutoAnalysis.Line1.Point1.Data.Condition, 
TestParameter, AutoAnalysis.Line1.Point1.Data.Start, false
TestParameter, AutoAnalysis.Line1.Point1.Data.StartVar, 
TestParameter, AutoAnalysis.Line1.Point1.Data.StartCondition, 
TestParameter, AutoAnalysis.Line1.Point2.Type, 0
TestParameter, AutoAnalysis.Line1.Point2.XY.X, 
TestParameter, AutoAnalysis.Line1.Point2.XY.Y, 
TestParameter, AutoAnalysis.Line1.Point2.Data.Var, 
TestParameter, AutoAnalysis.Line1.Point2.Data.Condition, 
TestParameter, AutoAnalysis.Line1.Point2.Data.Start, false
TestParameter, AutoAnalysis.Line1.Point2.Data.StartVar, 
TestParameter, AutoAnalysis.Line1.Point2.Data.StartCondition, 
TestParameter, AutoAnalysis.Line1.GradientExpr, 0
TestParameter, AutoAnalysis.Line2.Enabled, false
TestParameter, AutoAnalysis.Line2.Type, 1
TestParameter, AutoAnalysis.Line2.Fix, False
TestParameter, AutoAnalysis.Line2.YAxis, 0
TestParameter, AutoAnalysis.Line2.Point1.Type, 0
TestParameter, AutoAnalysis.Line2.Point1.XY.X, 
TestParameter, AutoAnalysis.Line2.Point1.XY.Y, 
TestParameter, AutoAnalysis.Line2.Point1.Data.Var, 
TestParameter, AutoAnalysis.Line2.Point1.Data.Condition, 
TestParameter, AutoAnalysis.Line2.Point1.Data.Start, false
TestParameter, AutoAnalysis.Line2.Point1.Data.StartVar, 
TestParameter, AutoAnalysis.Line2.Point1.Data.StartCondition, 
TestParameter, AutoAnalysis.Line2.Point2.Type, 0
TestParameter, AutoAnalysis.Line2.Point2.XY.X, 
TestParameter, AutoAnalysis.Line2.Point2.XY.Y, 
TestParameter, AutoAnalysis.Line2.Point2.Data.Var, 
TestParameter, AutoAnalysis.Line2.Point2.Data.Condition, 
TestParameter, AutoAnalysis.Line2.Point2.Data.Start, false
TestParameter, AutoAnalysis.Line2.Point2.Data.StartVar, 
TestParameter, AutoAnalysis.Line2.Point2.Data.StartCondition, 
TestParameter, AutoAnalysis.Line2.GradientExpr, 0
TestParameter, AutoAnalysis.Marker.Enabled, false
TestParameter, AutoAnalysis.Marker.Data.Var, 
TestParameter, AutoAnalysis.Marker.Data.Condition, 
TestParameter, AutoAnalysis.Marker.Data.Start, false
TestParameter, AutoAnalysis.Marker.Data.StartVar, 
TestParameter, AutoAnalysis.Marker.Data.StartCondition, 
MetaData, TestRecord.EntryPoint, false
MetaData, TestRecord.RecordTime, 03/04/2023 16:05:22
MetaData, TestRecord.TestTarget, 
MetaData, TestRecord.IterationIndex, 16
MetaData, TestRecord.Preservation, true
MetaData, TestRecord.Flag, 
MetaData, TestRecord.Remarks, 
MetaData, TestRecord.LinkKey, e0479c2c-4b55-4804-a6d9-73f353cd5208
Dimension1, 21, 21, 21, 21
Dimension2, 1, 1, 1, 1
DataName, V1, I1, R, Rsheet
DataValue, 0, -1.04815E-10, -0, -0
DataValue, 0.05, 2.24956E-07, 222265.68751222463, 22226.568751222461
DataValue, 0.1, 4.49636E-07, 222402.12082662422, 22240.212082662416
DataValue, 0.15, 6.74707E-07, 222318.72501693328, 22231.872501693328
DataValue, 0.2, 8.99335E-07, 222386.54116652859, 22238.654116652859
DataValue, 0.25, 1.124384E-06, 222343.96789708856, 22234.396789708851
DataValue, 0.3, 1.3488200000000002E-06, 222416.63083287611, 22241.663083287607
DataValue, 0.35000000000000003, 1.5738400000000001E-06, 222386.01128450161, 22238.601128450158
DataValue, 0.4, 1.7985800000000001E-06, 222397.66927242602, 22239.7669272426
DataValue, 0.45, 2.02333E-06, 222405.63823004649, 22240.563823004646
DataValue, 0.5, 2.2483E-06, 222390.25041142196, 22239.025041142195
DataValue, 0.55, 2.4730600000000003E-06, 222396.5451707601, 22239.654517076007
DataValue, 0.6, 2.69781E-06, 222402.61545475773, 22240.261545475772
DataValue, 0.65, 2.9227300000000004E-06, 222394.8158057706, 22239.481580577056
DataValue, 0.70000000000000007, 3.14774E-06, 222381.77231918773, 22238.177231918769
DataValue, 0.75, 3.3723900000000002E-06, 222394.20707569408, 22239.420707569407
DataValue, 0.8, 3.5972900000000004E-06, 222389.63219534705, 22238.963219534704
DataValue, 0.85000000000000009, 3.82193E-06, 222400.72424141731, 22240.072424141727
DataValue, 0.9, 4.04701E-06, 222386.40378946433, 22238.640378946428
DataValue, 0.95000000000000007, 4.2718300000000007E-06, 222387.12682854888, 22238.712682854883
DataValue, 1, 4.49654E-06, 222393.21789642703, 22239.3217896427