
SetupTitle, R-V
ApplicationTest, R-V, Public
TestParameter, Name, Port1, Port2, V1Start, V1Stop, V1Step, V2, I1Limit, IntegTime, HoldTime, DelayTime, Port1MinRng
TestParameter, Value, SMU1:MP	MPSMU, SMU2:MP	MPSMU, 0, 1, 0.05, 0, 0.01, MEDIUM, 0, 0, 1nA
DutParameter, Name, L, W, Temp
DutParameter, Value, 1E-05, 1E-06, 25
MetaData, TestRecord.EntryPoint, true
MetaData, TestRecord.RecordTime, 03/04/2023 16:06:34
MetaData, TestRecord.TestTarget, 
MetaData, TestRecord.IterationIndex, 18
MetaData, TestRecord.Preservation, true
MetaData, TestRecord.Flag, 
MetaData, TestRecord.Remarks, 
MetaData, TestRecord.LinkKey, 80e3a422-25b4-4c42-97f1-948826053085
Dimension1, 21, 21, 21, 21
Dimension2, 1, 1, 1, 1
DataName, V1, I1, R, Rsheet
DataValue, 0, 8.1000000000000008E-14, 0, 0
DataValue, 0.05, 2.49E-13, 200803212851.40564, 20080321285.140564
DataValue, 0.1, 1.1500000000000002E-13, 869565217391.30432, 86956521739.130432
DataValue, 0.15, 3.5500000000000005E-13, 422535211267.60553, 42253521126.760544
DataValue, 0.2, 6.8E-13, 294117647058.82355, 29411764705.882355
DataValue, 0.25, 4.0700000000000003E-13, 614250614250.61426, 61425061425.061417
DataValue, 0.3, 1.0400000000000001E-13, 2884615384615.3843, 288461538461.53839
DataValue, 0.35000000000000003, -4.21E-13, -831353919239.905, -83135391923.9905
DataValue, 0.4, 5.12E-13, 781250000000, 78125000000
DataValue, 0.45, 7.8100000000000011E-13, 576184379001.2804, 57618437900.128036
DataValue, 0.5, 4.12E-13, 1213592233009.7087, 121359223300.97084
DataValue, 0.55, 7.03E-13, 782361308677.09814, 78236130867.709808
DataValue, 0.6, 3.9000000000000005E-13, 1538461538461.5381, 153846153846.15378
DataValue, 0.65, 4.1900000000000003E-13, 1551312649164.6777, 155131264916.46774
DataValue, 0.70000000000000007, 4.0200000000000005E-13, 1741293532338.3084, 174129353233.83081
DataValue, 0.75, 3.97E-13, 1889168765743.073, 188916876574.30728
DataValue, 0.8, 3.87E-13, 2067183462532.2998, 206718346253.22995
DataValue, 0.85000000000000009, 5.36E-13, 1585820895522.3882, 158582089552.2388
DataValue, 0.9, 1.09E-13, 8256880733944.9541, 825688073394.49524
DataValue, 0.95000000000000007, 6.4700000000000007E-13, 1468315301391.0354, 146831530139.10352
DataValue, 1, 4.46E-13, 2242152466367.7129, 224215246636.77124
SetupTitle, R-V
PrimitiveTest, I/V Sweep
TestParameter, Context.MainFrame, B1500A
TestParameter, Channel.UnitType, SMU, SMU
TestParameter, Channel.Unit, Port1, Port2
TestParameter, Channel.IName, I1, I2
TestParameter, Channel.VName, V1, V2
TestParameter, Channel.Mode, V, V
TestParameter, Channel.Func, VAR1, CONST
TestParameter, Channel.Index, 
TestParameter, Channel.Time, 
TestParameter, Measurement.Port.Unit, Port1, Port2
TestParameter, Measurement.Port.SeriesResistor, NONE, NONE
TestParameter, Measurement.Port.Filter, OFF, OFF
TestParameter, Measurement.Port.OutputVoltageComparison, 0, 0
TestParameter, Measurement.Primary.Locus, Single
TestParameter, Measurement.Primary.Scale, LINEAR
TestParameter, Measurement.Primary.Start, V1Start
TestParameter, Measurement.Primary.Stop, V1Stop
TestParameter, Measurement.Primary.Step, V1Step
TestParameter, Measurement.Primary.Compliance, I1Limit
TestParameter, Measurement.Primary.PowerCompliance, 0
TestParameter, Measurement.Aborting.Condition, CONTINUE AT ANY
TestParameter, Measurement.PostOutput.Value, START
TestParameter, Measurement.PostOutput.Retention, OFF
TestParameter, Measurement.Bias.Source, 0, V2
TestParameter, Measurement.Bias.Compliance, 0.01, I1Limit
TestParameter, Measurement.Monitor.Unit, SMU:=Port1, SMU:=Port2
TestParameter, Measurement.Monitor.Adc, HR ADC, HR ADC
TestParameter, Measurement.Monitor.Measurement, Compliance Side, Compliance Side
TestParameter, Measurement.Monitor.RangingMode, LIMITED, LIMITED
TestParameter, Measurement.Monitor.RangeBoundary, Port1MinRng, 1nA
TestParameter, Measurement.Monitor.RangeRating, BY FULL RANGE, BY FULL RANGE
TestParameter, Measurement.Monitor.RangeRatingCoeff, 50, 50
TestParameter, Measurement.Timing.Hold, HoldTime
TestParameter, Measurement.Timing.Delay, DelayTime
TestParameter, Measurement.Adc.HighSpeed.Mode, AUTO
TestParameter, Measurement.Adc.HighSpeed.Coeff, 1
TestParameter, Measurement.Adc.HighResolution.AutoZero, ON
TestParameter, Measurement.Adc.HighResolution.Mode, IntegMode
TestParameter, Measurement.Adc.HighResolution.Coeff, AdcFactor
TestParameter, Measurement.WaitTime.Source.Coeff, 1
TestParameter, Measurement.WaitTime.Source.Offset, 0
TestParameter, Measurement.WaitTime.Monitor.Coeff, 1
TestParameter, Measurement.WaitTime.Monitor.Offset, 0
TestParameter, Function.User.Name, R, Rsheet
TestParameter, Function.User.Unit, ohm, ohm/sheet
TestParameter, Function.User.Definition, V1/I1, R*W/L
TestParameter, Output.Graph.Enabled, true
TestParameter, Output.Graph.AutoScaling, false
TestParameter, Output.Graph.XAxis.Data, V1
TestParameter, Output.Graph.XAxis.Scale, Linear
TestParameter, Output.Graph.XAxis.Left, V1Start
TestParameter, Output.Graph.XAxis.Right, V1Stop
TestParameter, Output.Graph.XAxis.RunTimeAutoScale, false
TestParameter, Output.Graph.YAxis.Data, R, I1
TestParameter, Output.Graph.YAxis.Scale, Linear, Linear
TestParameter, Output.Graph.YAxis.Bottom, 0, 0
TestParameter, Output.Graph.YAxis.Top, V1Stop/I1Limit, I1Limit
TestParameter, Output.Graph.YAxis.Group, , 
TestParameter, Output.Graph.YAxis.RunTimeAutoScale, false, false
TestParameter, Output.List.Data, V1, I1, R, Rsheet
TestParameter, AutoAnalysis.Interpolation, false
TestParameter, AutoAnalysis.Line1.Enabled, false
TestParameter, AutoAnalysis.Line1.Type, 1
TestParameter, AutoAnalysis.Line1.Fix, False
TestParameter, AutoAnalysis.Line1.YAxis, 0
TestParameter, AutoAnalysis.Line1.Point1.Type, 0
TestParameter, AutoAnalysis.Line1.Point1.XY.X, 
TestParameter, AutoAnalysis.Line1.Point1.XY.Y, 
TestParameter, AutoAnalysis.Line1.Point1.Data.Var, 
TestParameter, AutoAnalysis.Line1.Point1.Data.Condition, 
TestParameter, AutoAnalysis.Line1.Point1.Data.Start, false
TestParameter, AutoAnalysis.Line1.Point1.Data.StartVar, 
TestParameter, AutoAnalysis.Line1.Point1.Data.StartCondition, 
TestParameter, AutoAnalysis.Line1.Point2.Type, 0
TestParameter, AutoAnalysis.Line1.Point2.XY.X, 
TestParameter, AutoAnalysis.Line1.Point2.XY.Y, 
TestParameter, AutoAnalysis.Line1.Point2.Data.Var, 
TestParameter, AutoAnalysis.Line1.Point2.Data.Condition, 
TestParameter, AutoAnalysis.Line1.Point2.Data.Start, false
TestParameter, AutoAnalysis.Line1.Point2.Data.StartVar, 
TestParameter, AutoAnalysis.Line1.Point2.Data.StartCondition, 
TestParameter, AutoAnalysis.Line1.GradientExpr, 0
TestParameter, AutoAnalysis.Line2.Enabled, false
TestParameter, AutoAnalysis.Line2.Type, 1
TestParameter, AutoAnalysis.Line2.Fix, False
TestParameter, AutoAnalysis.Line2.YAxis, 0
TestParameter, AutoAnalysis.Line2.Point1.Type, 0
TestParameter, AutoAnalysis.Line2.Point1.XY.X, 
TestParameter, AutoAnalysis.Line2.Point1.XY.Y, 
TestParameter, AutoAnalysis.Line2.Point1.Data.Var, 
TestParameter, AutoAnalysis.Line2.Point1.Data.Condition, 
TestParameter, AutoAnalysis.Line2.Point1.Data.Start, false
TestParameter, AutoAnalysis.Line2.Point1.Data.StartVar, 
TestParameter, AutoAnalysis.Line2.Point1.Data.StartCondition, 
TestParameter, AutoAnalysis.Line2.Point2.Type, 0
TestParameter, AutoAnalysis.Line2.Point2.XY.X, 
TestParameter, AutoAnalysis.Line2.Point2.XY.Y, 
TestParameter, AutoAnalysis.Line2.Point2.Data.Var, 
TestParameter, AutoAnalysis.Line2.Point2.Data.Condition, 
TestParameter, AutoAnalysis.Line2.Point2.Data.Start, false
TestParameter, AutoAnalysis.Line2.Point2.Data.StartVar, 
TestParameter, AutoAnalysis.Line2.Point2.Data.StartCondition, 
TestParameter, AutoAnalysis.Line2.GradientExpr, 0
TestParameter, AutoAnalysis.Marker.Enabled, false
TestParameter, AutoAnalysis.Marker.Data.Var, 
TestParameter, AutoAnalysis.Marker.Data.Condition, 
TestParameter, AutoAnalysis.Marker.Data.Start, false
TestParameter, AutoAnalysis.Marker.Data.StartVar, 
TestParameter, AutoAnalysis.Marker.Data.StartCondition, 
MetaData, TestRecord.EntryPoint, false
MetaData, TestRecord.RecordTime, 03/04/2023 16:06:34
MetaData, TestRecord.TestTarget, 
MetaData, TestRecord.IterationIndex, 18
MetaData, TestRecord.Preservation, true
MetaData, TestRecord.Flag, 
MetaData, TestRecord.Remarks, 
MetaData, TestRecord.LinkKey, 80e3a422-25b4-4c42-97f1-948826053085
Dimension1, 21, 21, 21, 21
Dimension2, 1, 1, 1, 1
DataName, V1, I1, R, Rsheet
DataValue, 0, 8.1000000000000008E-14, 0, 0
DataValue, 0.05, 2.49E-13, 200803212851.40564, 20080321285.140564
DataValue, 0.1, 1.1500000000000002E-13, 869565217391.30432, 86956521739.130432
DataValue, 0.15, 3.5500000000000005E-13, 422535211267.60553, 42253521126.760544
DataValue, 0.2, 6.8E-13, 294117647058.82355, 29411764705.882355
DataValue, 0.25, 4.0700000000000003E-13, 614250614250.61426, 61425061425.061417
DataValue, 0.3, 1.0400000000000001E-13, 2884615384615.3843, 288461538461.53839
DataValue, 0.35000000000000003, -4.21E-13, -831353919239.905, -83135391923.9905
DataValue, 0.4, 5.12E-13, 781250000000, 78125000000
DataValue, 0.45, 7.8100000000000011E-13, 576184379001.2804, 57618437900.128036
DataValue, 0.5, 4.12E-13, 1213592233009.7087, 121359223300.97084
DataValue, 0.55, 7.03E-13, 782361308677.09814, 78236130867.709808
DataValue, 0.6, 3.9000000000000005E-13, 1538461538461.5381, 153846153846.15378
DataValue, 0.65, 4.1900000000000003E-13, 1551312649164.6777, 155131264916.46774
DataValue, 0.70000000000000007, 4.0200000000000005E-13, 1741293532338.3084, 174129353233.83081
DataValue, 0.75, 3.97E-13, 1889168765743.073, 188916876574.30728
DataValue, 0.8, 3.87E-13, 2067183462532.2998, 206718346253.22995
DataValue, 0.85000000000000009, 5.36E-13, 1585820895522.3882, 158582089552.2388
DataValue, 0.9, 1.09E-13, 8256880733944.9541, 825688073394.49524
DataValue, 0.95000000000000007, 6.4700000000000007E-13, 1468315301391.0354, 146831530139.10352
DataValue, 1, 4.46E-13, 2242152466367.7129, 224215246636.77124