
SetupTitle, R-V
ApplicationTest, R-V, Public
TestParameter, Name, Port1, Port2, V1Start, V1Stop, V1Step, V2, I1Limit, IntegTime, HoldTime, DelayTime, Port1MinRng
TestParameter, Value, SMU1:MP	MPSMU, SMU2:MP	MPSMU, 0, 1, 0.05, 0, 0.01, MEDIUM, 0, 0, 1nA
DutParameter, Name, L, W, Temp
DutParameter, Value, 1E-05, 1E-06, 25
MetaData, TestRecord.EntryPoint, true
MetaData, TestRecord.RecordTime, 03/04/2023 16:04:06
MetaData, TestRecord.TestTarget, 
MetaData, TestRecord.IterationIndex, 14
MetaData, TestRecord.Preservation, true
MetaData, TestRecord.Flag, 
MetaData, TestRecord.Remarks, 
MetaData, TestRecord.LinkKey, 2a0c696b-5aa6-41d4-aa64-cf0807509c57
Dimension1, 21, 21, 21, 21
Dimension2, 1, 1, 1, 1
DataName, V1, I1, R, Rsheet
DataValue, 0, -6.52951E-10, -0, -0
DataValue, 0.05, 1.6260600000000002E-06, 30749.172847250407, 3074.9172847250406
DataValue, 0.1, 3.2507700000000003E-06, 30761.942555148471, 3076.1942555148466
DataValue, 0.15, 4.8781000000000008E-06, 30749.677128390147, 3074.9677128390144
DataValue, 0.2, 6.502260000000001E-06, 30758.536262776324, 3075.853626277632
DataValue, 0.25, 8.1294100000000012E-06, 30752.539237164809, 3075.2539237164806
DataValue, 0.3, 9.7544600000000018E-06, 30755.162253984323, 3075.5162253984322
DataValue, 0.35000000000000003, 1.13821E-05, 30750.037339331055, 3075.0037339331052
DataValue, 0.4, 1.3007800000000001E-05, 30750.780301050137, 3075.0780301050131
DataValue, 0.45, 1.46323E-05, 30753.880114541116, 3075.3880114541112
DataValue, 0.5, 1.62596E-05, 30751.063986813944, 3075.1063986813938
DataValue, 0.55, 1.78851E-05, 30751.854895974866, 3075.1854895974861
DataValue, 0.6, 1.9510500000000002E-05, 30752.671638348576, 3075.267163834857
DataValue, 0.65, 2.11366E-05, 30752.344274859723, 3075.234427485972
DataValue, 0.70000000000000007, 2.27636E-05, 30750.847844804866, 3075.0847844804862
DataValue, 0.75, 2.4388400000000002E-05, 30752.324875760605, 3075.23248757606
DataValue, 0.8, 2.60147E-05, 30751.844149653851, 3075.1844149653848
DataValue, 0.85000000000000009, 2.7639500000000002E-05, 30753.088876426853, 3075.308887642685
DataValue, 0.9, 2.9267E-05, 30751.358184986504, 3075.1358184986498
DataValue, 0.95000000000000007, 3.08924E-05, 30751.90014372467, 3075.1900143724665
DataValue, 1, 3.2518E-05, 30752.198782212927, 3075.2198782212922
SetupTitle, R-V
PrimitiveTest, I/V Sweep
TestParameter, Context.MainFrame, B1500A
TestParameter, Channel.UnitType, SMU, SMU
TestParameter, Channel.Unit, Port1, Port2
TestParameter, Channel.IName, I1, I2
TestParameter, Channel.VName, V1, V2
TestParameter, Channel.Mode, V, V
TestParameter, Channel.Func, VAR1, CONST
TestParameter, Channel.Index, 
TestParameter, Channel.Time, 
TestParameter, Measurement.Port.Unit, Port1, Port2
TestParameter, Measurement.Port.SeriesResistor, NONE, NONE
TestParameter, Measurement.Port.Filter, OFF, OFF
TestParameter, Measurement.Port.OutputVoltageComparison, 0, 0
TestParameter, Measurement.Primary.Locus, Single
TestParameter, Measurement.Primary.Scale, LINEAR
TestParameter, Measurement.Primary.Start, V1Start
TestParameter, Measurement.Primary.Stop, V1Stop
TestParameter, Measurement.Primary.Step, V1Step
TestParameter, Measurement.Primary.Compliance, I1Limit
TestParameter, Measurement.Primary.PowerCompliance, 0
TestParameter, Measurement.Aborting.Condition, CONTINUE AT ANY
TestParameter, Measurement.PostOutput.Value, START
TestParameter, Measurement.PostOutput.Retention, OFF
TestParameter, Measurement.Bias.Source, 0, V2
TestParameter, Measurement.Bias.Compliance, 0.01, I1Limit
TestParameter, Measurement.Monitor.Unit, SMU:=Port1, SMU:=Port2
TestParameter, Measurement.Monitor.Adc, HR ADC, HR ADC
TestParameter, Measurement.Monitor.Measurement, Compliance Side, Compliance Side
TestParameter, Measurement.Monitor.RangingMode, LIMITED, LIMITED
TestParameter, Measurement.Monitor.RangeBoundary, Port1MinRng, 1nA
TestParameter, Measurement.Monitor.RangeRating, BY FULL RANGE, BY FULL RANGE
TestParameter, Measurement.Monitor.RangeRatingCoeff, 50, 50
TestParameter, Measurement.Timing.Hold, HoldTime
TestParameter, Measurement.Timing.Delay, DelayTime
TestParameter, Measurement.Adc.HighSpeed.Mode, AUTO
TestParameter, Measurement.Adc.HighSpeed.Coeff, 1
TestParameter, Measurement.Adc.HighResolution.AutoZero, ON
TestParameter, Measurement.Adc.HighResolution.Mode, IntegMode
TestParameter, Measurement.Adc.HighResolution.Coeff, AdcFactor
TestParameter, Measurement.WaitTime.Source.Coeff, 1
TestParameter, Measurement.WaitTime.Source.Offset, 0
TestParameter, Measurement.WaitTime.Monitor.Coeff, 1
TestParameter, Measurement.WaitTime.Monitor.Offset, 0
TestParameter, Function.User.Name, R, Rsheet
TestParameter, Function.User.Unit, ohm, ohm/sheet
TestParameter, Function.User.Definition, V1/I1, R*W/L
TestParameter, Output.Graph.Enabled, true
TestParameter, Output.Graph.AutoScaling, false
TestParameter, Output.Graph.XAxis.Data, V1
TestParameter, Output.Graph.XAxis.Scale, Linear
TestParameter, Output.Graph.XAxis.Left, V1Start
TestParameter, Output.Graph.XAxis.Right, V1Stop
TestParameter, Output.Graph.XAxis.RunTimeAutoScale, false
TestParameter, Output.Graph.YAxis.Data, R, I1
TestParameter, Output.Graph.YAxis.Scale, Linear, Linear
TestParameter, Output.Graph.YAxis.Bottom, 0, 0
TestParameter, Output.Graph.YAxis.Top, V1Stop/I1Limit, I1Limit
TestParameter, Output.Graph.YAxis.Group, , 
TestParameter, Output.Graph.YAxis.RunTimeAutoScale, false, false
TestParameter, Output.List.Data, V1, I1, R, Rsheet
TestParameter, AutoAnalysis.Interpolation, false
TestParameter, AutoAnalysis.Line1.Enabled, false
TestParameter, AutoAnalysis.Line1.Type, 1
TestParameter, AutoAnalysis.Line1.Fix, False
TestParameter, AutoAnalysis.Line1.YAxis, 0
TestParameter, AutoAnalysis.Line1.Point1.Type, 0
TestParameter, AutoAnalysis.Line1.Point1.XY.X, 
TestParameter, AutoAnalysis.Line1.Point1.XY.Y, 
TestParameter, AutoAnalysis.Line1.Point1.Data.Var, 
TestParameter, AutoAnalysis.Line1.Point1.Data.Condition, 
TestParameter, AutoAnalysis.Line1.Point1.Data.Start, false
TestParameter, AutoAnalysis.Line1.Point1.Data.StartVar, 
TestParameter, AutoAnalysis.Line1.Point1.Data.StartCondition, 
TestParameter, AutoAnalysis.Line1.Point2.Type, 0
TestParameter, AutoAnalysis.Line1.Point2.XY.X, 
TestParameter, AutoAnalysis.Line1.Point2.XY.Y, 
TestParameter, AutoAnalysis.Line1.Point2.Data.Var, 
TestParameter, AutoAnalysis.Line1.Point2.Data.Condition, 
TestParameter, AutoAnalysis.Line1.Point2.Data.Start, false
TestParameter, AutoAnalysis.Line1.Point2.Data.StartVar, 
TestParameter, AutoAnalysis.Line1.Point2.Data.StartCondition, 
TestParameter, AutoAnalysis.Line1.GradientExpr, 0
TestParameter, AutoAnalysis.Line2.Enabled, false
TestParameter, AutoAnalysis.Line2.Type, 1
TestParameter, AutoAnalysis.Line2.Fix, False
TestParameter, AutoAnalysis.Line2.YAxis, 0
TestParameter, AutoAnalysis.Line2.Point1.Type, 0
TestParameter, AutoAnalysis.Line2.Point1.XY.X, 
TestParameter, AutoAnalysis.Line2.Point1.XY.Y, 
TestParameter, AutoAnalysis.Line2.Point1.Data.Var, 
TestParameter, AutoAnalysis.Line2.Point1.Data.Condition, 
TestParameter, AutoAnalysis.Line2.Point1.Data.Start, false
TestParameter, AutoAnalysis.Line2.Point1.Data.StartVar, 
TestParameter, AutoAnalysis.Line2.Point1.Data.StartCondition, 
TestParameter, AutoAnalysis.Line2.Point2.Type, 0
TestParameter, AutoAnalysis.Line2.Point2.XY.X, 
TestParameter, AutoAnalysis.Line2.Point2.XY.Y, 
TestParameter, AutoAnalysis.Line2.Point2.Data.Var, 
TestParameter, AutoAnalysis.Line2.Point2.Data.Condition, 
TestParameter, AutoAnalysis.Line2.Point2.Data.Start, false
TestParameter, AutoAnalysis.Line2.Point2.Data.StartVar, 
TestParameter, AutoAnalysis.Line2.Point2.Data.StartCondition, 
TestParameter, AutoAnalysis.Line2.GradientExpr, 0
TestParameter, AutoAnalysis.Marker.Enabled, false
TestParameter, AutoAnalysis.Marker.Data.Var, 
TestParameter, AutoAnalysis.Marker.Data.Condition, 
TestParameter, AutoAnalysis.Marker.Data.Start, false
TestParameter, AutoAnalysis.Marker.Data.StartVar, 
TestParameter, AutoAnalysis.Marker.Data.StartCondition, 
MetaData, TestRecord.EntryPoint, false
MetaData, TestRecord.RecordTime, 03/04/2023 16:04:05
MetaData, TestRecord.TestTarget, 
MetaData, TestRecord.IterationIndex, 14
MetaData, TestRecord.Preservation, true
MetaData, TestRecord.Flag, 
MetaData, TestRecord.Remarks, 
MetaData, TestRecord.LinkKey, 2a0c696b-5aa6-41d4-aa64-cf0807509c57
Dimension1, 21, 21, 21, 21
Dimension2, 1, 1, 1, 1
DataName, V1, I1, R, Rsheet
DataValue, 0, -6.52951E-10, -0, -0
DataValue, 0.05, 1.6260600000000002E-06, 30749.172847250407, 3074.9172847250406
DataValue, 0.1, 3.2507700000000003E-06, 30761.942555148471, 3076.1942555148466
DataValue, 0.15, 4.8781000000000008E-06, 30749.677128390147, 3074.9677128390144
DataValue, 0.2, 6.502260000000001E-06, 30758.536262776324, 3075.853626277632
DataValue, 0.25, 8.1294100000000012E-06, 30752.539237164809, 3075.2539237164806
DataValue, 0.3, 9.7544600000000018E-06, 30755.162253984323, 3075.5162253984322
DataValue, 0.35000000000000003, 1.13821E-05, 30750.037339331055, 3075.0037339331052
DataValue, 0.4, 1.3007800000000001E-05, 30750.780301050137, 3075.0780301050131
DataValue, 0.45, 1.46323E-05, 30753.880114541116, 3075.3880114541112
DataValue, 0.5, 1.62596E-05, 30751.063986813944, 3075.1063986813938
DataValue, 0.55, 1.78851E-05, 30751.854895974866, 3075.1854895974861
DataValue, 0.6, 1.9510500000000002E-05, 30752.671638348576, 3075.267163834857
DataValue, 0.65, 2.11366E-05, 30752.344274859723, 3075.234427485972
DataValue, 0.70000000000000007, 2.27636E-05, 30750.847844804866, 3075.0847844804862
DataValue, 0.75, 2.4388400000000002E-05, 30752.324875760605, 3075.23248757606
DataValue, 0.8, 2.60147E-05, 30751.844149653851, 3075.1844149653848
DataValue, 0.85000000000000009, 2.7639500000000002E-05, 30753.088876426853, 3075.308887642685
DataValue, 0.9, 2.9267E-05, 30751.358184986504, 3075.1358184986498
DataValue, 0.95000000000000007, 3.08924E-05, 30751.90014372467, 3075.1900143724665
DataValue, 1, 3.2518E-05, 30752.198782212927, 3075.2198782212922