
SetupTitle, R-V
ApplicationTest, R-V, Public
TestParameter, Name, Port1, Port2, V1Start, V1Stop, V1Step, V2, I1Limit, IntegTime, HoldTime, DelayTime, Port1MinRng
TestParameter, Value, SMU1:MP	MPSMU, SMU2:MP	MPSMU, 0, 1, 0.05, 0, 0.01, MEDIUM, 0, 0, 1nA
DutParameter, Name, L, W, Temp
DutParameter, Value, 1E-05, 1E-06, 25
MetaData, TestRecord.EntryPoint, true
MetaData, TestRecord.RecordTime, 03/04/2023 15:59:51
MetaData, TestRecord.TestTarget, 
MetaData, TestRecord.IterationIndex, 11
MetaData, TestRecord.Preservation, true
MetaData, TestRecord.Flag, 
MetaData, TestRecord.Remarks, 
MetaData, TestRecord.LinkKey, f4ac3bb2-b078-4731-af4a-568650744596
Dimension1, 21, 21, 21, 21
Dimension2, 1, 1, 1, 1
DataName, V1, I1, R, Rsheet
DataValue, 0, -1.89E-13, -0, -0
DataValue, 0.05, 9.38E-13, 53304904051.172707, 5330490405.11727
DataValue, 0.1, 1.216E-12, 82236842105.263153, 8223684210.5263138
DataValue, 0.15, 1.5800000000000001E-12, 94936708860.759476, 9493670886.0759468
DataValue, 0.2, 1.665E-12, 120120120120.12012, 12012012012.012011
DataValue, 0.25, 2.072E-12, 120656370656.37065, 12065637065.637064
DataValue, 0.3, 2.4170000000000003E-12, 124120810922.63135, 12412081092.263132
DataValue, 0.35000000000000003, 2.5710000000000003E-12, 136133800077.79074, 13613380007.779074
DataValue, 0.4, 2.6090000000000003E-12, 153315446531.238, 15331544653.123798
DataValue, 0.45, 3.066E-12, 146771037181.99609, 14677103718.19961
DataValue, 0.5, 3.5200000000000003E-12, 142045454545.45453, 14204545454.545452
DataValue, 0.55, 3.58E-12, 153631284916.20111, 15363128491.62011
DataValue, 0.6, 3.897E-12, 153964588144.72672, 15396458814.47267
DataValue, 0.65, 4.5240000000000005E-12, 143678160919.54022, 14367816091.95402
DataValue, 0.70000000000000007, 4.3130000000000007E-12, 162300023185.71759, 16230002318.571756
DataValue, 0.75, 4.946E-12, 151637687019.814, 15163768701.981398
DataValue, 0.8, 5.062E-12, 158040300276.57053, 15804030027.657051
DataValue, 0.85000000000000009, 5.458E-12, 155734701355.80798, 15573470135.580797
DataValue, 0.9, 5.858E-12, 153636053260.49847, 15363605326.049847
DataValue, 0.95000000000000007, 6.3120000000000006E-12, 150506970849.17618, 15050697084.917616
DataValue, 1, 6.7770000000000007E-12, 147557916482.21927, 14755791648.221926
SetupTitle, R-V
PrimitiveTest, I/V Sweep
TestParameter, Context.MainFrame, B1500A
TestParameter, Channel.UnitType, SMU, SMU
TestParameter, Channel.Unit, Port1, Port2
TestParameter, Channel.IName, I1, I2
TestParameter, Channel.VName, V1, V2
TestParameter, Channel.Mode, V, V
TestParameter, Channel.Func, VAR1, CONST
TestParameter, Channel.Index, 
TestParameter, Channel.Time, 
TestParameter, Measurement.Port.Unit, Port1, Port2
TestParameter, Measurement.Port.SeriesResistor, NONE, NONE
TestParameter, Measurement.Port.Filter, OFF, OFF
TestParameter, Measurement.Port.OutputVoltageComparison, 0, 0
TestParameter, Measurement.Primary.Locus, Single
TestParameter, Measurement.Primary.Scale, LINEAR
TestParameter, Measurement.Primary.Start, V1Start
TestParameter, Measurement.Primary.Stop, V1Stop
TestParameter, Measurement.Primary.Step, V1Step
TestParameter, Measurement.Primary.Compliance, I1Limit
TestParameter, Measurement.Primary.PowerCompliance, 0
TestParameter, Measurement.Aborting.Condition, CONTINUE AT ANY
TestParameter, Measurement.PostOutput.Value, START
TestParameter, Measurement.PostOutput.Retention, OFF
TestParameter, Measurement.Bias.Source, 0, V2
TestParameter, Measurement.Bias.Compliance, 0.01, I1Limit
TestParameter, Measurement.Monitor.Unit, SMU:=Port1, SMU:=Port2
TestParameter, Measurement.Monitor.Adc, HR ADC, HR ADC
TestParameter, Measurement.Monitor.Measurement, Compliance Side, Compliance Side
TestParameter, Measurement.Monitor.RangingMode, LIMITED, LIMITED
TestParameter, Measurement.Monitor.RangeBoundary, Port1MinRng, 1nA
TestParameter, Measurement.Monitor.RangeRating, BY FULL RANGE, BY FULL RANGE
TestParameter, Measurement.Monitor.RangeRatingCoeff, 50, 50
TestParameter, Measurement.Timing.Hold, HoldTime
TestParameter, Measurement.Timing.Delay, DelayTime
TestParameter, Measurement.Adc.HighSpeed.Mode, AUTO
TestParameter, Measurement.Adc.HighSpeed.Coeff, 1
TestParameter, Measurement.Adc.HighResolution.AutoZero, ON
TestParameter, Measurement.Adc.HighResolution.Mode, IntegMode
TestParameter, Measurement.Adc.HighResolution.Coeff, AdcFactor
TestParameter, Measurement.WaitTime.Source.Coeff, 1
TestParameter, Measurement.WaitTime.Source.Offset, 0
TestParameter, Measurement.WaitTime.Monitor.Coeff, 1
TestParameter, Measurement.WaitTime.Monitor.Offset, 0
TestParameter, Function.User.Name, R, Rsheet
TestParameter, Function.User.Unit, ohm, ohm/sheet
TestParameter, Function.User.Definition, V1/I1, R*W/L
TestParameter, Output.Graph.Enabled, true
TestParameter, Output.Graph.AutoScaling, false
TestParameter, Output.Graph.XAxis.Data, V1
TestParameter, Output.Graph.XAxis.Scale, Linear
TestParameter, Output.Graph.XAxis.Left, V1Start
TestParameter, Output.Graph.XAxis.Right, V1Stop
TestParameter, Output.Graph.XAxis.RunTimeAutoScale, false
TestParameter, Output.Graph.YAxis.Data, R, I1
TestParameter, Output.Graph.YAxis.Scale, Linear, Linear
TestParameter, Output.Graph.YAxis.Bottom, 0, 0
TestParameter, Output.Graph.YAxis.Top, V1Stop/I1Limit, I1Limit
TestParameter, Output.Graph.YAxis.Group, , 
TestParameter, Output.Graph.YAxis.RunTimeAutoScale, false, false
TestParameter, Output.List.Data, V1, I1, R, Rsheet
TestParameter, AutoAnalysis.Interpolation, false
TestParameter, AutoAnalysis.Line1.Enabled, false
TestParameter, AutoAnalysis.Line1.Type, 1
TestParameter, AutoAnalysis.Line1.Fix, False
TestParameter, AutoAnalysis.Line1.YAxis, 0
TestParameter, AutoAnalysis.Line1.Point1.Type, 0
TestParameter, AutoAnalysis.Line1.Point1.XY.X, 
TestParameter, AutoAnalysis.Line1.Point1.XY.Y, 
TestParameter, AutoAnalysis.Line1.Point1.Data.Var, 
TestParameter, AutoAnalysis.Line1.Point1.Data.Condition, 
TestParameter, AutoAnalysis.Line1.Point1.Data.Start, false
TestParameter, AutoAnalysis.Line1.Point1.Data.StartVar, 
TestParameter, AutoAnalysis.Line1.Point1.Data.StartCondition, 
TestParameter, AutoAnalysis.Line1.Point2.Type, 0
TestParameter, AutoAnalysis.Line1.Point2.XY.X, 
TestParameter, AutoAnalysis.Line1.Point2.XY.Y, 
TestParameter, AutoAnalysis.Line1.Point2.Data.Var, 
TestParameter, AutoAnalysis.Line1.Point2.Data.Condition, 
TestParameter, AutoAnalysis.Line1.Point2.Data.Start, false
TestParameter, AutoAnalysis.Line1.Point2.Data.StartVar, 
TestParameter, AutoAnalysis.Line1.Point2.Data.StartCondition, 
TestParameter, AutoAnalysis.Line1.GradientExpr, 0
TestParameter, AutoAnalysis.Line2.Enabled, false
TestParameter, AutoAnalysis.Line2.Type, 1
TestParameter, AutoAnalysis.Line2.Fix, False
TestParameter, AutoAnalysis.Line2.YAxis, 0
TestParameter, AutoAnalysis.Line2.Point1.Type, 0
TestParameter, AutoAnalysis.Line2.Point1.XY.X, 
TestParameter, AutoAnalysis.Line2.Point1.XY.Y, 
TestParameter, AutoAnalysis.Line2.Point1.Data.Var, 
TestParameter, AutoAnalysis.Line2.Point1.Data.Condition, 
TestParameter, AutoAnalysis.Line2.Point1.Data.Start, false
TestParameter, AutoAnalysis.Line2.Point1.Data.StartVar, 
TestParameter, AutoAnalysis.Line2.Point1.Data.StartCondition, 
TestParameter, AutoAnalysis.Line2.Point2.Type, 0
TestParameter, AutoAnalysis.Line2.Point2.XY.X, 
TestParameter, AutoAnalysis.Line2.Point2.XY.Y, 
TestParameter, AutoAnalysis.Line2.Point2.Data.Var, 
TestParameter, AutoAnalysis.Line2.Point2.Data.Condition, 
TestParameter, AutoAnalysis.Line2.Point2.Data.Start, false
TestParameter, AutoAnalysis.Line2.Point2.Data.StartVar, 
TestParameter, AutoAnalysis.Line2.Point2.Data.StartCondition, 
TestParameter, AutoAnalysis.Line2.GradientExpr, 0
TestParameter, AutoAnalysis.Marker.Enabled, false
TestParameter, AutoAnalysis.Marker.Data.Var, 
TestParameter, AutoAnalysis.Marker.Data.Condition, 
TestParameter, AutoAnalysis.Marker.Data.Start, false
TestParameter, AutoAnalysis.Marker.Data.StartVar, 
TestParameter, AutoAnalysis.Marker.Data.StartCondition, 
MetaData, TestRecord.EntryPoint, false
MetaData, TestRecord.RecordTime, 03/04/2023 15:59:50
MetaData, TestRecord.TestTarget, 
MetaData, TestRecord.IterationIndex, 11
MetaData, TestRecord.Preservation, true
MetaData, TestRecord.Flag, 
MetaData, TestRecord.Remarks, 
MetaData, TestRecord.LinkKey, f4ac3bb2-b078-4731-af4a-568650744596
Dimension1, 21, 21, 21, 21
Dimension2, 1, 1, 1, 1
DataName, V1, I1, R, Rsheet
DataValue, 0, -1.89E-13, -0, -0
DataValue, 0.05, 9.38E-13, 53304904051.172707, 5330490405.11727
DataValue, 0.1, 1.216E-12, 82236842105.263153, 8223684210.5263138
DataValue, 0.15, 1.5800000000000001E-12, 94936708860.759476, 9493670886.0759468
DataValue, 0.2, 1.665E-12, 120120120120.12012, 12012012012.012011
DataValue, 0.25, 2.072E-12, 120656370656.37065, 12065637065.637064
DataValue, 0.3, 2.4170000000000003E-12, 124120810922.63135, 12412081092.263132
DataValue, 0.35000000000000003, 2.5710000000000003E-12, 136133800077.79074, 13613380007.779074
DataValue, 0.4, 2.6090000000000003E-12, 153315446531.238, 15331544653.123798
DataValue, 0.45, 3.066E-12, 146771037181.99609, 14677103718.19961
DataValue, 0.5, 3.5200000000000003E-12, 142045454545.45453, 14204545454.545452
DataValue, 0.55, 3.58E-12, 153631284916.20111, 15363128491.62011
DataValue, 0.6, 3.897E-12, 153964588144.72672, 15396458814.47267
DataValue, 0.65, 4.5240000000000005E-12, 143678160919.54022, 14367816091.95402
DataValue, 0.70000000000000007, 4.3130000000000007E-12, 162300023185.71759, 16230002318.571756
DataValue, 0.75, 4.946E-12, 151637687019.814, 15163768701.981398
DataValue, 0.8, 5.062E-12, 158040300276.57053, 15804030027.657051
DataValue, 0.85000000000000009, 5.458E-12, 155734701355.80798, 15573470135.580797
DataValue, 0.9, 5.858E-12, 153636053260.49847, 15363605326.049847
DataValue, 0.95000000000000007, 6.3120000000000006E-12, 150506970849.17618, 15050697084.917616
DataValue, 1, 6.7770000000000007E-12, 147557916482.21927, 14755791648.221926