
SetupTitle, ID-VG Postbreak
PrimitiveTest, I/V Sweep
TestParameter, Context.MainFrame, B1500A
TestParameter, Channel.UnitType, SMU, SMU
TestParameter, Channel.Unit, SMU1:MP, SMU2:MP
TestParameter, Channel.IName, I1, I2
TestParameter, Channel.VName, V1, V2
TestParameter, Channel.Mode, V, V
TestParameter, Channel.Func, VAR1, CONST
TestParameter, Channel.Index, 
TestParameter, Channel.Time, 
TestParameter, Measurement.Port.Unit, SMU1:MP, SMU2:MP
TestParameter, Measurement.Port.SeriesResistor, NONE, NONE
TestParameter, Measurement.Port.Filter, ON, ON
TestParameter, Measurement.Port.OutputVoltageComparison, 0, 0
TestParameter, Measurement.Primary.Locus, Double
TestParameter, Measurement.Primary.Scale, LINEAR
TestParameter, Measurement.Primary.Start, -2
TestParameter, Measurement.Primary.Stop, 6
TestParameter, Measurement.Primary.Step, 0.04
TestParameter, Measurement.Primary.Compliance, 0.1
TestParameter, Measurement.Primary.PowerCompliance, 0
TestParameter, Measurement.Aborting.Condition, CONTINUE AT ANY
TestParameter, Measurement.PostOutput.Value, START
TestParameter, Measurement.PostOutput.Retention, OFF
TestParameter, Measurement.Bias.Source, -2, 0.25
TestParameter, Measurement.Bias.Compliance, 0.1, 0.1
TestParameter, Measurement.Monitor.Unit, SMU1:MP, SMU2:MP
TestParameter, Measurement.Monitor.Adc, HR ADC, HR ADC
TestParameter, Measurement.Monitor.Measurement, Compliance Side, Compliance Side
TestParameter, Measurement.Monitor.RangingMode, LIMITED, LIMITED
TestParameter, Measurement.Monitor.RangeBoundary, 1nA, 1nA
TestParameter, Measurement.Monitor.RangeRating, BY FULL RANGE, BY FULL RANGE
TestParameter, Measurement.Monitor.RangeRatingCoeff, 50, 50
TestParameter, Measurement.Timing.Hold, 0
TestParameter, Measurement.Timing.Delay, 0
TestParameter, Measurement.Adc.HighSpeed.Mode, AUTO
TestParameter, Measurement.Adc.HighSpeed.Coeff, 1
TestParameter, Measurement.Adc.HighResolution.AutoZero, OFF
TestParameter, Measurement.Adc.HighResolution.Mode, AUTO
TestParameter, Measurement.Adc.HighResolution.Coeff, 6
TestParameter, Measurement.WaitTime.Source.Coeff, 1
TestParameter, Measurement.WaitTime.Source.Offset, 0
TestParameter, Measurement.WaitTime.Monitor.Coeff, 1
TestParameter, Measurement.WaitTime.Monitor.Offset, 0
TestParameter, Output.Graph.Enabled, true
TestParameter, Output.Graph.AutoScaling, false
TestParameter, Output.Graph.XAxis.Data, V1
TestParameter, Output.Graph.XAxis.Scale, Linear
TestParameter, Output.Graph.XAxis.Left, -2
TestParameter, Output.Graph.XAxis.Right, 6
TestParameter, Output.Graph.XAxis.RunTimeAutoScale, true
TestParameter, Output.Graph.YAxis.Data, I2
TestParameter, Output.Graph.YAxis.Scale, Linear
TestParameter, Output.Graph.YAxis.Bottom, -0.1
TestParameter, Output.Graph.YAxis.Top, 0.1
TestParameter, Output.Graph.YAxis.Group, 
TestParameter, Output.Graph.YAxis.RunTimeAutoScale, true
TestParameter, Output.List.Data, V1, I1, V2, I2, V3, I3, V4, I4
TestParameter, AutoAnalysis.Interpolation, false
TestParameter, AutoAnalysis.Line1.Enabled, false
TestParameter, AutoAnalysis.Line1.Type, 1
TestParameter, AutoAnalysis.Line1.Fix, True
TestParameter, AutoAnalysis.Line1.YAxis, 0
TestParameter, AutoAnalysis.Line1.Point1.Type, 0
TestParameter, AutoAnalysis.Line1.Point1.XY.X, 
TestParameter, AutoAnalysis.Line1.Point1.XY.Y, 
TestParameter, AutoAnalysis.Line1.Point1.Data.Var, 
TestParameter, AutoAnalysis.Line1.Point1.Data.Condition, 
TestParameter, AutoAnalysis.Line1.Point1.Data.Start, false
TestParameter, AutoAnalysis.Line1.Point1.Data.StartVar, 
TestParameter, AutoAnalysis.Line1.Point1.Data.StartCondition, 
TestParameter, AutoAnalysis.Line1.Point2.Type, 0
TestParameter, AutoAnalysis.Line1.Point2.XY.X, 
TestParameter, AutoAnalysis.Line1.Point2.XY.Y, 
TestParameter, AutoAnalysis.Line1.Point2.Data.Var, 
TestParameter, AutoAnalysis.Line1.Point2.Data.Condition, 
TestParameter, AutoAnalysis.Line1.Point2.Data.Start, false
TestParameter, AutoAnalysis.Line1.Point2.Data.StartVar, 
TestParameter, AutoAnalysis.Line1.Point2.Data.StartCondition, 
TestParameter, AutoAnalysis.Line1.GradientExpr, 0
TestParameter, AutoAnalysis.Line2.Enabled, false
TestParameter, AutoAnalysis.Line2.Type, 1
TestParameter, AutoAnalysis.Line2.Fix, True
TestParameter, AutoAnalysis.Line2.YAxis, 0
TestParameter, AutoAnalysis.Line2.Point1.Type, 0
TestParameter, AutoAnalysis.Line2.Point1.XY.X, 
TestParameter, AutoAnalysis.Line2.Point1.XY.Y, 
TestParameter, AutoAnalysis.Line2.Point1.Data.Var, 
TestParameter, AutoAnalysis.Line2.Point1.Data.Condition, 
TestParameter, AutoAnalysis.Line2.Point1.Data.Start, false
TestParameter, AutoAnalysis.Line2.Point1.Data.StartVar, 
TestParameter, AutoAnalysis.Line2.Point1.Data.StartCondition, 
TestParameter, AutoAnalysis.Line2.Point2.Type, 0
TestParameter, AutoAnalysis.Line2.Point2.XY.X, 
TestParameter, AutoAnalysis.Line2.Point2.XY.Y, 
TestParameter, AutoAnalysis.Line2.Point2.Data.Var, 
TestParameter, AutoAnalysis.Line2.Point2.Data.Condition, 
TestParameter, AutoAnalysis.Line2.Point2.Data.Start, false
TestParameter, AutoAnalysis.Line2.Point2.Data.StartVar, 
TestParameter, AutoAnalysis.Line2.Point2.Data.StartCondition, 
TestParameter, AutoAnalysis.Line2.GradientExpr, 0
TestParameter, AutoAnalysis.Marker.Enabled, false
TestParameter, AutoAnalysis.Marker.Data.Var, 
TestParameter, AutoAnalysis.Marker.Data.Condition, 
TestParameter, AutoAnalysis.Marker.Data.Start, false
TestParameter, AutoAnalysis.Marker.Data.StartVar, 
TestParameter, AutoAnalysis.Marker.Data.StartCondition, 
MetaData, TestRecord.EntryPoint, true
MetaData, TestRecord.RecordTime, 03/10/2023 16:41:28
MetaData, TestRecord.TestTarget, 
MetaData, TestRecord.IterationIndex, 22
MetaData, TestRecord.Preservation, true
MetaData, TestRecord.Flag, 
MetaData, TestRecord.Remarks, 
MetaData, TestRecord.LinkKey, 12a56b4f-c813-4d3d-bdbe-858d6a35cc6e
Dimension1, 402, 402, 402, 402, 402, 402, 402, 402
Dimension2, 1, 1, 1, 1, 1, 1, 1, 1
DataName, V1, V2, I1, I2, V3, I3, V4, I4
DataValue, -2, 0.25, -5.7300000000000008E-12, 6.2200000000000006E-12, , , , 
DataValue, -1.96, 0.25, -3.5500000000000004E-12, 7.16E-12, , , , 
DataValue, -1.92, 0.25, -2.29E-12, 6.76E-12, , , , 
DataValue, -1.8800000000000001, 0.25, -1.83E-12, 6.04E-12, , , , 
DataValue, -1.84, 0.25, -2.8400000000000004E-12, 5.44E-12, , , , 
DataValue, -1.8, 0.25, -1.86E-12, 7.9900000000000013E-12, , , , 
DataValue, -1.76, 0.25, -1.7700000000000001E-12, 6.7900000000000008E-12, , , , 
DataValue, -1.72, 0.25, -1.7100000000000002E-12, 6.3800000000000007E-12, , , , 
DataValue, -1.68, 0.25, -6.9000000000000009E-13, 4.74E-12, , , , 
DataValue, -1.6400000000000001, 0.25, -1.51E-12, 6.3E-12, , , , 
DataValue, -1.6, 0.25, -9.000000000000001E-13, 7.43E-12, , , , 
DataValue, -1.56, 0.25, -9.7000000000000011E-13, 6.1600000000000004E-12, , , , 
DataValue, -1.52, 0.25, -8E-13, 5.48E-12, , , , 
DataValue, -1.48, 0.25, -8.300000000000001E-13, 5.34E-12, , , , 
DataValue, -1.44, 0.25, -4E-13, 6.2400000000000009E-12, , , , 
DataValue, -1.4000000000000001, 0.25, -3.8000000000000005E-13, 6.5400000000000008E-12, , , , 
DataValue, -1.36, 0.25, -4.3000000000000004E-13, 5.8300000000000008E-12, , , , 
DataValue, -1.32, 0.25, 3.0000000000000005E-14, 4.82E-12, , , , 
DataValue, -1.28, 0.25, -1.13E-12, 6.0700000000000006E-12, , , , 
DataValue, -1.24, 0.25, -2.4000000000000004E-13, 6.5700000000000005E-12, , , , 
DataValue, -1.2, 0.25, -1.5000000000000002E-13, 6.2200000000000006E-12, , , , 
DataValue, -1.16, 0.25, 1.2000000000000002E-13, 5.39E-12, , , , 
DataValue, -1.12, 0.25, -1E-13, 5.49E-12, , , , 
DataValue, -1.08, 0.25, 8.0000000000000013E-14, 6.3E-12, , , , 
DataValue, -1.04, 0.25, -4.0000000000000006E-14, 6.2800000000000007E-12, , , , 
DataValue, -1, 0.25, 3.0000000000000005E-14, 6.26E-12, , , , 
DataValue, -0.96, 0.25, -1.0000000000000002E-14, 5.04E-12, , , , 
DataValue, -0.92, 0.25, -1E-13, 6.46E-12, , , , 
DataValue, -0.88, 0.25, 8.2E-13, 6.8200000000000004E-12, , , , 
DataValue, -0.84, 0.25, -2E-13, 5.53E-12, , , , 
DataValue, -0.8, 0.25, 7.100000000000001E-13, 4.4500000000000006E-12, , , , 
DataValue, -0.76, 0.25, 2.4000000000000004E-13, 5.0600000000000007E-12, , , , 
DataValue, -0.72, 0.25, 2.8E-13, 6.3700000000000005E-12, , , , 
DataValue, -0.68, 0.25, -1.6000000000000003E-13, 6.56E-12, , , , 
DataValue, -0.64, 0.25, 5.9E-13, 5.4200000000000007E-12, , , , 
DataValue, -0.6, 0.25, 4E-13, 4.37E-12, , , , 
DataValue, -0.56, 0.25, 7.7000000000000005E-13, 5.8E-12, , , , 
DataValue, -0.52, 0.25, 9.7000000000000011E-13, 6.7700000000000004E-12, , , , 
DataValue, -0.48, 0.25, 4.6000000000000006E-13, 5.8300000000000008E-12, , , , 
DataValue, -0.44, 0.25, 9.5E-13, 4.12E-12, , , , 
DataValue, -0.4, 0.25, 1.8000000000000002E-13, 5.5E-12, , , , 
DataValue, -0.36, 0.25, 1.0600000000000001E-12, 6.35E-12, , , , 
DataValue, -0.32, 0.25, 2.6E-13, 5.84E-12, , , , 
DataValue, -0.28, 0.25, 8.300000000000001E-13, 5.9200000000000006E-12, , , , 
DataValue, -0.24, 0.25, 5E-13, 4.2400000000000005E-12, , , , 
DataValue, -0.2, 0.25, 8.5000000000000011E-13, 6.25E-12, , , , 
DataValue, -0.16, 0.25, 1.8400000000000002E-12, 6.15E-12, , , , 
DataValue, -0.12, 0.25, 4.2000000000000003E-13, 5.1500000000000005E-12, , , , 
DataValue, -0.08, 0.25, 7.9000000000000007E-13, 4.8100000000000007E-12, , , , 
DataValue, -0.04, 0.25, 5.4E-13, 5.13E-12, , , , 
DataValue, 0, 0.25, 1.2500000000000001E-12, 6.6400000000000008E-12, , , , 
DataValue, 0.04, 0.25, 1.18E-12, 5.69E-12, , , , 
DataValue, 0.08, 0.25, 1.4400000000000001E-12, 4.2900000000000005E-12, , , , 
DataValue, 0.12, 0.25, 1.2900000000000002E-12, 4.73E-12, , , , 
DataValue, 0.16, 0.25, 1.69E-12, 6.45E-12, , , , 
DataValue, 0.2, 0.25, 1.5800000000000001E-12, 6.9300000000000006E-12, , , , 
DataValue, 0.24, 0.25, 1.08E-12, 6.3E-12, , , , 
DataValue, 0.28, 0.25, 1.36E-12, 5.79E-12, , , , 
DataValue, 0.32, 0.25, 1.5300000000000001E-12, 5.18E-12, , , , 
DataValue, 0.36, 0.25, 1.55E-12, 6.51E-12, , , , 
DataValue, 0.4, 0.25, 1.1100000000000001E-12, 6.8200000000000004E-12, , , , 
DataValue, 0.44, 0.25, 1.7600000000000002E-12, 5.3600000000000006E-12, , , , 
DataValue, 0.48, 0.25, 1.3500000000000001E-12, 4.0500000000000007E-12, , , , 
DataValue, 0.52, 0.25, 1.4900000000000001E-12, 6.2200000000000006E-12, , , , 
DataValue, 0.56, 0.25, 1.65E-12, 6.8500000000000009E-12, , , , 
DataValue, 0.6, 0.25, 1.41E-12, 6E-12, , , , 
DataValue, 0.64, 0.25, 1.8000000000000002E-12, 4.98E-12, , , , 
DataValue, 0.68, 0.25, 1.14E-12, 4.6400000000000004E-12, , , , 
DataValue, 0.72, 0.25, 1.31E-12, 7.0000000000000009E-12, , , , 
DataValue, 0.76, 0.25, 1.5800000000000001E-12, 6.1800000000000007E-12, , , , 
DataValue, 0.8, 0.25, 1.8900000000000002E-12, 6E-12, , , , 
DataValue, 0.84, 0.25, 1.8100000000000002E-12, 5.6E-12, , , , 
DataValue, 0.88, 0.25, 1.59E-12, 7.21E-12, , , , 
DataValue, 0.92, 0.25, 1.51E-12, 7.52E-12, , , , 
DataValue, 0.96, 0.25, 1.6600000000000002E-12, 7.8600000000000008E-12, , , , 
DataValue, 1, 0.25, 2.03E-12, 8.2700000000000009E-12, , , , 
DataValue, 1.04, 0.25, 1.5400000000000001E-12, 9.86E-12, , , , 
DataValue, 1.08, 0.25, 2.16E-12, 1.2E-11, , , , 
DataValue, 1.12, 0.25, 1.7500000000000002E-12, 1.402E-11, , , , 
DataValue, 1.16, 0.25, 2.34E-12, 1.6340000000000002E-11, , , , 
DataValue, 1.2, 0.25, 2.97E-12, 2.07E-11, , , , 
DataValue, 1.24, 0.25, 1.1100000000000001E-12, 2.9190000000000005E-11, , , , 
DataValue, 1.28, 0.25, 2.2500000000000003E-12, 3.827E-11, , , , 
DataValue, 1.32, 0.25, 2.2700000000000002E-12, 5.007E-11, , , , 
DataValue, 1.36, 0.25, 2.13E-12, 6.763E-11, , , , 
DataValue, 1.4000000000000001, 0.25, 1.74E-12, 9.239E-11, , , , 
DataValue, 1.44, 0.25, 2.08E-12, 1.2856000000000002E-10, , , , 
DataValue, 1.48, 0.25, 2.5500000000000002E-12, 1.7742000000000002E-10, , , , 
DataValue, 1.52, 0.25, 2.13E-12, 2.4587E-10, , , , 
DataValue, 1.56, 0.25, 1.74E-12, 3.4273E-10, , , , 
DataValue, 1.6, 0.25, 1.8200000000000003E-12, 4.7933E-10, , , , 
DataValue, 1.6400000000000001, 0.25, 2.41E-12, 6.6887000000000009E-10, , , , 
DataValue, 1.68, 0.25, 1.6800000000000001E-12, 9.3785E-10, , , , 
DataValue, 1.72, 0.25, 2.34E-12, 1.5329E-09, , , , 
DataValue, 1.76, 0.25, 2.39E-12, 2.0817E-09, , , , 
DataValue, 1.8, 0.25, 2.34E-12, 2.8395E-09, , , , 
DataValue, 1.84, 0.25, 2.09E-12, 3.9026E-09, , , , 
DataValue, 1.8800000000000001, 0.25, 1.6300000000000001E-12, 5.361E-09, , , , 
DataValue, 1.92, 0.25, 2.2000000000000003E-12, 7.3254E-09, , , , 
DataValue, 1.96, 0.25, 2.4300000000000003E-12, 1.00266E-08, , , , 
DataValue, 2, 0.25, 2.5500000000000002E-12, 1.4227199999999998E-08, , , , 
DataValue, 2.04, 0.25, 2.4300000000000003E-12, 1.9258199999999997E-08, , , , 
DataValue, 2.08, 0.25, 1.69E-12, 2.5917199999999997E-08, , , , 
DataValue, 2.12, 0.25, 3.0300000000000002E-12, 3.4503999999999996E-08, , , , 
DataValue, 2.16, 0.25, 3.3600000000000002E-12, 4.5534799999999993E-08, , , , 
DataValue, 2.2, 0.25, 2.5000000000000003E-12, 5.9486999999999995E-08, , , , 
DataValue, 2.24, 0.25, 1.98E-12, 7.71774E-08, , , , 
DataValue, 2.2800000000000002, 0.25, 1.9200000000000003E-12, 9.88802E-08, , , , 
DataValue, 2.32, 0.25, 2.46E-12, 1.248E-07, , , , 
DataValue, 2.36, 0.25, 2.7600000000000004E-12, 1.5414E-07, , , , 
DataValue, 2.4, 0.25, 2.57E-12, 1.8986E-07, , , , 
DataValue, 2.44, 0.25, 2.69E-12, 2.317E-07, , , , 
DataValue, 2.48, 0.25, 2.95E-12, 2.8048E-07, , , , 
DataValue, 2.52, 0.25, 2.8300000000000003E-12, 3.3894E-07, , , , 
DataValue, 2.56, 0.25, 2.64E-12, 4.0454E-07, , , , 
DataValue, 2.6, 0.25, 2.5300000000000003E-12, 4.7998E-07, , , , 
DataValue, 2.64, 0.25, 2.8900000000000004E-12, 5.6638E-07, , , , 
DataValue, 2.68, 0.25, 2.7000000000000002E-12, 6.6334E-07, , , , 
DataValue, 2.72, 0.25, 2.8400000000000004E-12, 7.7016E-07, , , , 
DataValue, 2.7600000000000002, 0.25, 2.85E-12, 8.9164E-07, , , , 
DataValue, 2.8000000000000003, 0.25, 3.4200000000000004E-12, 1.0274E-06, , , , 
DataValue, 2.84, 0.25, 2.8E-12, 1.3223E-06, , , , 
DataValue, 2.88, 0.25, 3.15E-12, 1.4778E-06, , , , 
DataValue, 2.92, 0.25, 2.92E-12, 1.6511000000000002E-06, , , , 
DataValue, 2.96, 0.25, 2.5000000000000003E-12, 1.8400000000000002E-06, , , , 
DataValue, 3, 0.25, 3.53E-12, 2.0447E-06, , , , 
DataValue, 3.04, 0.25, 3.1100000000000003E-12, 2.2655E-06, , , , 
DataValue, 3.08, 0.25, 3.2600000000000002E-12, 2.4991000000000003E-06, , , , 
DataValue, 3.12, 0.25, 3.66E-12, 2.7488000000000003E-06, , , , 
DataValue, 3.16, 0.25, 3.0800000000000002E-12, 3.0110000000000005E-06, , , , 
DataValue, 3.2, 0.25, 3.3100000000000002E-12, 3.2888E-06, , , , 
DataValue, 3.24, 0.25, 3.6400000000000006E-12, 3.5776000000000003E-06, , , , 
DataValue, 3.2800000000000002, 0.25, 3.7300000000000005E-12, 3.8826000000000007E-06, , , , 
DataValue, 3.3200000000000003, 0.25, 4.26E-12, 4.1950000000000005E-06, , , , 
DataValue, 3.36, 0.25, 3.4900000000000003E-12, 4.5161000000000007E-06, , , , 
DataValue, 3.4, 0.25, 3.07E-12, 4.8465E-06, , , , 
DataValue, 3.44, 0.25, 4.3000000000000007E-12, 5.1890000000000006E-06, , , , 
DataValue, 3.48, 0.25, 3.66E-12, 5.5410000000000008E-06, , , , 
DataValue, 3.52, 0.25, 3.53E-12, 5.895700000000001E-06, , , , 
DataValue, 3.56, 0.25, 3.97E-12, 6.2574000000000004E-06, , , , 
DataValue, 3.6, 0.25, 3.5700000000000003E-12, 6.6243E-06, , , , 
DataValue, 3.64, 0.25, 3.4100000000000002E-12, 6.9993000000000009E-06, , , , 
DataValue, 3.68, 0.25, 3.8400000000000006E-12, 7.3828000000000007E-06, , , , 
DataValue, 3.72, 0.25, 3.85E-12, 7.7718E-06, , , , 
DataValue, 3.7600000000000002, 0.25, 4.3000000000000007E-12, 8.1665E-06, , , , 
DataValue, 3.8000000000000003, 0.25, 4.5400000000000004E-12, 8.5607000000000009E-06, , , , 
DataValue, 3.84, 0.25, 3.2400000000000003E-12, 8.9528E-06, , , , 
DataValue, 3.88, 0.25, 3.91E-12, 9.3489000000000012E-06, , , , 
DataValue, 3.92, 0.25, 4.99E-12, 9.754400000000001E-06, , , , 
DataValue, 3.96, 0.25, 4.17E-12, 1.0164800000000001E-05, , , , 
DataValue, 4, 0.25, 4.5000000000000006E-12, 1.0573E-05, , , , 
DataValue, 4.04, 0.25, 4.67E-12, 1.0982000000000001E-05, , , , 
DataValue, 4.08, 0.25, 3.56E-12, 1.1391500000000001E-05, , , , 
DataValue, 4.12, 0.25, 4.6600000000000007E-12, 1.2012000000000001E-05, , , , 
DataValue, 4.16, 0.25, 4.73E-12, 1.2396000000000001E-05, , , , 
DataValue, 4.2, 0.25, 4.5500000000000006E-12, 1.2784E-05, , , , 
DataValue, 4.24, 0.25, 4.5000000000000006E-12, 1.3178E-05, , , , 
DataValue, 4.28, 0.25, 4.83E-12, 1.3574E-05, , , , 
DataValue, 4.32, 0.25, 4.63E-12, 1.3968E-05, , , , 
DataValue, 4.36, 0.25, 4.3000000000000007E-12, 1.4366000000000001E-05, , , , 
DataValue, 4.4, 0.25, 4.88E-12, 1.4764000000000001E-05, , , , 
DataValue, 4.44, 0.25, 4.4900000000000005E-12, 1.5162E-05, , , , 
DataValue, 4.48, 0.25, 4.79E-12, 1.5562E-05, , , , 
DataValue, 4.5200000000000005, 0.25, 4.99E-12, 1.596E-05, , , , 
DataValue, 4.5600000000000005, 0.25, 5.9300000000000008E-12, 1.636E-05, , , , 
DataValue, 4.6000000000000005, 0.25, 5.2100000000000006E-12, 1.6756E-05, , , , 
DataValue, 4.64, 0.25, 5.19E-12, 1.7148E-05, , , , 
DataValue, 4.68, 0.25, 6.25E-12, 1.7528000000000002E-05, , , , 
DataValue, 4.72, 0.25, 5.03E-12, 1.7918E-05, , , , 
DataValue, 4.76, 0.25, 5.23E-12, 1.83E-05, , , , 
DataValue, 4.8, 0.25, 5.54E-12, 1.8676000000000002E-05, , , , 
DataValue, 4.84, 0.25, 6.2800000000000007E-12, 1.9050000000000002E-05, , , , 
DataValue, 4.88, 0.25, 5.9800000000000008E-12, 1.9424E-05, , , , 
DataValue, 4.92, 0.25, 6.0300000000000008E-12, 1.98E-05, , , , 
DataValue, 4.96, 0.25, 5.1000000000000005E-12, 2.0170000000000002E-05, , , , 
DataValue, 5, 0.25, 5.5600000000000005E-12, 2.0538000000000002E-05, , , , 
DataValue, 5.04, 0.25, 5.8800000000000008E-12, 2.0898000000000002E-05, , , , 
DataValue, 5.08, 0.25, 5.7800000000000008E-12, 2.126E-05, , , , 
DataValue, 5.12, 0.25, 5.95E-12, 2.1618000000000002E-05, , , , 
DataValue, 5.16, 0.25, 6.36E-12, 2.197E-05, , , , 
DataValue, 5.2, 0.25, 6.4E-12, 2.2322E-05, , , , 
DataValue, 5.24, 0.25, 6.8700000000000004E-12, 2.2666E-05, , , , 
DataValue, 5.28, 0.25, 6.1600000000000004E-12, 2.3008E-05, , , , 
DataValue, 5.32, 0.25, 6.1200000000000006E-12, 2.3344000000000002E-05, , , , 
DataValue, 5.36, 0.25, 6.65E-12, 2.3676E-05, , , , 
DataValue, 5.4, 0.25, 7.53E-12, 2.4004E-05, , , , 
DataValue, 5.44, 0.25, 6.7800000000000006E-12, 2.4328E-05, , , , 
DataValue, 5.48, 0.25, 7.21E-12, 2.4648000000000002E-05, , , , 
DataValue, 5.5200000000000005, 0.25, 6.5800000000000006E-12, 2.4958E-05, , , , 
DataValue, 5.5600000000000005, 0.25, 7.34E-12, 2.5274000000000002E-05, , , , 
DataValue, 5.6000000000000005, 0.25, 7.11E-12, 2.5584E-05, , , , 
DataValue, 5.64, 0.25, 7.9900000000000013E-12, 2.5886000000000003E-05, , , , 
DataValue, 5.68, 0.25, 7.8E-12, 2.6186E-05, , , , 
DataValue, 5.72, 0.25, 7.9E-12, 2.6484000000000003E-05, , , , 
DataValue, 5.76, 0.25, 7.84E-12, 2.678E-05, , , , 
DataValue, 5.8, 0.25, 7.8800000000000012E-12, 2.7066E-05, , , , 
DataValue, 5.84, 0.25, 7.870000000000001E-12, 2.735E-05, , , , 
DataValue, 5.88, 0.25, 8.46E-12, 2.7628E-05, , , , 
DataValue, 5.92, 0.25, 8.8900000000000011E-12, 2.7906E-05, , , , 
DataValue, 5.96, 0.25, 8.16E-12, 2.8176000000000003E-05, , , , 
DataValue, 6, 0.25, 8.7900000000000011E-12, 2.845E-05, , , , 
DataValue, 6, 0.25, 7.870000000000001E-12, 2.8482E-05, , , , 
DataValue, 5.96, 0.25, 7.81E-12, 2.852E-05, , , , 
DataValue, 5.92, 0.25, 7.52E-12, 2.8480000000000002E-05, , , , 
DataValue, 5.88, 0.25, 6.8800000000000006E-12, 2.8382E-05, , , , 
DataValue, 5.84, 0.25, 6.3400000000000009E-12, 2.8236000000000002E-05, , , , 
DataValue, 5.8, 0.25, 6.14E-12, 2.807E-05, , , , 
DataValue, 5.76, 0.25, 6.26E-12, 2.7874E-05, , , , 
DataValue, 5.72, 0.25, 5.34E-12, 2.7662E-05, , , , 
DataValue, 5.68, 0.25, 4.3500000000000006E-12, 2.7444E-05, , , , 
