
SetupTitle, ID-VG Postbreak
PrimitiveTest, I/V Sweep
TestParameter, Context.MainFrame, B1500A
TestParameter, Channel.UnitType, SMU, SMU
TestParameter, Channel.Unit, SMU1:MP, SMU2:MP
TestParameter, Channel.IName, I1, I2
TestParameter, Channel.VName, V1, V2
TestParameter, Channel.Mode, V, V
TestParameter, Channel.Func, VAR1, CONST
TestParameter, Channel.Index, 
TestParameter, Channel.Time, 
TestParameter, Measurement.Port.Unit, SMU1:MP, SMU2:MP
TestParameter, Measurement.Port.SeriesResistor, NONE, NONE
TestParameter, Measurement.Port.Filter, ON, ON
TestParameter, Measurement.Port.OutputVoltageComparison, 0, 0
TestParameter, Measurement.Primary.Locus, Double
TestParameter, Measurement.Primary.Scale, LINEAR
TestParameter, Measurement.Primary.Start, -2
TestParameter, Measurement.Primary.Stop, 6
TestParameter, Measurement.Primary.Step, 0.04
TestParameter, Measurement.Primary.Compliance, 0.1
TestParameter, Measurement.Primary.PowerCompliance, 0
TestParameter, Measurement.Aborting.Condition, CONTINUE AT ANY
TestParameter, Measurement.PostOutput.Value, START
TestParameter, Measurement.PostOutput.Retention, OFF
TestParameter, Measurement.Bias.Source, -2, 0.25
TestParameter, Measurement.Bias.Compliance, 0.1, 0.1
TestParameter, Measurement.Monitor.Unit, SMU1:MP, SMU2:MP
TestParameter, Measurement.Monitor.Adc, HR ADC, HR ADC
TestParameter, Measurement.Monitor.Measurement, Compliance Side, Compliance Side
TestParameter, Measurement.Monitor.RangingMode, LIMITED, LIMITED
TestParameter, Measurement.Monitor.RangeBoundary, 1nA, 1nA
TestParameter, Measurement.Monitor.RangeRating, BY FULL RANGE, BY FULL RANGE
TestParameter, Measurement.Monitor.RangeRatingCoeff, 50, 50
TestParameter, Measurement.Timing.Hold, 0
TestParameter, Measurement.Timing.Delay, 0
TestParameter, Measurement.Adc.HighSpeed.Mode, AUTO
TestParameter, Measurement.Adc.HighSpeed.Coeff, 1
TestParameter, Measurement.Adc.HighResolution.AutoZero, OFF
TestParameter, Measurement.Adc.HighResolution.Mode, AUTO
TestParameter, Measurement.Adc.HighResolution.Coeff, 6
TestParameter, Measurement.WaitTime.Source.Coeff, 1
TestParameter, Measurement.WaitTime.Source.Offset, 0
TestParameter, Measurement.WaitTime.Monitor.Coeff, 1
TestParameter, Measurement.WaitTime.Monitor.Offset, 0
TestParameter, Output.Graph.Enabled, true
TestParameter, Output.Graph.AutoScaling, false
TestParameter, Output.Graph.XAxis.Data, V1
TestParameter, Output.Graph.XAxis.Scale, Linear
TestParameter, Output.Graph.XAxis.Left, -2
TestParameter, Output.Graph.XAxis.Right, 6
TestParameter, Output.Graph.XAxis.RunTimeAutoScale, true
TestParameter, Output.Graph.YAxis.Data, I2
TestParameter, Output.Graph.YAxis.Scale, Linear
TestParameter, Output.Graph.YAxis.Bottom, -0.1
TestParameter, Output.Graph.YAxis.Top, 0.1
TestParameter, Output.Graph.YAxis.Group, 
TestParameter, Output.Graph.YAxis.RunTimeAutoScale, true
TestParameter, Output.List.Data, V1, I1, V2, I2, V3, I3, V4, I4
TestParameter, AutoAnalysis.Interpolation, false
TestParameter, AutoAnalysis.Line1.Enabled, false
TestParameter, AutoAnalysis.Line1.Type, 1
TestParameter, AutoAnalysis.Line1.Fix, True
TestParameter, AutoAnalysis.Line1.YAxis, 0
TestParameter, AutoAnalysis.Line1.Point1.Type, 0
TestParameter, AutoAnalysis.Line1.Point1.XY.X, 
TestParameter, AutoAnalysis.Line1.Point1.XY.Y, 
TestParameter, AutoAnalysis.Line1.Point1.Data.Var, 
TestParameter, AutoAnalysis.Line1.Point1.Data.Condition, 
TestParameter, AutoAnalysis.Line1.Point1.Data.Start, false
TestParameter, AutoAnalysis.Line1.Point1.Data.StartVar, 
TestParameter, AutoAnalysis.Line1.Point1.Data.StartCondition, 
TestParameter, AutoAnalysis.Line1.Point2.Type, 0
TestParameter, AutoAnalysis.Line1.Point2.XY.X, 
TestParameter, AutoAnalysis.Line1.Point2.XY.Y, 
TestParameter, AutoAnalysis.Line1.Point2.Data.Var, 
TestParameter, AutoAnalysis.Line1.Point2.Data.Condition, 
TestParameter, AutoAnalysis.Line1.Point2.Data.Start, false
TestParameter, AutoAnalysis.Line1.Point2.Data.StartVar, 
TestParameter, AutoAnalysis.Line1.Point2.Data.StartCondition, 
TestParameter, AutoAnalysis.Line1.GradientExpr, 0
TestParameter, AutoAnalysis.Line2.Enabled, false
TestParameter, AutoAnalysis.Line2.Type, 1
TestParameter, AutoAnalysis.Line2.Fix, True
TestParameter, AutoAnalysis.Line2.YAxis, 0
TestParameter, AutoAnalysis.Line2.Point1.Type, 0
TestParameter, AutoAnalysis.Line2.Point1.XY.X, 
TestParameter, AutoAnalysis.Line2.Point1.XY.Y, 
TestParameter, AutoAnalysis.Line2.Point1.Data.Var, 
TestParameter, AutoAnalysis.Line2.Point1.Data.Condition, 
TestParameter, AutoAnalysis.Line2.Point1.Data.Start, false
TestParameter, AutoAnalysis.Line2.Point1.Data.StartVar, 
TestParameter, AutoAnalysis.Line2.Point1.Data.StartCondition, 
TestParameter, AutoAnalysis.Line2.Point2.Type, 0
TestParameter, AutoAnalysis.Line2.Point2.XY.X, 
TestParameter, AutoAnalysis.Line2.Point2.XY.Y, 
TestParameter, AutoAnalysis.Line2.Point2.Data.Var, 
TestParameter, AutoAnalysis.Line2.Point2.Data.Condition, 
TestParameter, AutoAnalysis.Line2.Point2.Data.Start, false
TestParameter, AutoAnalysis.Line2.Point2.Data.StartVar, 
TestParameter, AutoAnalysis.Line2.Point2.Data.StartCondition, 
TestParameter, AutoAnalysis.Line2.GradientExpr, 0
TestParameter, AutoAnalysis.Marker.Enabled, false
TestParameter, AutoAnalysis.Marker.Data.Var, 
TestParameter, AutoAnalysis.Marker.Data.Condition, 
TestParameter, AutoAnalysis.Marker.Data.Start, false
TestParameter, AutoAnalysis.Marker.Data.StartVar, 
TestParameter, AutoAnalysis.Marker.Data.StartCondition, 
MetaData, TestRecord.EntryPoint, true
MetaData, TestRecord.RecordTime, 03/10/2023 16:36:36
MetaData, TestRecord.TestTarget, 
MetaData, TestRecord.IterationIndex, 20
MetaData, TestRecord.Preservation, true
MetaData, TestRecord.Flag, 
MetaData, TestRecord.Remarks, 
MetaData, TestRecord.LinkKey, 5b4c1037-7861-468b-9b08-1e1e2c1b4d74
Dimension1, 402, 402, 402, 402, 402, 402, 402, 402
Dimension2, 1, 1, 1, 1, 1, 1, 1, 1
DataName, V1, V2, I1, I2, V3, I3, V4, I4
DataValue, -2, 0.25, -7.1900000000000007E-12, 1.8530000000000003E-11, , , , 
DataValue, -1.96, 0.25, -3.2400000000000003E-12, 1.917E-11, , , , 
DataValue, -1.92, 0.25, -3.46E-12, 1.948E-11, , , , 
DataValue, -1.8800000000000001, 0.25, -2.7100000000000004E-12, 2.032E-11, , , , 
DataValue, -1.84, 0.25, -2.9100000000000003E-12, 1.9350000000000003E-11, , , , 
DataValue, -1.8, 0.25, -1.2400000000000002E-12, 1.7820000000000003E-11, , , , 
DataValue, -1.76, 0.25, -1.4400000000000001E-12, 1.914E-11, , , , 
DataValue, -1.72, 0.25, -8.7E-13, 2.0880000000000003E-11, , , , 
DataValue, -1.68, 0.25, -1.36E-12, 1.899E-11, , , , 
DataValue, -1.6400000000000001, 0.25, -1.18E-12, 1.855E-11, , , , 
DataValue, -1.6, 0.25, -1.3400000000000002E-12, 1.8870000000000002E-11, , , , 
DataValue, -1.56, 0.25, -6.7000000000000007E-13, 1.979E-11, , , , 
DataValue, -1.52, 0.25, -5E-13, 1.8490000000000002E-11, , , , 
DataValue, -1.48, 0.25, -4.8000000000000008E-13, 1.8490000000000002E-11, , , , 
DataValue, -1.44, 0.25, -7.4000000000000008E-13, 1.892E-11, , , , 
DataValue, -1.4000000000000001, 0.25, -9.9E-13, 1.9180000000000002E-11, , , , 
DataValue, -1.36, 0.25, -5.1E-13, 2.0460000000000003E-11, , , , 
DataValue, -1.32, 0.25, -1.4E-13, 1.861E-11, , , , 
DataValue, -1.28, 0.25, -2.9000000000000003E-13, 1.859E-11, , , , 
DataValue, -1.24, 0.25, -3.5E-13, 1.879E-11, , , , 
DataValue, -1.2, 0.25, -3.2000000000000005E-13, 1.9840000000000003E-11, , , , 
DataValue, -1.16, 0.25, 1E-13, 1.945E-11, , , , 
DataValue, -1.12, 0.25, -1.7E-13, 1.857E-11, , , , 
DataValue, -1.08, 0.25, 3.1000000000000004E-13, 1.814E-11, , , , 
DataValue, -1.04, 0.25, -3.7000000000000004E-13, 1.9240000000000003E-11, , , , 
DataValue, -1, 0.25, 6.6E-13, 1.9660000000000003E-11, , , , 
DataValue, -0.96, 0.25, 1.2000000000000002E-13, 1.881E-11, , , , 
DataValue, -0.92, 0.25, 7E-13, 1.8180000000000002E-11, , , , 
DataValue, -0.88, 0.25, 2.8E-13, 1.916E-11, , , , 
DataValue, -0.84, 0.25, 5.5000000000000008E-13, 1.9150000000000003E-11, , , , 
DataValue, -0.8, 0.25, 1.04E-12, 1.9910000000000002E-11, , , , 
DataValue, -0.76, 0.25, 2.7E-13, 1.8710000000000002E-11, , , , 
DataValue, -0.72, 0.25, 5E-13, 1.759E-11, , , , 
DataValue, -0.68, 0.25, 6.6E-13, 1.783E-11, , , , 
DataValue, -0.64, 0.25, 1.4200000000000002E-12, 1.948E-11, , , , 
DataValue, -0.6, 0.25, 9.4E-13, 1.932E-11, , , , 
DataValue, -0.56, 0.25, 1.7E-13, 1.817E-11, , , , 
DataValue, -0.52, 0.25, 1.02E-12, 1.8490000000000002E-11, , , , 
DataValue, -0.48, 0.25, 8.1000000000000008E-13, 1.919E-11, , , , 
DataValue, -0.44, 0.25, 1.3000000000000001E-12, 1.981E-11, , , , 
DataValue, -0.4, 0.25, 1.03E-12, 1.8710000000000002E-11, , , , 
DataValue, -0.36, 0.25, 1.1100000000000001E-12, 1.792E-11, , , , 
DataValue, -0.32, 0.25, 4.1E-13, 1.914E-11, , , , 
DataValue, -0.28, 0.25, 1.51E-12, 1.9890000000000002E-11, , , , 
DataValue, -0.24, 0.25, 1.73E-12, 2.003E-11, , , , 
DataValue, -0.2, 0.25, 9.1000000000000016E-13, 1.808E-11, , , , 
DataValue, -0.16, 0.25, 1.3000000000000001E-12, 1.8000000000000002E-11, , , , 
DataValue, -0.12, 0.25, 1.26E-12, 1.8890000000000002E-11, , , , 
DataValue, -0.08, 0.25, 1.3900000000000001E-12, 2.063E-11, , , , 
DataValue, -0.04, 0.25, 1.26E-12, 1.821E-11, , , , 
DataValue, 0, 0.25, 1.95E-12, 1.7800000000000003E-11, , , , 
DataValue, 0.04, 0.25, 6.3E-13, 1.857E-11, , , , 
DataValue, 0.08, 0.25, 1.03E-12, 1.9490000000000002E-11, , , , 
DataValue, 0.12, 0.25, 1.26E-12, 1.954E-11, , , , 
DataValue, 0.16, 0.25, 1.3500000000000001E-12, 1.783E-11, , , , 
DataValue, 0.2, 0.25, 1.78E-12, 1.824E-11, , , , 
DataValue, 0.24, 0.25, 1.4E-12, 1.9470000000000002E-11, , , , 
DataValue, 0.28, 0.25, 1.6300000000000001E-12, 2.0020000000000002E-11, , , , 
DataValue, 0.32, 0.25, 1.5700000000000002E-12, 1.8290000000000002E-11, , , , 
DataValue, 0.36, 0.25, 2E-12, 1.824E-11, , , , 
DataValue, 0.4, 0.25, 1.2800000000000002E-12, 1.8440000000000003E-11, , , , 
DataValue, 0.44, 0.25, 1.86E-12, 2.008E-11, , , , 
DataValue, 0.48, 0.25, 1.8200000000000003E-12, 2.01E-11, , , , 
DataValue, 0.52, 0.25, 1.79E-12, 1.8670000000000002E-11, , , , 
DataValue, 0.56, 0.25, 1.74E-12, 1.733E-11, , , , 
DataValue, 0.6, 0.25, 1.41E-12, 1.855E-11, , , , 
DataValue, 0.64, 0.25, 1.4200000000000002E-12, 1.934E-11, , , , 
DataValue, 0.68, 0.25, 1.7000000000000002E-12, 1.8840000000000003E-11, , , , 
DataValue, 0.72, 0.25, 1.4200000000000002E-12, 1.8380000000000002E-11, , , , 
DataValue, 0.76, 0.25, 1.7700000000000001E-12, 1.7890000000000002E-11, , , , 
DataValue, 0.8, 0.25, 1.6700000000000002E-12, 1.9950000000000003E-11, , , , 
DataValue, 0.84, 0.25, 1.79E-12, 1.981E-11, , , , 
DataValue, 0.88, 0.25, 2.16E-12, 1.7820000000000003E-11, , , , 
DataValue, 0.92, 0.25, 2.57E-12, 1.783E-11, , , , 
DataValue, 0.96, 0.25, 1.1000000000000002E-12, 1.939E-11, , , , 
DataValue, 1, 0.25, 2E-12, 1.943E-11, , , , 
DataValue, 1.04, 0.25, 1.7700000000000001E-12, 1.9620000000000002E-11, , , , 
DataValue, 1.08, 0.25, 1.6700000000000002E-12, 1.894E-11, , , , 
DataValue, 1.12, 0.25, 2.3200000000000002E-12, 1.779E-11, , , , 
DataValue, 1.16, 0.25, 1.7600000000000002E-12, 1.9310000000000002E-11, , , , 
DataValue, 1.2, 0.25, 2.3300000000000004E-12, 1.9730000000000003E-11, , , , 
DataValue, 1.24, 0.25, 2.9800000000000002E-12, 1.9840000000000003E-11, , , , 
DataValue, 1.28, 0.25, 2.59E-12, 1.8470000000000002E-11, , , , 
DataValue, 1.32, 0.25, 2.24E-12, 1.8800000000000002E-11, , , , 
DataValue, 1.36, 0.25, 1.6700000000000002E-12, 2.014E-11, , , , 
DataValue, 1.4000000000000001, 0.25, 2.6000000000000002E-12, 2.1990000000000003E-11, , , , 
DataValue, 1.44, 0.25, 2.5000000000000003E-12, 2.045E-11, , , , 
DataValue, 1.48, 0.25, 2.57E-12, 2.0150000000000003E-11, , , , 
DataValue, 1.52, 0.25, 2.14E-12, 2.0400000000000002E-11, , , , 
DataValue, 1.56, 0.25, 2.8E-12, 2.1950000000000002E-11, , , , 
DataValue, 1.6, 0.25, 2.51E-12, 2.3020000000000002E-11, , , , 
DataValue, 1.6400000000000001, 0.25, 2.5300000000000003E-12, 2.252E-11, , , , 
DataValue, 1.68, 0.25, 2.6600000000000004E-12, 2.3120000000000003E-11, , , , 
DataValue, 1.72, 0.25, 2.11E-12, 2.538E-11, , , , 
DataValue, 1.76, 0.25, 2.8100000000000003E-12, 2.7670000000000003E-11, , , , 
DataValue, 1.8, 0.25, 2.9400000000000004E-12, 2.826E-11, , , , 
DataValue, 1.84, 0.25, 3.3200000000000004E-12, 2.921E-11, , , , 
DataValue, 1.8800000000000001, 0.25, 2.8300000000000003E-12, 3.3200000000000006E-11, , , , 
DataValue, 1.92, 0.25, 2.7600000000000004E-12, 3.7340000000000004E-11, , , , 
DataValue, 1.96, 0.25, 2.6600000000000004E-12, 4.174E-11, , , , 
DataValue, 2, 0.25, 3.1900000000000003E-12, 4.6240000000000007E-11, , , , 
DataValue, 2.04, 0.25, 2.6500000000000002E-12, 5.2470000000000007E-11, , , , 
DataValue, 2.08, 0.25, 2.75E-12, 6.331E-11, , , , 
DataValue, 2.12, 0.25, 3.53E-12, 7.587E-11, , , , 
DataValue, 2.16, 0.25, 3.2E-12, 9.0880000000000013E-11, , , , 
DataValue, 2.2, 0.25, 3.3700000000000004E-12, 1.1008000000000001E-10, , , , 
DataValue, 2.24, 0.25, 3.3100000000000002E-12, 1.3694000000000002E-10, , , , 
DataValue, 2.2800000000000002, 0.25, 3.2200000000000004E-12, 1.7196000000000002E-10, , , , 
DataValue, 2.32, 0.25, 3.23E-12, 2.1843000000000002E-10, , , , 
DataValue, 2.36, 0.25, 2.5300000000000003E-12, 2.7748E-10, , , , 
DataValue, 2.4, 0.25, 3.9400000000000006E-12, 3.5595000000000005E-10, , , , 
DataValue, 2.44, 0.25, 3.48E-12, 4.6304000000000004E-10, , , , 
DataValue, 2.48, 0.25, 2.52E-12, 6.0542000000000007E-10, , , , 
DataValue, 2.52, 0.25, 4.0500000000000007E-12, 7.9351000000000009E-10, , , , 
DataValue, 2.56, 0.25, 3.3700000000000004E-12, 1.04592E-09, , , , 
DataValue, 2.6, 0.25, 3.8E-12, 1.6698E-09, , , , 
DataValue, 2.64, 0.25, 3.3400000000000003E-12, 2.1872E-09, , , , 
DataValue, 2.68, 0.25, 3.3100000000000002E-12, 2.8802E-09, , , , 
DataValue, 2.72, 0.25, 3.8800000000000004E-12, 3.8083E-09, , , , 
DataValue, 2.7600000000000002, 0.25, 3.87E-12, 5.0672E-09, , , , 
DataValue, 2.8000000000000003, 0.25, 4.02E-12, 6.775E-09, , , , 
DataValue, 2.84, 0.25, 4.06E-12, 9.0544E-09, , , , 
DataValue, 2.88, 0.25, 3.9800000000000004E-12, 1.4102599999999999E-08, , , , 
DataValue, 2.92, 0.25, 4.67E-12, 1.88504E-08, , , , 
DataValue, 2.96, 0.25, 4.13E-12, 2.5199999999999997E-08, , , , 
DataValue, 3, 0.25, 3.1700000000000004E-12, 3.3635599999999996E-08, , , , 
DataValue, 3.04, 0.25, 4.06E-12, 4.50466E-08, , , , 
DataValue, 3.08, 0.25, 3.86E-12, 5.9584599999999992E-08, , , , 
DataValue, 3.12, 0.25, 4.6600000000000007E-12, 7.8449199999999988E-08, , , , 
DataValue, 3.16, 0.25, 4.33E-12, 1.0244139999999999E-07, , , , 
DataValue, 3.2, 0.25, 4.16E-12, 1.309E-07, , , , 
DataValue, 3.24, 0.25, 4.5900000000000004E-12, 1.6553999999999999E-07, , , , 
DataValue, 3.2800000000000002, 0.25, 4.13E-12, 2.0743999999999998E-07, , , , 
DataValue, 3.3200000000000003, 0.25, 4.8100000000000007E-12, 2.6E-07, , , , 
DataValue, 3.36, 0.25, 4.4000000000000006E-12, 3.2304E-07, , , , 
DataValue, 3.4, 0.25, 5.07E-12, 3.9972E-07, , , , 
DataValue, 3.44, 0.25, 5.08E-12, 4.9338E-07, , , , 
DataValue, 3.48, 0.25, 4.5900000000000004E-12, 6.0192E-07, , , , 
DataValue, 3.52, 0.25, 5.08E-12, 7.2975999999999994E-07, , , , 
DataValue, 3.56, 0.25, 5.64E-12, 8.7956E-07, , , , 
DataValue, 3.6, 0.25, 5.0100000000000007E-12, 1.05312E-06, , , , 
DataValue, 3.64, 0.25, 4.8600000000000007E-12, 1.4569000000000002E-06, , , , 
DataValue, 3.68, 0.25, 5.75E-12, 1.6946000000000003E-06, , , , 
DataValue, 3.72, 0.25, 5.0500000000000005E-12, 1.9663E-06, , , , 
DataValue, 3.7600000000000002, 0.25, 5.54E-12, 2.2738E-06, , , , 
DataValue, 3.8000000000000003, 0.25, 5.7800000000000008E-12, 2.6186000000000002E-06, , , , 
DataValue, 3.84, 0.25, 5.48E-12, 3.0029000000000005E-06, , , , 
DataValue, 3.88, 0.25, 5.33E-12, 3.4291000000000003E-06, , , , 
DataValue, 3.92, 0.25, 5.3700000000000007E-12, 3.902E-06, , , , 
DataValue, 3.96, 0.25, 5.75E-12, 4.4248E-06, , , , 
DataValue, 4, 0.25, 6.4800000000000007E-12, 4.9955000000000007E-06, , , , 
DataValue, 4.04, 0.25, 6.1600000000000004E-12, 5.6069000000000005E-06, , , , 
DataValue, 4.08, 0.25, 5.6800000000000008E-12, 6.289E-06, , , , 
DataValue, 4.12, 0.25, 6.4700000000000005E-12, 7.0262000000000006E-06, , , , 
DataValue, 4.16, 0.25, 6.81E-12, 7.8162000000000015E-06, , , , 
DataValue, 4.2, 0.25, 6.36E-12, 8.6552000000000014E-06, , , , 
DataValue, 4.24, 0.25, 6.8500000000000009E-12, 9.5733E-06, , , , 
DataValue, 4.28, 0.25, 6.56E-12, 1.0541700000000001E-05, , , , 
DataValue, 4.32, 0.25, 6.4400000000000008E-12, 1.2692E-05, , , , 
DataValue, 4.36, 0.25, 6.8900000000000007E-12, 1.3712E-05, , , , 
DataValue, 4.4, 0.25, 6.05E-12, 1.4782E-05, , , , 
DataValue, 4.44, 0.25, 7.16E-12, 1.59E-05, , , , 
DataValue, 4.48, 0.25, 7.42E-12, 1.7066000000000002E-05, , , , 
DataValue, 4.5200000000000005, 0.25, 7.2300000000000005E-12, 1.8282000000000002E-05, , , , 
DataValue, 4.5600000000000005, 0.25, 7.45E-12, 1.9534E-05, , , , 
DataValue, 4.6000000000000005, 0.25, 7.91E-12, 2.0826E-05, , , , 
DataValue, 4.64, 0.25, 7.1400000000000007E-12, 2.2166E-05, , , , 
DataValue, 4.68, 0.25, 7.1400000000000007E-12, 2.357E-05, , , , 
DataValue, 4.72, 0.25, 7.870000000000001E-12, 2.4978E-05, , , , 
DataValue, 4.76, 0.25, 8.22E-12, 2.6416000000000003E-05, , , , 
DataValue, 4.8, 0.25, 7.74E-12, 2.7896000000000002E-05, , , , 
DataValue, 4.84, 0.25, 8.83E-12, 2.9404000000000002E-05, , , , 
DataValue, 4.88, 0.25, 7.41E-12, 3.092E-05, , , , 
DataValue, 4.92, 0.25, 8.21E-12, 3.2474E-05, , , , 
DataValue, 4.96, 0.25, 8.7000000000000013E-12, 3.405E-05, , , , 
DataValue, 5, 0.25, 9.1000000000000012E-12, 3.562E-05, , , , 
DataValue, 5.04, 0.25, 9.1000000000000012E-12, 3.7254E-05, , , , 
DataValue, 5.08, 0.25, 8.53E-12, 3.8916E-05, , , , 
DataValue, 5.12, 0.25, 9.76E-12, 4.0598E-05, , , , 
DataValue, 5.16, 0.25, 9.0100000000000014E-12, 4.2282E-05, , , , 
DataValue, 5.2, 0.25, 8.46E-12, 4.3944000000000005E-05, , , , 
DataValue, 5.24, 0.25, 9.5000000000000011E-12, 4.5672E-05, , , , 
DataValue, 5.28, 0.25, 1.0610000000000001E-11, 4.7412E-05, , , , 
DataValue, 5.32, 0.25, 9.55E-12, 4.9160000000000004E-05, , , , 
DataValue, 5.36, 0.25, 1.028E-11, 5.091E-05, , , , 
DataValue, 5.4, 0.25, 1.0090000000000001E-11, 5.267E-05, , , , 
DataValue, 5.44, 0.25, 9.7100000000000012E-12, 5.4438E-05, , , , 
DataValue, 5.48, 0.25, 9.490000000000001E-12, 5.6206000000000004E-05, , , , 
DataValue, 5.5200000000000005, 0.25, 1.0630000000000001E-11, 5.7992E-05, , , , 
DataValue, 5.5600000000000005, 0.25, 1.0630000000000001E-11, 5.9770000000000005E-05, , , , 
DataValue, 5.6000000000000005, 0.25, 1.029E-11, 6.155E-05, , , , 
DataValue, 5.64, 0.25, 1.106E-11, 6.3324E-05, , , , 
DataValue, 5.68, 0.25, 1.159E-11, 6.5092E-05, , , , 
DataValue, 5.72, 0.25, 1.12E-11, 6.6858E-05, , , , 
DataValue, 5.76, 0.25, 1.0930000000000001E-11, 6.8618E-05, , , , 
DataValue, 5.8, 0.25, 1.1360000000000002E-11, 7.0388E-05, , , , 
DataValue, 5.84, 0.25, 1.1410000000000001E-11, 7.2134E-05, , , , 
DataValue, 5.88, 0.25, 1.1720000000000001E-11, 7.3868E-05, , , , 
DataValue, 5.92, 0.25, 1.1660000000000002E-11, 7.5624E-05, , , , 
DataValue, 5.96, 0.25, 1.2240000000000001E-11, 7.7326E-05, , , , 
DataValue, 6, 0.25, 1.177E-11, 7.899E-05, , , , 
DataValue, 6, 0.25, 1.1430000000000001E-11, 7.9238E-05, , , , 
DataValue, 5.96, 0.25, 1.1450000000000002E-11, 8.0504E-05, , , , 
DataValue, 5.92, 0.25, 9.5900000000000009E-12, 8.1534000000000009E-05, , , , 
DataValue, 5.88, 0.25, 9.3200000000000015E-12, 8.2392E-05, , , , 
DataValue, 5.84, 0.25, 9.0900000000000011E-12, 8.3084E-05, , , , 
DataValue, 5.8, 0.25, 8.45E-12, 8.3612E-05, , , , 
DataValue, 5.76, 0.25, 7.32E-12, 8.4012000000000008E-05, , , , 
DataValue, 5.72, 0.25, 7.61E-12, 8.4292E-05, , , , 
DataValue, 5.68, 0.25, 7.2000000000000008E-12, 8.4478E-05, , , , 
