
SetupTitle, ID-VG Postbreak
PrimitiveTest, I/V Sweep
TestParameter, Context.MainFrame, B1500A
TestParameter, Channel.UnitType, SMU, SMU
TestParameter, Channel.Unit, SMU1:MP, SMU2:MP
TestParameter, Channel.IName, I1, I2
TestParameter, Channel.VName, V1, V2
TestParameter, Channel.Mode, V, V
TestParameter, Channel.Func, VAR1, CONST
TestParameter, Channel.Index, 
TestParameter, Channel.Time, 
TestParameter, Measurement.Port.Unit, SMU1:MP, SMU2:MP
TestParameter, Measurement.Port.SeriesResistor, NONE, NONE
TestParameter, Measurement.Port.Filter, ON, ON
TestParameter, Measurement.Port.OutputVoltageComparison, 0, 0
TestParameter, Measurement.Primary.Locus, Double
TestParameter, Measurement.Primary.Scale, LINEAR
TestParameter, Measurement.Primary.Start, -2
TestParameter, Measurement.Primary.Stop, 6
TestParameter, Measurement.Primary.Step, 0.04
TestParameter, Measurement.Primary.Compliance, 0.1
TestParameter, Measurement.Primary.PowerCompliance, 0
TestParameter, Measurement.Aborting.Condition, CONTINUE AT ANY
TestParameter, Measurement.PostOutput.Value, START
TestParameter, Measurement.PostOutput.Retention, OFF
TestParameter, Measurement.Bias.Source, -2, 0.25
TestParameter, Measurement.Bias.Compliance, 0.1, 0.1
TestParameter, Measurement.Monitor.Unit, SMU1:MP, SMU2:MP
TestParameter, Measurement.Monitor.Adc, HR ADC, HR ADC
TestParameter, Measurement.Monitor.Measurement, Compliance Side, Compliance Side
TestParameter, Measurement.Monitor.RangingMode, LIMITED, LIMITED
TestParameter, Measurement.Monitor.RangeBoundary, 1nA, 1nA
TestParameter, Measurement.Monitor.RangeRating, BY FULL RANGE, BY FULL RANGE
TestParameter, Measurement.Monitor.RangeRatingCoeff, 50, 50
TestParameter, Measurement.Timing.Hold, 0
TestParameter, Measurement.Timing.Delay, 0
TestParameter, Measurement.Adc.HighSpeed.Mode, AUTO
TestParameter, Measurement.Adc.HighSpeed.Coeff, 1
TestParameter, Measurement.Adc.HighResolution.AutoZero, OFF
TestParameter, Measurement.Adc.HighResolution.Mode, AUTO
TestParameter, Measurement.Adc.HighResolution.Coeff, 6
TestParameter, Measurement.WaitTime.Source.Coeff, 1
TestParameter, Measurement.WaitTime.Source.Offset, 0
TestParameter, Measurement.WaitTime.Monitor.Coeff, 1
TestParameter, Measurement.WaitTime.Monitor.Offset, 0
TestParameter, Output.Graph.Enabled, true
TestParameter, Output.Graph.AutoScaling, false
TestParameter, Output.Graph.XAxis.Data, V1
TestParameter, Output.Graph.XAxis.Scale, Linear
TestParameter, Output.Graph.XAxis.Left, -2
TestParameter, Output.Graph.XAxis.Right, 6
TestParameter, Output.Graph.XAxis.RunTimeAutoScale, true
TestParameter, Output.Graph.YAxis.Data, I2
TestParameter, Output.Graph.YAxis.Scale, Linear
TestParameter, Output.Graph.YAxis.Bottom, -0.1
TestParameter, Output.Graph.YAxis.Top, 0.1
TestParameter, Output.Graph.YAxis.Group, 
TestParameter, Output.Graph.YAxis.RunTimeAutoScale, true
TestParameter, Output.List.Data, V1, I1, V2, I2, V3, I3, V4, I4
TestParameter, AutoAnalysis.Interpolation, false
TestParameter, AutoAnalysis.Line1.Enabled, false
TestParameter, AutoAnalysis.Line1.Type, 1
TestParameter, AutoAnalysis.Line1.Fix, True
TestParameter, AutoAnalysis.Line1.YAxis, 0
TestParameter, AutoAnalysis.Line1.Point1.Type, 0
TestParameter, AutoAnalysis.Line1.Point1.XY.X, 
TestParameter, AutoAnalysis.Line1.Point1.XY.Y, 
TestParameter, AutoAnalysis.Line1.Point1.Data.Var, 
TestParameter, AutoAnalysis.Line1.Point1.Data.Condition, 
TestParameter, AutoAnalysis.Line1.Point1.Data.Start, false
TestParameter, AutoAnalysis.Line1.Point1.Data.StartVar, 
TestParameter, AutoAnalysis.Line1.Point1.Data.StartCondition, 
TestParameter, AutoAnalysis.Line1.Point2.Type, 0
TestParameter, AutoAnalysis.Line1.Point2.XY.X, 
TestParameter, AutoAnalysis.Line1.Point2.XY.Y, 
TestParameter, AutoAnalysis.Line1.Point2.Data.Var, 
TestParameter, AutoAnalysis.Line1.Point2.Data.Condition, 
TestParameter, AutoAnalysis.Line1.Point2.Data.Start, false
TestParameter, AutoAnalysis.Line1.Point2.Data.StartVar, 
TestParameter, AutoAnalysis.Line1.Point2.Data.StartCondition, 
TestParameter, AutoAnalysis.Line1.GradientExpr, 0
TestParameter, AutoAnalysis.Line2.Enabled, false
TestParameter, AutoAnalysis.Line2.Type, 1
TestParameter, AutoAnalysis.Line2.Fix, True
TestParameter, AutoAnalysis.Line2.YAxis, 0
TestParameter, AutoAnalysis.Line2.Point1.Type, 0
TestParameter, AutoAnalysis.Line2.Point1.XY.X, 
TestParameter, AutoAnalysis.Line2.Point1.XY.Y, 
TestParameter, AutoAnalysis.Line2.Point1.Data.Var, 
TestParameter, AutoAnalysis.Line2.Point1.Data.Condition, 
TestParameter, AutoAnalysis.Line2.Point1.Data.Start, false
TestParameter, AutoAnalysis.Line2.Point1.Data.StartVar, 
TestParameter, AutoAnalysis.Line2.Point1.Data.StartCondition, 
TestParameter, AutoAnalysis.Line2.Point2.Type, 0
TestParameter, AutoAnalysis.Line2.Point2.XY.X, 
TestParameter, AutoAnalysis.Line2.Point2.XY.Y, 
TestParameter, AutoAnalysis.Line2.Point2.Data.Var, 
TestParameter, AutoAnalysis.Line2.Point2.Data.Condition, 
TestParameter, AutoAnalysis.Line2.Point2.Data.Start, false
TestParameter, AutoAnalysis.Line2.Point2.Data.StartVar, 
TestParameter, AutoAnalysis.Line2.Point2.Data.StartCondition, 
TestParameter, AutoAnalysis.Line2.GradientExpr, 0
TestParameter, AutoAnalysis.Marker.Enabled, false
TestParameter, AutoAnalysis.Marker.Data.Var, 
TestParameter, AutoAnalysis.Marker.Data.Condition, 
TestParameter, AutoAnalysis.Marker.Data.Start, false
TestParameter, AutoAnalysis.Marker.Data.StartVar, 
TestParameter, AutoAnalysis.Marker.Data.StartCondition, 
MetaData, TestRecord.EntryPoint, true
MetaData, TestRecord.RecordTime, 03/10/2023 16:44:04
MetaData, TestRecord.TestTarget, 
MetaData, TestRecord.IterationIndex, 25
MetaData, TestRecord.Preservation, true
MetaData, TestRecord.Flag, 
MetaData, TestRecord.Remarks, 
MetaData, TestRecord.LinkKey, 68e071ca-9950-4e20-b4d4-6c63ab245627
Dimension1, 402, 402, 402, 402, 402, 402, 402, 402
Dimension2, 1, 1, 1, 1, 1, 1, 1, 1
DataName, V1, V2, I1, I2, V3, I3, V4, I4
DataValue, -2, 0.25, -4.92E-12, 2.3800000000000004E-12, , , , 
DataValue, -1.96, 0.25, -2.6000000000000002E-12, 1.18E-12, , , , 
DataValue, -1.92, 0.25, -2.5600000000000004E-12, 2.16E-12, , , , 
DataValue, -1.8800000000000001, 0.25, -1.7500000000000002E-12, 3.2600000000000002E-12, , , , 
DataValue, -1.84, 0.25, -1.95E-12, 2.62E-12, , , , 
DataValue, -1.8, 0.25, -1.4300000000000002E-12, 2.1500000000000003E-12, , , , 
DataValue, -1.76, 0.25, -1.3300000000000002E-12, 8.2E-13, , , , 
DataValue, -1.72, 0.25, -1.8700000000000003E-12, 2.31E-12, , , , 
DataValue, -1.68, 0.25, -9.5E-13, 2.2700000000000002E-12, , , , 
DataValue, -1.6400000000000001, 0.25, -1.4900000000000001E-12, 2.16E-12, , , , 
DataValue, -1.6, 0.25, -5.9E-13, 2.3500000000000003E-12, , , , 
DataValue, -1.56, 0.25, -5.1E-13, 1.18E-12, , , , 
DataValue, -1.52, 0.25, -1.0500000000000002E-12, 1.98E-12, , , , 
DataValue, -1.48, 0.25, -3.9000000000000005E-13, 2.7100000000000004E-12, , , , 
DataValue, -1.44, 0.25, -9.0000000000000008E-14, 1.78E-12, , , , 
DataValue, -1.4000000000000001, 0.25, -2.3000000000000003E-13, 1.1500000000000002E-12, , , , 
DataValue, -1.36, 0.25, -6.9000000000000009E-13, 7.6000000000000009E-13, , , , 
DataValue, -1.32, 0.25, -4.0000000000000006E-14, 3.2200000000000004E-12, , , , 
DataValue, -1.28, 0.25, -6.3E-13, 2.5800000000000003E-12, , , , 
DataValue, -1.24, 0.25, -5.1E-13, 2.18E-12, , , , 
DataValue, -1.2, 0.25, 2.7E-13, 4.2000000000000003E-13, , , , 
DataValue, -1.16, 0.25, -2.8E-13, 1.69E-12, , , , 
DataValue, -1.12, 0.25, 6.0000000000000007E-13, 2.3200000000000002E-12, , , , 
DataValue, -1.08, 0.25, 2.1000000000000001E-13, 1.4800000000000002E-12, , , , 
DataValue, -1.04, 0.25, -1.7E-13, 1.17E-12, , , , 
DataValue, -1, 0.25, -2.7E-13, 5.6E-13, , , , 
DataValue, -0.96, 0.25, -1.1000000000000001E-13, 3.3700000000000004E-12, , , , 
DataValue, -0.92, 0.25, 2.4000000000000004E-13, 1.6100000000000002E-12, , , , 
DataValue, -0.88, 0.25, -2.0000000000000003E-14, 1.95E-12, , , , 
DataValue, -0.84, 0.25, 5.7E-13, -1.6000000000000003E-13, , , , 
DataValue, -0.8, 0.25, 1.5000000000000002E-13, 7.4000000000000008E-13, , , , 
DataValue, -0.76, 0.25, 1.1900000000000002E-12, 2.26E-12, , , , 
DataValue, -0.72, 0.25, 1.4E-13, 1.8700000000000003E-12, , , , 
DataValue, -0.68, 0.25, 1.23E-12, 1.1500000000000002E-12, , , , 
DataValue, -0.64, 0.25, -2.0000000000000003E-14, 4.1E-13, , , , 
DataValue, -0.6, 0.25, 6.0000000000000007E-13, 2.28E-12, , , , 
DataValue, -0.56, 0.25, 8.8000000000000009E-13, 2.23E-12, , , , 
DataValue, -0.52, 0.25, 4.9E-13, 1.3400000000000002E-12, , , , 
DataValue, -0.48, 0.25, 6.2000000000000008E-13, 4.3000000000000004E-13, , , , 
DataValue, -0.44, 0.25, 8.2E-13, 1.4200000000000002E-12, , , , 
DataValue, -0.4, 0.25, 6.8E-13, 1.8100000000000002E-12, , , , 
DataValue, -0.36, 0.25, 5.6E-13, 2.09E-12, , , , 
DataValue, -0.32, 0.25, 9.4E-13, 1.14E-12, , , , 
DataValue, -0.28, 0.25, 7.5E-13, 1.03E-12, , , , 
DataValue, -0.24, 0.25, 6.0000000000000007E-13, 2.23E-12, , , , 
DataValue, -0.2, 0.25, 1E-12, 3.4700000000000004E-12, , , , 
DataValue, -0.16, 0.25, 9.9E-13, 1.51E-12, , , , 
DataValue, -0.12, 0.25, 1.78E-12, 1.18E-12, , , , 
DataValue, -0.08, 0.25, 2.4000000000000004E-13, 1.2800000000000002E-12, , , , 
DataValue, -0.04, 0.25, 1.0100000000000001E-12, 2.29E-12, , , , 
DataValue, 0, 0.25, 1.3400000000000002E-12, 2.0500000000000004E-12, , , , 
DataValue, 0.04, 0.25, 6.2000000000000008E-13, 2.2200000000000002E-12, , , , 
DataValue, 0.08, 0.25, 7.4000000000000008E-13, 1.5000000000000002E-13, , , , 
DataValue, 0.12, 0.25, 8.8000000000000009E-13, 7.8000000000000011E-13, , , , 
DataValue, 0.16, 0.25, 1.07E-12, 3.1200000000000004E-12, , , , 
DataValue, 0.2, 0.25, 8.6000000000000007E-13, 2.75E-12, , , , 
DataValue, 0.24, 0.25, 1.14E-12, 1.5200000000000002E-12, , , , 
DataValue, 0.28, 0.25, 1.8100000000000002E-12, 3.0000000000000003E-13, , , , 
DataValue, 0.32, 0.25, 4.3000000000000004E-13, 2.16E-12, , , , 
DataValue, 0.36, 0.25, 1.64E-12, 3.38E-12, , , , 
DataValue, 0.4, 0.25, 9.2000000000000012E-13, 2.59E-12, , , , 
DataValue, 0.44, 0.25, 1.6E-12, 3.2200000000000004E-12, , , , 
DataValue, 0.48, 0.25, 7.3E-13, 3.1700000000000004E-12, , , , 
DataValue, 0.52, 0.25, 1.2900000000000002E-12, 5.89E-12, , , , 
DataValue, 0.56, 0.25, 2.28E-12, 8.13E-12, , , , 
DataValue, 0.6, 0.25, 1.64E-12, 9.77E-12, , , , 
DataValue, 0.64, 0.25, 1.9E-12, 1.32E-11, , , , 
DataValue, 0.68, 0.25, 1.0600000000000001E-12, 1.8950000000000003E-11, , , , 
DataValue, 0.72, 0.25, 1.6200000000000002E-12, 2.9050000000000002E-11, , , , 
DataValue, 0.76, 0.25, 9.9E-13, 4.129E-11, , , , 
DataValue, 0.8, 0.25, 1.79E-12, 5.7990000000000005E-11, , , , 
DataValue, 0.84, 0.25, 1.51E-12, 8.5490000000000007E-11, , , , 
DataValue, 0.88, 0.25, 2.18E-12, 1.2601E-10, , , , 
DataValue, 0.92, 0.25, 1.3500000000000001E-12, 1.8079E-10, , , , 
DataValue, 0.96, 0.25, 1.79E-12, 2.6197000000000003E-10, , , , 
DataValue, 1, 0.25, 1.4700000000000002E-12, 3.7497000000000005E-10, , , , 
DataValue, 1.04, 0.25, 7.9000000000000007E-13, 5.4236000000000008E-10, , , , 
DataValue, 1.08, 0.25, 1.7600000000000002E-12, 7.8333E-10, , , , 
DataValue, 1.12, 0.25, 1.4300000000000002E-12, 1.11607E-09, , , , 
DataValue, 1.16, 0.25, 1.7200000000000001E-12, 1.6431E-09, , , , 
DataValue, 1.2, 0.25, 7.9000000000000007E-13, 2.2864E-09, , , , 
DataValue, 1.24, 0.25, 1.4300000000000002E-12, 3.2084E-09, , , , 
DataValue, 1.28, 0.25, 1.55E-12, 4.4555E-09, , , , 
DataValue, 1.32, 0.25, 2.4500000000000003E-12, 6.1989E-09, , , , 
DataValue, 1.36, 0.25, 2.06E-12, 8.5612E-09, , , , 
DataValue, 1.4000000000000001, 0.25, 1.9700000000000003E-12, 1.1983199999999998E-08, , , , 
DataValue, 1.44, 0.25, 1.0100000000000001E-12, 1.59466E-08, , , , 
DataValue, 1.48, 0.25, 1.9400000000000002E-12, 2.1250399999999997E-08, , , , 
DataValue, 1.52, 0.25, 1.4200000000000002E-12, 2.8045799999999998E-08, , , , 
DataValue, 1.56, 0.25, 1.96E-12, 3.66448E-08, , , , 
DataValue, 1.6, 0.25, 1.7100000000000002E-12, 4.73598E-08, , , , 
DataValue, 1.6400000000000001, 0.25, 1.8400000000000002E-12, 6.0311999999999991E-08, , , , 
DataValue, 1.68, 0.25, 1.64E-12, 7.60574E-08, , , , 
DataValue, 1.72, 0.25, 1.6800000000000001E-12, 9.48924E-08, , , , 
DataValue, 1.76, 0.25, 2.14E-12, 1.1816E-07, , , , 
DataValue, 1.8, 0.25, 1.4200000000000002E-12, 1.4328E-07, , , , 
DataValue, 1.84, 0.25, 2.2700000000000002E-12, 1.7292E-07, , , , 
DataValue, 1.8800000000000001, 0.25, 2.29E-12, 2.0668E-07, , , , 
DataValue, 1.92, 0.25, 1.9200000000000003E-12, 2.4542E-07, , , , 
DataValue, 1.96, 0.25, 2.3000000000000003E-12, 2.897E-07, , , , 
DataValue, 2, 0.25, 1.7700000000000001E-12, 3.3926E-07, , , , 
DataValue, 2.04, 0.25, 1.85E-12, 3.9318E-07, , , , 
DataValue, 2.08, 0.25, 1.8000000000000002E-12, 4.5344E-07, , , , 
DataValue, 2.12, 0.25, 2.52E-12, 5.1856E-07, , , , 
DataValue, 2.16, 0.25, 2.0700000000000003E-12, 5.9098E-07, , , , 
DataValue, 2.2, 0.25, 1.3500000000000001E-12, 6.6726E-07, , , , 
DataValue, 2.24, 0.25, 1.79E-12, 7.5054E-07, , , , 
DataValue, 2.2800000000000002, 0.25, 1.7200000000000001E-12, 8.3862E-07, , , , 
DataValue, 2.32, 0.25, 1.9400000000000002E-12, 9.3209999999999994E-07, , , , 
DataValue, 2.36, 0.25, 1.96E-12, 1.03142E-06, , , , 
DataValue, 2.4, 0.25, 2.3800000000000004E-12, 1.13568E-06, , , , 
DataValue, 2.44, 0.25, 1.69E-12, 1.2694E-06, , , , 
DataValue, 2.48, 0.25, 1.88E-12, 1.3765E-06, , , , 
DataValue, 2.52, 0.25, 2.62E-12, 1.4908000000000002E-06, , , , 
DataValue, 2.56, 0.25, 2.23E-12, 1.6128000000000003E-06, , , , 
DataValue, 2.6, 0.25, 2.7000000000000002E-12, 1.7407000000000001E-06, , , , 
DataValue, 2.64, 0.25, 2.3000000000000003E-12, 1.8692000000000003E-06, , , , 
DataValue, 2.68, 0.25, 1.6700000000000002E-12, 2.0011E-06, , , , 
DataValue, 2.72, 0.25, 2.08E-12, 2.1354000000000003E-06, , , , 
DataValue, 2.7600000000000002, 0.25, 2.51E-12, 2.2706000000000003E-06, , , , 
DataValue, 2.8000000000000003, 0.25, 2.57E-12, 2.4165E-06, , , , 
DataValue, 2.84, 0.25, 2.8300000000000003E-12, 2.5585E-06, , , , 
DataValue, 2.88, 0.25, 2.4000000000000003E-12, 2.7025000000000004E-06, , , , 
DataValue, 2.92, 0.25, 2.6600000000000004E-12, 2.8448000000000003E-06, , , , 
DataValue, 2.96, 0.25, 2.19E-12, 2.9927E-06, , , , 
DataValue, 3, 0.25, 2.16E-12, 3.1394000000000004E-06, , , , 
DataValue, 3.04, 0.25, 2.72E-12, 3.2886E-06, , , , 
DataValue, 3.08, 0.25, 2.5300000000000003E-12, 3.4367000000000005E-06, , , , 
DataValue, 3.12, 0.25, 2.0200000000000003E-12, 3.588E-06, , , , 
DataValue, 3.16, 0.25, 2.5000000000000003E-12, 3.7406000000000002E-06, , , , 
DataValue, 3.2, 0.25, 2.28E-12, 3.8916E-06, , , , 
DataValue, 3.24, 0.25, 1.9200000000000003E-12, 4.0414000000000008E-06, , , , 
DataValue, 3.2800000000000002, 0.25, 2.75E-12, 4.1912000000000006E-06, , , , 
DataValue, 3.3200000000000003, 0.25, 2.36E-12, 4.3341000000000006E-06, , , , 
DataValue, 3.36, 0.25, 2.4800000000000003E-12, 4.4790000000000007E-06, , , , 
DataValue, 3.4, 0.25, 3.2200000000000004E-12, 4.626E-06, , , , 
DataValue, 3.44, 0.25, 2.31E-12, 4.7767E-06, , , , 
DataValue, 3.48, 0.25, 3.1900000000000003E-12, 4.9212E-06, , , , 
DataValue, 3.52, 0.25, 3.0900000000000004E-12, 5.0653000000000004E-06, , , , 
DataValue, 3.56, 0.25, 2.11E-12, 5.2073000000000009E-06, , , , 
DataValue, 3.6, 0.25, 2.9900000000000004E-12, 5.3512000000000005E-06, , , , 
DataValue, 3.64, 0.25, 2.75E-12, 5.4884000000000007E-06, , , , 
DataValue, 3.68, 0.25, 2.57E-12, 5.6306000000000008E-06, , , , 
DataValue, 3.72, 0.25, 3.2900000000000003E-12, 5.7630000000000006E-06, , , , 
DataValue, 3.7600000000000002, 0.25, 3.1100000000000003E-12, 5.8996E-06, , , , 
DataValue, 3.8000000000000003, 0.25, 2.9800000000000002E-12, 6.0358000000000007E-06, , , , 
DataValue, 3.84, 0.25, 3.2100000000000003E-12, 6.1685E-06, , , , 
DataValue, 3.88, 0.25, 2.44E-12, 6.3012000000000008E-06, , , , 
DataValue, 3.92, 0.25, 3.4500000000000004E-12, 6.43E-06, , , , 
DataValue, 3.96, 0.25, 3.8E-12, 6.5593000000000009E-06, , , , 
DataValue, 4, 0.25, 3.1E-12, 6.6836000000000007E-06, , , , 
DataValue, 4.04, 0.25, 2.59E-12, 6.8088000000000008E-06, , , , 
DataValue, 4.08, 0.25, 3.2600000000000002E-12, 6.9297000000000008E-06, , , , 
DataValue, 4.12, 0.25, 3E-12, 7.0470000000000005E-06, , , , 
DataValue, 4.16, 0.25, 3.3100000000000002E-12, 7.1658000000000009E-06, , , , 
DataValue, 4.2, 0.25, 3.1E-12, 7.2863000000000009E-06, , , , 
DataValue, 4.24, 0.25, 3.6200000000000003E-12, 7.4048000000000007E-06, , , , 
DataValue, 4.28, 0.25, 3.05E-12, 7.5184000000000007E-06, , , , 
DataValue, 4.32, 0.25, 3.96E-12, 7.6317E-06, , , , 
DataValue, 4.36, 0.25, 2.51E-12, 7.7417E-06, , , , 
DataValue, 4.4, 0.25, 3.1200000000000004E-12, 7.8466E-06, , , , 
DataValue, 4.44, 0.25, 3.7400000000000006E-12, 7.9476000000000016E-06, , , , 
DataValue, 4.48, 0.25, 2.92E-12, 8.053E-06, , , , 
DataValue, 4.5200000000000005, 0.25, 4.13E-12, 8.1544000000000011E-06, , , , 
DataValue, 4.5600000000000005, 0.25, 3.87E-12, 8.2572000000000012E-06, , , , 
DataValue, 4.6000000000000005, 0.25, 3.1100000000000003E-12, 8.3641E-06, , , , 
DataValue, 4.64, 0.25, 3.2400000000000003E-12, 8.4655E-06, , , , 
DataValue, 4.68, 0.25, 3.77E-12, 8.5682E-06, , , , 
DataValue, 4.72, 0.25, 3.7400000000000006E-12, 8.6762E-06, , , , 
DataValue, 4.76, 0.25, 4.31E-12, 8.7746E-06, , , , 
DataValue, 4.8, 0.25, 3.58E-12, 8.8665E-06, , , , 
DataValue, 4.84, 0.25, 3.3200000000000004E-12, 8.9616E-06, , , , 
DataValue, 4.88, 0.25, 3.38E-12, 9.061E-06, , , , 
DataValue, 4.92, 0.25, 3.7E-12, 9.154100000000001E-06, , , , 
DataValue, 4.96, 0.25, 3.53E-12, 9.243700000000001E-06, , , , 
DataValue, 5, 0.25, 3.63E-12, 9.3381000000000013E-06, , , , 
DataValue, 5.04, 0.25, 3.7800000000000005E-12, 9.4241E-06, , , , 
DataValue, 5.08, 0.25, 3.6200000000000003E-12, 9.5113000000000016E-06, , , , 
DataValue, 5.12, 0.25, 4.38E-12, 9.6033000000000017E-06, , , , 
DataValue, 5.16, 0.25, 4.48E-12, 9.6953E-06, , , , 
DataValue, 5.2, 0.25, 3.65E-12, 9.7755000000000015E-06, , , , 
DataValue, 5.24, 0.25, 4.02E-12, 9.8606000000000018E-06, , , , 
DataValue, 5.28, 0.25, 3.2200000000000004E-12, 9.9421000000000009E-06, , , , 
DataValue, 5.32, 0.25, 3.9E-12, 1.0029400000000001E-05, , , , 
DataValue, 5.36, 0.25, 4.6900000000000004E-12, 1.0112900000000001E-05, , , , 
DataValue, 5.4, 0.25, 3.5000000000000004E-12, 1.0193E-05, , , , 
DataValue, 5.44, 0.25, 3.7400000000000006E-12, 1.02756E-05, , , , 
DataValue, 5.48, 0.25, 4.1400000000000005E-12, 1.0358500000000001E-05, , , , 
DataValue, 5.5200000000000005, 0.25, 3.81E-12, 1.0443700000000001E-05, , , , 
DataValue, 5.5600000000000005, 0.25, 4.9100000000000007E-12, 1.0525000000000002E-05, , , , 
DataValue, 5.6000000000000005, 0.25, 4.23E-12, 1.0608400000000002E-05, , , , 
DataValue, 5.64, 0.25, 3.9E-12, 1.0693100000000001E-05, , , , 
DataValue, 5.68, 0.25, 4.22E-12, 1.0775800000000001E-05, , , , 
DataValue, 5.72, 0.25, 3.71E-12, 1.0856300000000001E-05, , , , 
DataValue, 5.76, 0.25, 4.1900000000000005E-12, 1.0942100000000002E-05, , , , 
DataValue, 5.8, 0.25, 5.4100000000000006E-12, 1.1017700000000001E-05, , , , 
DataValue, 5.84, 0.25, 4.28E-12, 1.1098000000000001E-05, , , , 
DataValue, 5.88, 0.25, 4.82E-12, 1.1169300000000002E-05, , , , 
DataValue, 5.92, 0.25, 5.08E-12, 1.1248900000000002E-05, , , , 
DataValue, 5.96, 0.25, 4.6500000000000006E-12, 1.1328200000000001E-05, , , , 
DataValue, 6, 0.25, 5.23E-12, 1.14053E-05, , , , 
DataValue, 6, 0.25, 4.27E-12, 1.14076E-05, , , , 
DataValue, 5.96, 0.25, 4.7600000000000007E-12, 1.13211E-05, , , , 
DataValue, 5.92, 0.25, 3.7800000000000005E-12, 1.1217000000000001E-05, , , , 
DataValue, 5.88, 0.25, 3.9300000000000004E-12, 1.11093E-05, , , , 
DataValue, 5.84, 0.25, 4.01E-12, 1.0993100000000002E-05, , , , 
DataValue, 5.8, 0.25, 3.23E-12, 1.0874800000000001E-05, , , , 
