
SetupTitle, ID-VG Postbreak
PrimitiveTest, I/V Sweep
TestParameter, Context.MainFrame, B1500A
TestParameter, Channel.UnitType, SMU, SMU
TestParameter, Channel.Unit, SMU1:MP, SMU2:MP
TestParameter, Channel.IName, I1, I2
TestParameter, Channel.VName, V1, V2
TestParameter, Channel.Mode, V, V
TestParameter, Channel.Func, VAR1, CONST
TestParameter, Channel.Index, 
TestParameter, Channel.Time, 
TestParameter, Measurement.Port.Unit, SMU1:MP, SMU2:MP
TestParameter, Measurement.Port.SeriesResistor, NONE, NONE
TestParameter, Measurement.Port.Filter, ON, ON
TestParameter, Measurement.Port.OutputVoltageComparison, 0, 0
TestParameter, Measurement.Primary.Locus, Double
TestParameter, Measurement.Primary.Scale, LINEAR
TestParameter, Measurement.Primary.Start, -2
TestParameter, Measurement.Primary.Stop, 6
TestParameter, Measurement.Primary.Step, 0.04
TestParameter, Measurement.Primary.Compliance, 0.1
TestParameter, Measurement.Primary.PowerCompliance, 0
TestParameter, Measurement.Aborting.Condition, CONTINUE AT ANY
TestParameter, Measurement.PostOutput.Value, START
TestParameter, Measurement.PostOutput.Retention, OFF
TestParameter, Measurement.Bias.Source, -2, 0.25
TestParameter, Measurement.Bias.Compliance, 0.1, 0.1
TestParameter, Measurement.Monitor.Unit, SMU1:MP, SMU2:MP
TestParameter, Measurement.Monitor.Adc, HR ADC, HR ADC
TestParameter, Measurement.Monitor.Measurement, Compliance Side, Compliance Side
TestParameter, Measurement.Monitor.RangingMode, LIMITED, LIMITED
TestParameter, Measurement.Monitor.RangeBoundary, 1nA, 1nA
TestParameter, Measurement.Monitor.RangeRating, BY FULL RANGE, BY FULL RANGE
TestParameter, Measurement.Monitor.RangeRatingCoeff, 50, 50
TestParameter, Measurement.Timing.Hold, 0
TestParameter, Measurement.Timing.Delay, 0
TestParameter, Measurement.Adc.HighSpeed.Mode, AUTO
TestParameter, Measurement.Adc.HighSpeed.Coeff, 1
TestParameter, Measurement.Adc.HighResolution.AutoZero, OFF
TestParameter, Measurement.Adc.HighResolution.Mode, AUTO
TestParameter, Measurement.Adc.HighResolution.Coeff, 6
TestParameter, Measurement.WaitTime.Source.Coeff, 1
TestParameter, Measurement.WaitTime.Source.Offset, 0
TestParameter, Measurement.WaitTime.Monitor.Coeff, 1
TestParameter, Measurement.WaitTime.Monitor.Offset, 0
TestParameter, Output.Graph.Enabled, true
TestParameter, Output.Graph.AutoScaling, false
TestParameter, Output.Graph.XAxis.Data, V1
TestParameter, Output.Graph.XAxis.Scale, Linear
TestParameter, Output.Graph.XAxis.Left, -2
TestParameter, Output.Graph.XAxis.Right, 6
TestParameter, Output.Graph.XAxis.RunTimeAutoScale, true
TestParameter, Output.Graph.YAxis.Data, I2
TestParameter, Output.Graph.YAxis.Scale, Linear
TestParameter, Output.Graph.YAxis.Bottom, -0.1
TestParameter, Output.Graph.YAxis.Top, 0.1
TestParameter, Output.Graph.YAxis.Group, 
TestParameter, Output.Graph.YAxis.RunTimeAutoScale, true
TestParameter, Output.List.Data, V1, I1, V2, I2, V3, I3, V4, I4
TestParameter, AutoAnalysis.Interpolation, false
TestParameter, AutoAnalysis.Line1.Enabled, false
TestParameter, AutoAnalysis.Line1.Type, 1
TestParameter, AutoAnalysis.Line1.Fix, True
TestParameter, AutoAnalysis.Line1.YAxis, 0
TestParameter, AutoAnalysis.Line1.Point1.Type, 0
TestParameter, AutoAnalysis.Line1.Point1.XY.X, 
TestParameter, AutoAnalysis.Line1.Point1.XY.Y, 
TestParameter, AutoAnalysis.Line1.Point1.Data.Var, 
TestParameter, AutoAnalysis.Line1.Point1.Data.Condition, 
TestParameter, AutoAnalysis.Line1.Point1.Data.Start, false
TestParameter, AutoAnalysis.Line1.Point1.Data.StartVar, 
TestParameter, AutoAnalysis.Line1.Point1.Data.StartCondition, 
TestParameter, AutoAnalysis.Line1.Point2.Type, 0
TestParameter, AutoAnalysis.Line1.Point2.XY.X, 
TestParameter, AutoAnalysis.Line1.Point2.XY.Y, 
TestParameter, AutoAnalysis.Line1.Point2.Data.Var, 
TestParameter, AutoAnalysis.Line1.Point2.Data.Condition, 
TestParameter, AutoAnalysis.Line1.Point2.Data.Start, false
TestParameter, AutoAnalysis.Line1.Point2.Data.StartVar, 
TestParameter, AutoAnalysis.Line1.Point2.Data.StartCondition, 
TestParameter, AutoAnalysis.Line1.GradientExpr, 0
TestParameter, AutoAnalysis.Line2.Enabled, false
TestParameter, AutoAnalysis.Line2.Type, 1
TestParameter, AutoAnalysis.Line2.Fix, True
TestParameter, AutoAnalysis.Line2.YAxis, 0
TestParameter, AutoAnalysis.Line2.Point1.Type, 0
TestParameter, AutoAnalysis.Line2.Point1.XY.X, 
TestParameter, AutoAnalysis.Line2.Point1.XY.Y, 
TestParameter, AutoAnalysis.Line2.Point1.Data.Var, 
TestParameter, AutoAnalysis.Line2.Point1.Data.Condition, 
TestParameter, AutoAnalysis.Line2.Point1.Data.Start, false
TestParameter, AutoAnalysis.Line2.Point1.Data.StartVar, 
TestParameter, AutoAnalysis.Line2.Point1.Data.StartCondition, 
TestParameter, AutoAnalysis.Line2.Point2.Type, 0
TestParameter, AutoAnalysis.Line2.Point2.XY.X, 
TestParameter, AutoAnalysis.Line2.Point2.XY.Y, 
TestParameter, AutoAnalysis.Line2.Point2.Data.Var, 
TestParameter, AutoAnalysis.Line2.Point2.Data.Condition, 
TestParameter, AutoAnalysis.Line2.Point2.Data.Start, false
TestParameter, AutoAnalysis.Line2.Point2.Data.StartVar, 
TestParameter, AutoAnalysis.Line2.Point2.Data.StartCondition, 
TestParameter, AutoAnalysis.Line2.GradientExpr, 0
TestParameter, AutoAnalysis.Marker.Enabled, false
TestParameter, AutoAnalysis.Marker.Data.Var, 
TestParameter, AutoAnalysis.Marker.Data.Condition, 
TestParameter, AutoAnalysis.Marker.Data.Start, false
TestParameter, AutoAnalysis.Marker.Data.StartVar, 
TestParameter, AutoAnalysis.Marker.Data.StartCondition, 
MetaData, TestRecord.EntryPoint, true
MetaData, TestRecord.RecordTime, 03/10/2023 16:40:40
MetaData, TestRecord.TestTarget, 
MetaData, TestRecord.IterationIndex, 21
MetaData, TestRecord.Preservation, true
MetaData, TestRecord.Flag, 
MetaData, TestRecord.Remarks, 
MetaData, TestRecord.LinkKey, c5a953e6-4c3b-45a7-b748-396deccaaa7c
Dimension1, 402, 402, 402, 402, 402, 402, 402, 402
Dimension2, 1, 1, 1, 1, 1, 1, 1, 1
DataName, V1, V2, I1, I2, V3, I3, V4, I4
DataValue, -2, 0.25, -1.048E-11, 1.8000000000000002E-13, , , , 
DataValue, -1.96, 0.25, -1.1120000000000001E-11, 1.249E-11, , , , 
DataValue, -1.92, 0.25, 6.9000000000000009E-13, 2.6190000000000002E-11, , , , 
DataValue, -1.8800000000000001, 0.25, 8E-12, 2.0660000000000003E-11, , , , 
DataValue, -1.84, 0.25, 1.4E-12, 2.82E-12, , , , 
DataValue, -1.8, 0.25, -1.076E-11, -2.8300000000000003E-12, , , , 
DataValue, -1.76, 0.25, -1.048E-11, 1.835E-11, , , , 
DataValue, -1.72, 0.25, 4.47E-12, 2.1420000000000002E-11, , , , 
DataValue, -1.68, 0.25, 7.84E-12, 7.54E-12, , , , 
DataValue, -1.6400000000000001, 0.25, -5.6200000000000007E-12, -2.21E-12, , , , 
DataValue, -1.6, 0.25, -9.8900000000000009E-12, 8.2900000000000012E-12, , , , 
DataValue, -1.56, 0.25, 2.3000000000000003E-13, 2.5080000000000002E-11, , , , 
DataValue, -1.52, 0.25, 1.068E-11, 2.3120000000000003E-11, , , , 
DataValue, -1.48, 0.25, 6.4200000000000005E-12, 3.4400000000000003E-12, , , , 
DataValue, -1.44, 0.25, -7.0400000000000007E-12, -1.69E-12, , , , 
DataValue, -1.4000000000000001, 0.25, -1.057E-11, 1.6560000000000002E-11, , , , 
DataValue, -1.36, 0.25, 5.4700000000000007E-12, 2.4040000000000002E-11, , , , 
DataValue, -1.32, 0.25, 7.42E-12, 1.1450000000000002E-11, , , , 
DataValue, -1.28, 0.25, -1.79E-12, -3.18E-12, , , , 
DataValue, -1.24, 0.25, -1.0330000000000001E-11, -4.4000000000000004E-13, , , , 
DataValue, -1.2, 0.25, -3E-12, 1.9750000000000003E-11, , , , 
DataValue, -1.16, 0.25, 9.47E-12, 2.38E-11, , , , 
DataValue, -1.12, 0.25, 8.7900000000000011E-12, 3.3200000000000004E-12, , , , 
DataValue, -1.08, 0.25, -9.3800000000000008E-12, -3.58E-12, , , , 
DataValue, -1.04, 0.25, -8.7000000000000013E-12, 1.879E-11, , , , 
DataValue, -1, 0.25, 6.31E-12, 2.1170000000000003E-11, , , , 
DataValue, -0.96, 0.25, 8.5700000000000008E-12, 8.9000000000000013E-12, , , , 
DataValue, -0.92, 0.25, -3.0300000000000002E-12, -3.48E-12, , , , 
DataValue, -0.88, 0.25, -1.0030000000000002E-11, 2.37E-12, , , , 
DataValue, -0.84, 0.25, -7.2500000000000008E-12, 1.7710000000000003E-11, , , , 
DataValue, -0.8, 0.25, 7.2800000000000013E-12, 2.2530000000000002E-11, , , , 
DataValue, -0.76, 0.25, 1.0340000000000002E-11, 5.55E-12, , , , 
DataValue, -0.72, 0.25, -4.53E-12, -1.32E-12, , , , 
DataValue, -0.68, 0.25, -7.06E-12, 1.107E-11, , , , 
DataValue, -0.64, 0.25, 3.7400000000000006E-12, 2.4750000000000002E-11, , , , 
DataValue, -0.6, 0.25, 1.1150000000000002E-11, 2.0180000000000002E-11, , , , 
DataValue, -0.56, 0.25, 2.8600000000000003E-12, 5.5000000000000008E-13, , , , 
DataValue, -0.52, 0.25, -9.53E-12, -2.79E-12, , , , 
DataValue, -0.48, 0.25, -7.2800000000000013E-12, 1.8800000000000002E-11, , , , 
DataValue, -0.44, 0.25, 7.1900000000000007E-12, 2.2210000000000003E-11, , , , 
DataValue, -0.4, 0.25, 1.0840000000000002E-11, 5.3700000000000007E-12, , , , 
DataValue, -0.36, 0.25, -4.46E-12, -2.82E-12, , , , 
DataValue, -0.32, 0.25, -6.8300000000000006E-12, 1.0320000000000001E-11, , , , 
DataValue, -0.28, 0.25, 3.61E-12, 2.4920000000000003E-11, , , , 
DataValue, -0.24, 0.25, 1.1240000000000001E-11, 1.9980000000000002E-11, , , , 
DataValue, -0.2, 0.25, 1.8400000000000002E-12, -4.0900000000000005E-12, , , , 
DataValue, -0.16, 0.25, -9.6900000000000009E-12, -1.0500000000000002E-12, , , , 
DataValue, -0.12, 0.25, -2.9300000000000002E-12, 1.9550000000000003E-11, , , , 
DataValue, -0.08, 0.25, 1.1930000000000001E-11, 2.1680000000000003E-11, , , , 
DataValue, -0.04, 0.25, 6.8500000000000009E-12, 2.74E-12, , , , 
DataValue, 0, 0.25, -7.3800000000000013E-12, -4.16E-12, , , , 
DataValue, 0.04, 0.25, -9.06E-12, 1.6710000000000003E-11, , , , 
DataValue, 0.08, 0.25, 4.47E-12, 2.4750000000000002E-11, , , , 
DataValue, 0.12, 0.25, 1.177E-11, 1.93E-11, , , , 
DataValue, 0.16, 0.25, 5.2000000000000005E-12, -5E-14, , , , 
DataValue, 0.2, 0.25, -8.93E-12, -2.5600000000000004E-12, , , , 
DataValue, 0.24, 0.25, -1.26E-12, 2.0880000000000003E-11, , , , 
DataValue, 0.28, 0.25, 1.1210000000000001E-11, 2.5920000000000003E-11, , , , 
DataValue, 0.32, 0.25, 9.2200000000000015E-12, 2.7100000000000004E-12, , , , 
DataValue, 0.36, 0.25, -3.2600000000000002E-12, 2.24E-12, , , , 
DataValue, 0.4, 0.25, -8.31E-12, 1.3370000000000001E-11, , , , 
DataValue, 0.44, 0.25, 2.39E-12, 1.1620000000000001E-11, , , , 
DataValue, 0.48, 0.25, 1.1500000000000002E-12, 1.0840000000000002E-11, , , , 
DataValue, 0.52, 0.25, 2.34E-12, 1.0020000000000001E-11, , , , 
DataValue, 0.56, 0.25, 1.14E-12, 1.0210000000000001E-11, , , , 
DataValue, 0.6, 0.25, 2.06E-12, 1.21E-11, , , , 
DataValue, 0.64, 0.25, 2.37E-12, 1.2E-11, , , , 
DataValue, 0.68, 0.25, 1.1100000000000001E-12, 1.0440000000000002E-11, , , , 
DataValue, 0.72, 0.25, 1.8900000000000002E-12, 9.86E-12, , , , 
DataValue, 0.76, 0.25, 1.26E-12, 1.116E-11, , , , 
DataValue, 0.8, 0.25, 1.74E-12, 1.19E-11, , , , 
DataValue, 0.84, 0.25, 1.1900000000000002E-12, 1.1340000000000001E-11, , , , 
DataValue, 0.88, 0.25, 1.2800000000000002E-12, 1.1130000000000001E-11, , , , 
DataValue, 0.92, 0.25, 1.91E-12, 9.97E-12, , , , 
DataValue, 0.96, 0.25, 1.6100000000000002E-12, 1.147E-11, , , , 
DataValue, 1, 0.25, 2.18E-12, 1.211E-11, , , , 
DataValue, 1.04, 0.25, 1.9900000000000002E-12, 1.1930000000000001E-11, , , , 
DataValue, 1.08, 0.25, 2.08E-12, 1.078E-11, , , , 
DataValue, 1.12, 0.25, 9.3E-13, 1.2430000000000001E-11, , , , 
DataValue, 1.16, 0.25, 2.6500000000000002E-12, 1.4270000000000001E-11, , , , 
DataValue, 1.2, 0.25, 1.74E-12, 1.3890000000000002E-11, , , , 
DataValue, 1.24, 0.25, 1.79E-12, 1.393E-11, , , , 
DataValue, 1.28, 0.25, 1.8400000000000002E-12, 1.3900000000000002E-11, , , , 
DataValue, 1.32, 0.25, 2.1700000000000002E-12, 1.7160000000000002E-11, , , , 
DataValue, 1.36, 0.25, 2.6300000000000003E-12, 1.9150000000000003E-11, , , , 
DataValue, 1.4000000000000001, 0.25, 1.79E-12, 2.0950000000000003E-11, , , , 
DataValue, 1.44, 0.25, 2.7600000000000004E-12, 2.2970000000000002E-11, , , , 
DataValue, 1.48, 0.25, 1.9400000000000002E-12, 2.6280000000000002E-11, , , , 
DataValue, 1.52, 0.25, 2.04E-12, 3.2870000000000005E-11, , , , 
DataValue, 1.56, 0.25, 1.86E-12, 3.9680000000000005E-11, , , , 
DataValue, 1.6, 0.25, 2.23E-12, 4.719E-11, , , , 
DataValue, 1.6400000000000001, 0.25, 2.2200000000000002E-12, 5.7040000000000004E-11, , , , 
DataValue, 1.68, 0.25, 1.0600000000000001E-12, 7.1750000000000011E-11, , , , 
DataValue, 1.72, 0.25, 2.31E-12, 9.2980000000000011E-11, , , , 
DataValue, 1.76, 0.25, 3.0300000000000002E-12, 1.1902000000000002E-10, , , , 
DataValue, 1.8, 0.25, 2.3800000000000004E-12, 1.5139E-10, , , , 
DataValue, 1.84, 0.25, 1.7000000000000002E-12, 1.9688000000000002E-10, , , , 
DataValue, 1.8800000000000001, 0.25, 2.03E-12, 2.5936E-10, , , , 
DataValue, 1.92, 0.25, 2.6100000000000004E-12, 3.4255E-10, , , , 
DataValue, 1.96, 0.25, 1.6800000000000001E-12, 4.5446000000000005E-10, , , , 
DataValue, 2, 0.25, 2.6500000000000002E-12, 6.0702E-10, , , , 
DataValue, 2.04, 0.25, 2.49E-12, 8.1361E-10, , , , 
DataValue, 2.08, 0.25, 1.79E-12, 1.10001E-09, , , , 
DataValue, 2.12, 0.25, 2.5000000000000003E-12, 1.7449E-09, , , , 
DataValue, 2.16, 0.25, 2.5300000000000003E-12, 2.3156E-09, , , , 
DataValue, 2.2, 0.25, 2.97E-12, 3.1122E-09, , , , 
DataValue, 2.24, 0.25, 2.8100000000000003E-12, 4.1821E-09, , , , 
DataValue, 2.2800000000000002, 0.25, 3.1600000000000003E-12, 5.6411E-09, , , , 
DataValue, 2.32, 0.25, 3.38E-12, 7.6176E-09, , , , 
DataValue, 2.36, 0.25, 3E-12, 1.0282E-08, , , , 
DataValue, 2.4, 0.25, 2.57E-12, 1.4595399999999998E-08, , , , 
DataValue, 2.44, 0.25, 2.9400000000000004E-12, 1.9775199999999998E-08, , , , 
DataValue, 2.48, 0.25, 2.6100000000000004E-12, 2.6669999999999997E-08, , , , 
DataValue, 2.52, 0.25, 3.5700000000000003E-12, 3.57632E-08, , , , 
DataValue, 2.56, 0.25, 3.2E-12, 4.7619199999999995E-08, , , , 
DataValue, 2.6, 0.25, 3.15E-12, 6.295339999999999E-08, , , , 
DataValue, 2.64, 0.25, 3.6000000000000004E-12, 8.2909199999999989E-08, , , , 
DataValue, 2.68, 0.25, 3.3400000000000003E-12, 1.0721879999999999E-07, , , , 
DataValue, 2.72, 0.25, 3.4700000000000004E-12, 1.3576E-07, , , , 
DataValue, 2.7600000000000002, 0.25, 3.1900000000000003E-12, 1.6984E-07, , , , 
DataValue, 2.8000000000000003, 0.25, 3.0800000000000002E-12, 2.1133999999999999E-07, , , , 
DataValue, 2.84, 0.25, 3.7E-12, 2.611E-07, , , , 
DataValue, 2.88, 0.25, 3.8800000000000004E-12, 3.201E-07, , , , 
DataValue, 2.92, 0.25, 3.77E-12, 3.9018E-07, , , , 
DataValue, 2.96, 0.25, 3.7300000000000005E-12, 4.7166E-07, , , , 
DataValue, 3, 0.25, 4.1500000000000007E-12, 5.663E-07, , , , 
DataValue, 3.04, 0.25, 3.2100000000000003E-12, 6.7494E-07, , , , 
DataValue, 3.08, 0.25, 3.05E-12, 7.9738E-07, , , , 
DataValue, 3.12, 0.25, 3.85E-12, 9.3942E-07, , , , 
DataValue, 3.16, 0.25, 4.8000000000000005E-12, 1.1008E-06, , , , 
DataValue, 3.2, 0.25, 3.76E-12, 1.4239E-06, , , , 
DataValue, 3.24, 0.25, 3.77E-12, 1.6258000000000002E-06, , , , 
DataValue, 3.2800000000000002, 0.25, 3.96E-12, 1.8532E-06, , , , 
DataValue, 3.3200000000000003, 0.25, 3.2600000000000002E-12, 2.1060000000000002E-06, , , , 
DataValue, 3.36, 0.25, 4.01E-12, 2.3856E-06, , , , 
DataValue, 3.4, 0.25, 4.4000000000000006E-12, 2.6913000000000004E-06, , , , 
DataValue, 3.44, 0.25, 3.8400000000000006E-12, 3.0260000000000003E-06, , , , 
DataValue, 3.48, 0.25, 4.5500000000000006E-12, 3.3865000000000005E-06, , , , 
DataValue, 3.52, 0.25, 3.82E-12, 3.7712000000000004E-06, , , , 
DataValue, 3.56, 0.25, 3.72E-12, 4.1737E-06, , , , 
DataValue, 3.6, 0.25, 4.88E-12, 4.6135000000000008E-06, , , , 
DataValue, 3.64, 0.25, 4.4900000000000005E-12, 5.0820000000000006E-06, , , , 
DataValue, 3.68, 0.25, 4.22E-12, 5.5761000000000007E-06, , , , 
DataValue, 3.72, 0.25, 4.6900000000000004E-12, 6.0974E-06, , , , 
DataValue, 3.7600000000000002, 0.25, 4.37E-12, 6.640500000000001E-06, , , , 
DataValue, 3.8000000000000003, 0.25, 4.37E-12, 7.2040000000000008E-06, , , , 
DataValue, 3.84, 0.25, 4.6000000000000006E-12, 7.7909E-06, , , , 
DataValue, 3.88, 0.25, 4.28E-12, 8.4018000000000014E-06, , , , 
DataValue, 3.92, 0.25, 5.38E-12, 9.0247E-06, , , , 
DataValue, 3.96, 0.25, 4.26E-12, 9.673E-06, , , , 
DataValue, 4, 0.25, 4.9500000000000005E-12, 1.0337700000000001E-05, , , , 
DataValue, 4.04, 0.25, 5.19E-12, 1.1018000000000002E-05, , , , 
DataValue, 4.08, 0.25, 4.6100000000000008E-12, 1.2308E-05, , , , 
DataValue, 4.12, 0.25, 4.9600000000000007E-12, 1.2964E-05, , , , 
DataValue, 4.16, 0.25, 5.1000000000000005E-12, 1.3646000000000001E-05, , , , 
DataValue, 4.2, 0.25, 4.53E-12, 1.4344E-05, , , , 
DataValue, 4.24, 0.25, 4.78E-12, 1.5058E-05, , , , 
DataValue, 4.28, 0.25, 5.1600000000000006E-12, 1.5788000000000002E-05, , , , 
DataValue, 4.32, 0.25, 5.79E-12, 1.6534E-05, , , , 
DataValue, 4.36, 0.25, 5.89E-12, 1.7304E-05, , , , 
DataValue, 4.4, 0.25, 5.55E-12, 1.8076E-05, , , , 
DataValue, 4.44, 0.25, 5.3700000000000007E-12, 1.8864E-05, , , , 
DataValue, 4.48, 0.25, 5.49E-12, 1.9656E-05, , , , 
DataValue, 4.5200000000000005, 0.25, 6.2900000000000009E-12, 2.0462E-05, , , , 
DataValue, 4.5600000000000005, 0.25, 5.4500000000000004E-12, 2.1274E-05, , , , 
DataValue, 4.6000000000000005, 0.25, 6E-12, 2.2098E-05, , , , 
DataValue, 4.64, 0.25, 6E-12, 2.2934E-05, , , , 
DataValue, 4.68, 0.25, 5.65E-12, 2.3772000000000002E-05, , , , 
DataValue, 4.72, 0.25, 5.89E-12, 2.4622000000000002E-05, , , , 
DataValue, 4.76, 0.25, 6.6400000000000008E-12, 2.5474E-05, , , , 
DataValue, 4.8, 0.25, 7.26E-12, 2.633E-05, , , , 
DataValue, 4.84, 0.25, 7.27E-12, 2.7190000000000002E-05, , , , 
DataValue, 4.88, 0.25, 6.46E-12, 2.8056E-05, , , , 
DataValue, 4.92, 0.25, 6.41E-12, 2.8926E-05, , , , 
DataValue, 4.96, 0.25, 6.3E-12, 2.9800000000000003E-05, , , , 
DataValue, 5, 0.25, 6.5700000000000005E-12, 3.0666E-05, , , , 
DataValue, 5.04, 0.25, 6.5900000000000008E-12, 3.1536000000000004E-05, , , , 
DataValue, 5.08, 0.25, 7.6800000000000012E-12, 3.2404000000000003E-05, , , , 
DataValue, 5.12, 0.25, 7.2300000000000005E-12, 3.3278E-05, , , , 
DataValue, 5.16, 0.25, 7.8800000000000012E-12, 3.415E-05, , , , 
DataValue, 5.2, 0.25, 7.1800000000000005E-12, 3.5016E-05, , , , 
DataValue, 5.24, 0.25, 7.29E-12, 3.5882E-05, , , , 
DataValue, 5.28, 0.25, 8.11E-12, 3.6772E-05, , , , 
DataValue, 5.32, 0.25, 7.35E-12, 3.762E-05, , , , 
DataValue, 5.36, 0.25, 7.61E-12, 3.847E-05, , , , 
DataValue, 5.4, 0.25, 7.9600000000000008E-12, 3.9314000000000003E-05, , , , 
DataValue, 5.44, 0.25, 8E-12, 4.0152000000000005E-05, , , , 
DataValue, 5.48, 0.25, 7.8900000000000013E-12, 4.0982E-05, , , , 
DataValue, 5.5200000000000005, 0.25, 8.780000000000001E-12, 4.18E-05, , , , 
DataValue, 5.5600000000000005, 0.25, 9.17E-12, 4.2614E-05, , , , 
DataValue, 5.6000000000000005, 0.25, 8.51E-12, 4.3404E-05, , , , 
DataValue, 5.64, 0.25, 8.680000000000001E-12, 4.4202E-05, , , , 
DataValue, 5.68, 0.25, 8.8100000000000014E-12, 4.4992E-05, , , , 
DataValue, 5.72, 0.25, 8.06E-12, 4.5770000000000004E-05, , , , 
DataValue, 5.76, 0.25, 8.34E-12, 4.6542E-05, , , , 
DataValue, 5.8, 0.25, 8.55E-12, 4.7294000000000005E-05, , , , 
DataValue, 5.84, 0.25, 9.2200000000000015E-12, 4.8044E-05, , , , 
DataValue, 5.88, 0.25, 9.15E-12, 4.8796000000000005E-05, , , , 
DataValue, 5.92, 0.25, 9.8900000000000009E-12, 4.9518E-05, , , , 
DataValue, 5.96, 0.25, 9.9100000000000012E-12, 5.0254000000000004E-05, , , , 
DataValue, 6, 0.25, 9.1800000000000009E-12, 5.0956000000000005E-05, , , , 
DataValue, 6, 0.25, 9.4000000000000011E-12, 5.1064000000000004E-05, , , , 
DataValue, 5.96, 0.25, 9.0000000000000012E-12, 5.1454E-05, , , , 
DataValue, 5.92, 0.25, 8.8100000000000014E-12, 5.1684E-05, , , , 
DataValue, 5.88, 0.25, 7.4800000000000012E-12, 5.1798E-05, , , , 
DataValue, 5.84, 0.25, 7.02E-12, 5.1834E-05, , , , 
