
SetupTitle, ID-VG Postbreak
PrimitiveTest, I/V Sweep
TestParameter, Context.MainFrame, B1500A
TestParameter, Channel.UnitType, SMU, SMU
TestParameter, Channel.Unit, SMU1:MP, SMU2:MP
TestParameter, Channel.IName, I1, I2
TestParameter, Channel.VName, V1, V2
TestParameter, Channel.Mode, V, V
TestParameter, Channel.Func, VAR1, CONST
TestParameter, Channel.Index, 
TestParameter, Channel.Time, 
TestParameter, Measurement.Port.Unit, SMU1:MP, SMU2:MP
TestParameter, Measurement.Port.SeriesResistor, NONE, NONE
TestParameter, Measurement.Port.Filter, ON, ON
TestParameter, Measurement.Port.OutputVoltageComparison, 0, 0
TestParameter, Measurement.Primary.Locus, Double
TestParameter, Measurement.Primary.Scale, LINEAR
TestParameter, Measurement.Primary.Start, -2
TestParameter, Measurement.Primary.Stop, 6
TestParameter, Measurement.Primary.Step, 0.04
TestParameter, Measurement.Primary.Compliance, 0.1
TestParameter, Measurement.Primary.PowerCompliance, 0
TestParameter, Measurement.Aborting.Condition, CONTINUE AT ANY
TestParameter, Measurement.PostOutput.Value, START
TestParameter, Measurement.PostOutput.Retention, OFF
TestParameter, Measurement.Bias.Source, -2, 0.25
TestParameter, Measurement.Bias.Compliance, 0.1, 0.1
TestParameter, Measurement.Monitor.Unit, SMU1:MP, SMU2:MP
TestParameter, Measurement.Monitor.Adc, HR ADC, HR ADC
TestParameter, Measurement.Monitor.Measurement, Compliance Side, Compliance Side
TestParameter, Measurement.Monitor.RangingMode, LIMITED, LIMITED
TestParameter, Measurement.Monitor.RangeBoundary, 1nA, 1nA
TestParameter, Measurement.Monitor.RangeRating, BY FULL RANGE, BY FULL RANGE
TestParameter, Measurement.Monitor.RangeRatingCoeff, 50, 50
TestParameter, Measurement.Timing.Hold, 0
TestParameter, Measurement.Timing.Delay, 0
TestParameter, Measurement.Adc.HighSpeed.Mode, AUTO
TestParameter, Measurement.Adc.HighSpeed.Coeff, 1
TestParameter, Measurement.Adc.HighResolution.AutoZero, OFF
TestParameter, Measurement.Adc.HighResolution.Mode, AUTO
TestParameter, Measurement.Adc.HighResolution.Coeff, 6
TestParameter, Measurement.WaitTime.Source.Coeff, 1
TestParameter, Measurement.WaitTime.Source.Offset, 0
TestParameter, Measurement.WaitTime.Monitor.Coeff, 1
TestParameter, Measurement.WaitTime.Monitor.Offset, 0
TestParameter, Output.Graph.Enabled, true
TestParameter, Output.Graph.AutoScaling, false
TestParameter, Output.Graph.XAxis.Data, V1
TestParameter, Output.Graph.XAxis.Scale, Linear
TestParameter, Output.Graph.XAxis.Left, -2
TestParameter, Output.Graph.XAxis.Right, 6
TestParameter, Output.Graph.XAxis.RunTimeAutoScale, true
TestParameter, Output.Graph.YAxis.Data, I2
TestParameter, Output.Graph.YAxis.Scale, Linear
TestParameter, Output.Graph.YAxis.Bottom, -0.1
TestParameter, Output.Graph.YAxis.Top, 0.1
TestParameter, Output.Graph.YAxis.Group, 
TestParameter, Output.Graph.YAxis.RunTimeAutoScale, true
TestParameter, Output.List.Data, V1, I1, V2, I2, V3, I3, V4, I4
TestParameter, AutoAnalysis.Interpolation, false
TestParameter, AutoAnalysis.Line1.Enabled, false
TestParameter, AutoAnalysis.Line1.Type, 1
TestParameter, AutoAnalysis.Line1.Fix, True
TestParameter, AutoAnalysis.Line1.YAxis, 0
TestParameter, AutoAnalysis.Line1.Point1.Type, 0
TestParameter, AutoAnalysis.Line1.Point1.XY.X, 
TestParameter, AutoAnalysis.Line1.Point1.XY.Y, 
TestParameter, AutoAnalysis.Line1.Point1.Data.Var, 
TestParameter, AutoAnalysis.Line1.Point1.Data.Condition, 
TestParameter, AutoAnalysis.Line1.Point1.Data.Start, false
TestParameter, AutoAnalysis.Line1.Point1.Data.StartVar, 
TestParameter, AutoAnalysis.Line1.Point1.Data.StartCondition, 
TestParameter, AutoAnalysis.Line1.Point2.Type, 0
TestParameter, AutoAnalysis.Line1.Point2.XY.X, 
TestParameter, AutoAnalysis.Line1.Point2.XY.Y, 
TestParameter, AutoAnalysis.Line1.Point2.Data.Var, 
TestParameter, AutoAnalysis.Line1.Point2.Data.Condition, 
TestParameter, AutoAnalysis.Line1.Point2.Data.Start, false
TestParameter, AutoAnalysis.Line1.Point2.Data.StartVar, 
TestParameter, AutoAnalysis.Line1.Point2.Data.StartCondition, 
TestParameter, AutoAnalysis.Line1.GradientExpr, 0
TestParameter, AutoAnalysis.Line2.Enabled, false
TestParameter, AutoAnalysis.Line2.Type, 1
TestParameter, AutoAnalysis.Line2.Fix, True
TestParameter, AutoAnalysis.Line2.YAxis, 0
TestParameter, AutoAnalysis.Line2.Point1.Type, 0
TestParameter, AutoAnalysis.Line2.Point1.XY.X, 
TestParameter, AutoAnalysis.Line2.Point1.XY.Y, 
TestParameter, AutoAnalysis.Line2.Point1.Data.Var, 
TestParameter, AutoAnalysis.Line2.Point1.Data.Condition, 
TestParameter, AutoAnalysis.Line2.Point1.Data.Start, false
TestParameter, AutoAnalysis.Line2.Point1.Data.StartVar, 
TestParameter, AutoAnalysis.Line2.Point1.Data.StartCondition, 
TestParameter, AutoAnalysis.Line2.Point2.Type, 0
TestParameter, AutoAnalysis.Line2.Point2.XY.X, 
TestParameter, AutoAnalysis.Line2.Point2.XY.Y, 
TestParameter, AutoAnalysis.Line2.Point2.Data.Var, 
TestParameter, AutoAnalysis.Line2.Point2.Data.Condition, 
TestParameter, AutoAnalysis.Line2.Point2.Data.Start, false
TestParameter, AutoAnalysis.Line2.Point2.Data.StartVar, 
TestParameter, AutoAnalysis.Line2.Point2.Data.StartCondition, 
TestParameter, AutoAnalysis.Line2.GradientExpr, 0
TestParameter, AutoAnalysis.Marker.Enabled, false
TestParameter, AutoAnalysis.Marker.Data.Var, 
TestParameter, AutoAnalysis.Marker.Data.Condition, 
TestParameter, AutoAnalysis.Marker.Data.Start, false
TestParameter, AutoAnalysis.Marker.Data.StartVar, 
TestParameter, AutoAnalysis.Marker.Data.StartCondition, 
MetaData, TestRecord.EntryPoint, true
MetaData, TestRecord.RecordTime, 03/10/2023 16:42:16
MetaData, TestRecord.TestTarget, 
MetaData, TestRecord.IterationIndex, 23
MetaData, TestRecord.Preservation, true
MetaData, TestRecord.Flag, 
MetaData, TestRecord.Remarks, 
MetaData, TestRecord.LinkKey, d4cdc62c-da64-408c-af91-6e1027bf46bb
Dimension1, 402, 402, 402, 402, 402, 402, 402, 402
Dimension2, 1, 1, 1, 1, 1, 1, 1, 1
DataName, V1, V2, I1, I2, V3, I3, V4, I4
DataValue, -2, 0.25, -5.5600000000000005E-12, 3.5200000000000003E-12, , , , 
DataValue, -1.96, 0.25, -2.47E-12, 3.56E-12, , , , 
DataValue, -1.92, 0.25, -3.0800000000000002E-12, 3.07E-12, , , , 
DataValue, -1.8800000000000001, 0.25, -2.14E-12, 2.8400000000000004E-12, , , , 
DataValue, -1.84, 0.25, -2.41E-12, 3.2900000000000003E-12, , , , 
DataValue, -1.8, 0.25, -1.73E-12, 4.2000000000000007E-12, , , , 
DataValue, -1.76, 0.25, -1.22E-12, 3.6900000000000006E-12, , , , 
DataValue, -1.72, 0.25, -1.12E-12, 2.62E-12, , , , 
DataValue, -1.68, 0.25, -6.7000000000000007E-13, 2.28E-12, , , , 
DataValue, -1.6400000000000001, 0.25, -8.6000000000000007E-13, 2.97E-12, , , , 
DataValue, -1.6, 0.25, -7E-14, 4.5000000000000006E-12, , , , 
DataValue, -1.56, 0.25, -1.1900000000000002E-12, 3.4200000000000004E-12, , , , 
DataValue, -1.52, 0.25, -1.03E-12, 2.3200000000000002E-12, , , , 
DataValue, -1.48, 0.25, -1.2000000000000001E-12, 2.9600000000000003E-12, , , , 
DataValue, -1.44, 0.25, -3.7000000000000004E-13, 4.6400000000000004E-12, , , , 
DataValue, -1.4000000000000001, 0.25, -3.0000000000000003E-13, 4.1500000000000007E-12, , , , 
DataValue, -1.36, 0.25, 1.7E-13, 2.39E-12, , , , 
DataValue, -1.32, 0.25, 0, 1.5700000000000002E-12, , , , 
DataValue, -1.28, 0.25, -5.1E-13, 3.4500000000000004E-12, , , , 
DataValue, -1.24, 0.25, 8.1000000000000008E-13, 3.7400000000000006E-12, , , , 
DataValue, -1.2, 0.25, -1E-13, 2.8300000000000003E-12, , , , 
DataValue, -1.16, 0.25, -2.2000000000000002E-13, 1.2900000000000002E-12, , , , 
DataValue, -1.12, 0.25, -1.7E-13, 2.4300000000000003E-12, , , , 
DataValue, -1.08, 0.25, 2.2000000000000002E-13, 3.6000000000000004E-12, , , , 
DataValue, -1.04, 0.25, 5.8000000000000005E-13, 3.82E-12, , , , 
DataValue, -1, 0.25, 1.3E-13, 2.7100000000000004E-12, , , , 
DataValue, -0.96, 0.25, 5.8000000000000005E-13, 1.3400000000000002E-12, , , , 
DataValue, -0.92, 0.25, -5.5000000000000008E-13, 3.0300000000000002E-12, , , , 
DataValue, -0.88, 0.25, 7.5E-13, 4.08E-12, , , , 
DataValue, -0.84, 0.25, 4E-13, 2.5300000000000003E-12, , , , 
DataValue, -0.8, 0.25, 4.4000000000000004E-13, 2.5600000000000004E-12, , , , 
DataValue, -0.76, 0.25, 6.3E-13, 1.85E-12, , , , 
DataValue, -0.72, 0.25, -3.2000000000000005E-13, 2.7000000000000002E-12, , , , 
DataValue, -0.68, 0.25, 1.1100000000000001E-12, 4.21E-12, , , , 
DataValue, -0.64, 0.25, 4.5000000000000005E-13, 3.0400000000000004E-12, , , , 
DataValue, -0.6, 0.25, 9.5E-13, 2.49E-12, , , , 
DataValue, -0.56, 0.25, 1.8000000000000002E-13, 1.7600000000000002E-12, , , , 
DataValue, -0.52, 0.25, 6.8E-13, 3.3100000000000002E-12, , , , 
DataValue, -0.48, 0.25, 1.31E-12, 2.6800000000000003E-12, , , , 
DataValue, -0.44, 0.25, 5.6E-13, 2.06E-12, , , , 
DataValue, -0.4, 0.25, 6.8E-13, 1.45E-12, , , , 
DataValue, -0.36, 0.25, -2.8E-13, 3.02E-12, , , , 
DataValue, -0.32, 0.25, 1.26E-12, 3.6200000000000003E-12, , , , 
DataValue, -0.28, 0.25, 6.6E-13, 2.42E-12, , , , 
DataValue, -0.24, 0.25, 6.0000000000000007E-13, 2.26E-12, , , , 
DataValue, -0.2, 0.25, 2.7E-13, 1.2800000000000002E-12, , , , 
DataValue, -0.16, 0.25, 1.0100000000000001E-12, 3.87E-12, , , , 
DataValue, -0.12, 0.25, 1.3500000000000001E-12, 3.0300000000000002E-12, , , , 
DataValue, -0.08, 0.25, 7.7000000000000005E-13, 2.42E-12, , , , 
DataValue, -0.04, 0.25, 1.0600000000000001E-12, 9.3E-13, , , , 
DataValue, 0, 0.25, 1E-13, 2.0500000000000004E-12, , , , 
DataValue, 0.04, 0.25, 1.64E-12, 3.5900000000000003E-12, , , , 
DataValue, 0.08, 0.25, 1.08E-12, 2.6000000000000002E-12, , , , 
DataValue, 0.12, 0.25, 1.27E-12, 2.0500000000000004E-12, , , , 
DataValue, 0.16, 0.25, 1.36E-12, 1.93E-12, , , , 
DataValue, 0.2, 0.25, 6.8E-13, 3.4000000000000005E-12, , , , 
DataValue, 0.24, 0.25, 1.7600000000000002E-12, 3.7900000000000006E-12, , , , 
DataValue, 0.28, 0.25, 1.5600000000000002E-12, 3.1400000000000004E-12, , , , 
DataValue, 0.32, 0.25, 1.3400000000000002E-12, 1.5700000000000002E-12, , , , 
DataValue, 0.36, 0.25, 1.3400000000000002E-12, 1.95E-12, , , , 
DataValue, 0.4, 0.25, 1.2800000000000002E-12, 2.9100000000000003E-12, , , , 
DataValue, 0.44, 0.25, 1.6E-12, 4.3000000000000007E-12, , , , 
DataValue, 0.48, 0.25, 1.4E-12, 3.15E-12, , , , 
DataValue, 0.52, 0.25, 1.7600000000000002E-12, 1.5300000000000001E-12, , , , 
DataValue, 0.56, 0.25, 6.7000000000000007E-13, 2.9400000000000004E-12, , , , 
DataValue, 0.6, 0.25, 1.41E-12, 3.5700000000000003E-12, , , , 
DataValue, 0.64, 0.25, 1.5800000000000001E-12, 3.2700000000000004E-12, , , , 
DataValue, 0.68, 0.25, 1.17E-12, 3.2100000000000003E-12, , , , 
DataValue, 0.72, 0.25, 1.3000000000000001E-12, 3.87E-12, , , , 
DataValue, 0.76, 0.25, 1.59E-12, 6.86E-12, , , , 
DataValue, 0.8, 0.25, 2.39E-12, 9.36E-12, , , , 
DataValue, 0.84, 0.25, 1.17E-12, 1.096E-11, , , , 
DataValue, 0.88, 0.25, 1.74E-12, 1.642E-11, , , , 
DataValue, 0.92, 0.25, 1.4700000000000002E-12, 2.504E-11, , , , 
DataValue, 0.96, 0.25, 2.06E-12, 3.951E-11, , , , 
DataValue, 1, 0.25, 1.96E-12, 5.883E-11, , , , 
DataValue, 1.04, 0.25, 1.09E-12, 8.906E-11, , , , 
DataValue, 1.08, 0.25, 1.74E-12, 1.3600000000000002E-10, , , , 
DataValue, 1.12, 0.25, 1.4200000000000002E-12, 2.1170000000000003E-10, , , , 
DataValue, 1.16, 0.25, 1.8400000000000002E-12, 3.2696000000000003E-10, , , , 
DataValue, 1.2, 0.25, 1.8900000000000002E-12, 5.0037E-10, , , , 
DataValue, 1.24, 0.25, 1.64E-12, 7.6285000000000011E-10, , , , 
DataValue, 1.28, 0.25, 1.26E-12, 1.3682E-09, , , , 
DataValue, 1.32, 0.25, 9.000000000000001E-13, 2.0922E-09, , , , 
DataValue, 1.36, 0.25, 1.13E-12, 3.0252E-09, , , , 
DataValue, 1.4000000000000001, 0.25, 2.1700000000000002E-12, 4.3797E-09, , , , 
DataValue, 1.44, 0.25, 1.41E-12, 6.2975E-09, , , , 
DataValue, 1.48, 0.25, 1.7100000000000002E-12, 8.9423E-09, , , , 
DataValue, 1.52, 0.25, 1.9400000000000002E-12, 1.3199399999999998E-08, , , , 
DataValue, 1.56, 0.25, 1.79E-12, 1.8194599999999997E-08, , , , 
DataValue, 1.6, 0.25, 1.85E-12, 2.47342E-08, , , , 
DataValue, 1.6400000000000001, 0.25, 1.55E-12, 3.31882E-08, , , , 
DataValue, 1.68, 0.25, 1.7600000000000002E-12, 4.3827999999999994E-08, , , , 
DataValue, 1.72, 0.25, 1.3300000000000002E-12, 5.7248399999999993E-08, , , , 
DataValue, 1.76, 0.25, 1.91E-12, 7.33332E-08, , , , 
DataValue, 1.8, 0.25, 2.11E-12, 9.2590999999999985E-08, , , , 
DataValue, 1.84, 0.25, 2.23E-12, 1.22E-07, , , , 
DataValue, 1.8800000000000001, 0.25, 2.23E-12, 1.5124E-07, , , , 
DataValue, 1.92, 0.25, 1.2400000000000002E-12, 1.8016E-07, , , , 
DataValue, 1.96, 0.25, 2.26E-12, 2.149E-07, , , , 
DataValue, 2, 0.25, 2.6000000000000002E-12, 2.538E-07, , , , 
DataValue, 2.04, 0.25, 2.14E-12, 2.9808E-07, , , , 
DataValue, 2.08, 0.25, 2.6500000000000002E-12, 3.4768E-07, , , , 
DataValue, 2.12, 0.25, 2.4500000000000003E-12, 4.0294E-07, , , , 
DataValue, 2.16, 0.25, 2.75E-12, 4.6434E-07, , , , 
DataValue, 2.2, 0.25, 1.96E-12, 5.3128E-07, , , , 
DataValue, 2.24, 0.25, 2.41E-12, 6.044E-07, , , , 
DataValue, 2.2800000000000002, 0.25, 2.23E-12, 6.8376E-07, , , , 
DataValue, 2.32, 0.25, 1.98E-12, 7.6999999999999993E-07, , , , 
DataValue, 2.36, 0.25, 1.8100000000000002E-12, 8.6016E-07, , , , 
DataValue, 2.4, 0.25, 2.2500000000000003E-12, 9.5796E-07, , , , 
DataValue, 2.44, 0.25, 2.5000000000000003E-12, 1.0626E-06, , , , 
DataValue, 2.48, 0.25, 2.1500000000000003E-12, 1.2337000000000002E-06, , , , 
DataValue, 2.52, 0.25, 2.5300000000000003E-12, 1.3366E-06, , , , 
DataValue, 2.56, 0.25, 2.41E-12, 1.4485000000000002E-06, , , , 
DataValue, 2.6, 0.25, 2.62E-12, 1.5664000000000002E-06, , , , 
DataValue, 2.64, 0.25, 2.13E-12, 1.6907000000000002E-06, , , , 
DataValue, 2.68, 0.25, 2.11E-12, 1.8194E-06, , , , 
DataValue, 2.72, 0.25, 2.41E-12, 1.9529000000000004E-06, , , , 
DataValue, 2.7600000000000002, 0.25, 2.7800000000000003E-12, 2.0893E-06, , , , 
DataValue, 2.8000000000000003, 0.25, 2.64E-12, 2.2312000000000003E-06, , , , 
DataValue, 2.84, 0.25, 3.0800000000000002E-12, 2.376E-06, , , , 
DataValue, 2.88, 0.25, 2.2500000000000003E-12, 2.5224E-06, , , , 
DataValue, 2.92, 0.25, 2.85E-12, 2.6728000000000005E-06, , , , 
DataValue, 2.96, 0.25, 3.5700000000000003E-12, 2.8231E-06, , , , 
DataValue, 3, 0.25, 3.4700000000000004E-12, 2.9759E-06, , , , 
DataValue, 3.04, 0.25, 2.6000000000000002E-12, 3.1323000000000005E-06, , , , 
DataValue, 3.08, 0.25, 3.2900000000000003E-12, 3.2894000000000002E-06, , , , 
DataValue, 3.12, 0.25, 2.67E-12, 3.4478000000000003E-06, , , , 
DataValue, 3.16, 0.25, 2.39E-12, 3.6094000000000005E-06, , , , 
DataValue, 3.2, 0.25, 3.66E-12, 3.7738E-06, , , , 
DataValue, 3.24, 0.25, 3.0900000000000004E-12, 3.9356E-06, , , , 
DataValue, 3.2800000000000002, 0.25, 3.97E-12, 4.0991E-06, , , , 
DataValue, 3.3200000000000003, 0.25, 8.1000000000000008E-13, 4.2653000000000005E-06, , , , 
DataValue, 3.36, 0.25, 2.72E-12, 4.4287000000000005E-06, , , , 
DataValue, 3.4, 0.25, 4.28E-12, 4.5916E-06, , , , 
DataValue, 3.44, 0.25, 3.6800000000000005E-12, 4.7564000000000007E-06, , , , 
DataValue, 3.48, 0.25, 2.21E-12, 4.9192E-06, , , , 
DataValue, 3.52, 0.25, 2.79E-12, 5.0812000000000006E-06, , , , 
DataValue, 3.56, 0.25, 3.4100000000000002E-12, 5.2425E-06, , , , 
DataValue, 3.6, 0.25, 3.92E-12, 5.4008000000000009E-06, , , , 
DataValue, 3.64, 0.25, 3.6900000000000006E-12, 5.5615000000000009E-06, , , , 
DataValue, 3.68, 0.25, 2.95E-12, 5.7221000000000007E-06, , , , 
DataValue, 3.72, 0.25, 3.71E-12, 5.8831000000000005E-06, , , , 
DataValue, 3.7600000000000002, 0.25, 2.9900000000000004E-12, 6.0389000000000007E-06, , , , 
DataValue, 3.8000000000000003, 0.25, 3.07E-12, 6.1950000000000008E-06, , , , 
DataValue, 3.84, 0.25, 3.7300000000000005E-12, 6.3493E-06, , , , 
DataValue, 3.88, 0.25, 3.92E-12, 6.5025000000000008E-06, , , , 
DataValue, 3.92, 0.25, 4.4400000000000005E-12, 6.6552000000000011E-06, , , , 
DataValue, 3.96, 0.25, 3.4900000000000003E-12, 6.8063E-06, , , , 
DataValue, 4, 0.25, 2.47E-12, 6.953000000000001E-06, , , , 
DataValue, 4.04, 0.25, 3.3400000000000003E-12, 7.1008000000000007E-06, , , , 
DataValue, 4.08, 0.25, 4.0500000000000007E-12, 7.2466000000000011E-06, , , , 
DataValue, 4.12, 0.25, 3.82E-12, 7.3919E-06, , , , 
DataValue, 4.16, 0.25, 3.67E-12, 7.5337E-06, , , , 
DataValue, 4.2, 0.25, 3.7E-12, 7.6736E-06, , , , 
DataValue, 4.24, 0.25, 3.5000000000000004E-12, 7.8107000000000013E-06, , , , 
DataValue, 4.28, 0.25, 4.52E-12, 7.948100000000001E-06, , , , 
DataValue, 4.32, 0.25, 4.03E-12, 8.0822E-06, , , , 
DataValue, 4.36, 0.25, 4.21E-12, 8.2142E-06, , , , 
DataValue, 4.4, 0.25, 4.22E-12, 8.3455000000000017E-06, , , , 
DataValue, 4.44, 0.25, 3.63E-12, 8.4722000000000017E-06, , , , 
DataValue, 4.48, 0.25, 4.77E-12, 8.6003000000000013E-06, , , , 
DataValue, 4.5200000000000005, 0.25, 5.29E-12, 8.7257E-06, , , , 
DataValue, 4.5600000000000005, 0.25, 4.02E-12, 8.8490000000000012E-06, , , , 
DataValue, 4.6000000000000005, 0.25, 4.16E-12, 8.9734000000000012E-06, , , , 
DataValue, 4.64, 0.25, 4.97E-12, 9.096E-06, , , , 
DataValue, 4.68, 0.25, 4.4500000000000006E-12, 9.2138000000000015E-06, , , , 
DataValue, 4.72, 0.25, 5.3600000000000006E-12, 9.3323E-06, , , , 
DataValue, 4.76, 0.25, 5.4600000000000006E-12, 9.4519000000000018E-06, , , , 
DataValue, 4.8, 0.25, 4.21E-12, 9.5635E-06, , , , 
DataValue, 4.84, 0.25, 5.04E-12, 9.677E-06, , , , 
DataValue, 4.88, 0.25, 4.11E-12, 9.7875E-06, , , , 
DataValue, 4.92, 0.25, 5.2100000000000006E-12, 9.8991000000000015E-06, , , , 
DataValue, 4.96, 0.25, 5.5700000000000007E-12, 1.0010500000000002E-05, , , , 
DataValue, 5, 0.25, 4.82E-12, 1.0119300000000002E-05, , , , 
DataValue, 5.04, 0.25, 5.44E-12, 1.02286E-05, , , , 
DataValue, 5.08, 0.25, 4.74E-12, 1.0333100000000001E-05, , , , 
DataValue, 5.12, 0.25, 5.2500000000000004E-12, 1.0438E-05, , , , 
DataValue, 5.16, 0.25, 5.59E-12, 1.05446E-05, , , , 
DataValue, 5.2, 0.25, 5.9300000000000008E-12, 1.06472E-05, , , , 
DataValue, 5.24, 0.25, 5.14E-12, 1.0756600000000001E-05, , , , 
DataValue, 5.28, 0.25, 5.24E-12, 1.0857900000000002E-05, , , , 
DataValue, 5.32, 0.25, 5.18E-12, 1.0959700000000001E-05, , , , 
DataValue, 5.36, 0.25, 5.6100000000000005E-12, 1.10599E-05, , , , 
DataValue, 5.4, 0.25, 6.1300000000000007E-12, 1.11596E-05, , , , 
DataValue, 5.44, 0.25, 6.35E-12, 1.1257100000000001E-05, , , , 
DataValue, 5.48, 0.25, 7.0500000000000009E-12, 1.1361800000000002E-05, , , , 
DataValue, 5.5200000000000005, 0.25, 6.7800000000000006E-12, 1.14609E-05, , , , 
DataValue, 5.5600000000000005, 0.25, 6.96E-12, 1.1582E-05, , , , 
DataValue, 5.6000000000000005, 0.25, 7.0800000000000005E-12, 1.1666E-05, , , , 
DataValue, 5.64, 0.25, 6.7500000000000009E-12, 1.1756E-05, , , , 
DataValue, 5.68, 0.25, 6.81E-12, 1.1848E-05, , , , 
DataValue, 5.72, 0.25, 6.8900000000000007E-12, 1.1948E-05, , , , 
DataValue, 5.76, 0.25, 7.55E-12, 1.2042000000000001E-05, , , , 
DataValue, 5.8, 0.25, 7.07E-12, 1.2138E-05, , , , 
DataValue, 5.84, 0.25, 7.32E-12, 1.2238E-05, , , , 
DataValue, 5.88, 0.25, 7.1900000000000007E-12, 1.2338000000000001E-05, , , , 
DataValue, 5.92, 0.25, 7.8E-12, 1.2430000000000001E-05, , , , 
DataValue, 5.96, 0.25, 7.45E-12, 1.253E-05, , , , 
DataValue, 6, 0.25, 7.7E-12, 1.2622E-05, , , , 
DataValue, 6, 0.25, 7.8600000000000008E-12, 1.2628E-05, , , , 
DataValue, 5.96, 0.25, 7.16E-12, 1.2574E-05, , , , 
DataValue, 5.92, 0.25, 6.8000000000000009E-12, 1.2486E-05, , , , 
DataValue, 5.88, 0.25, 6.0800000000000008E-12, 1.238E-05, , , , 
DataValue, 5.84, 0.25, 5.5E-12, 1.2264E-05, , , , 
DataValue, 5.8, 0.25, 5.89E-12, 1.2144000000000001E-05, , , , 
DataValue, 5.76, 0.25, 6.1E-12, 1.2022000000000001E-05, , , , 
DataValue, 5.72, 0.25, 5.4500000000000004E-12, 1.1894E-05, , , , 
DataValue, 5.68, 0.25, 5.3100000000000006E-12, 1.1772E-05, , , , 
DataValue, 5.64, 0.25, 5.1200000000000008E-12, 1.1648000000000001E-05, , , , 
