
SetupTitle, R-V
ApplicationTest, R-V, Public
TestParameter, Name, Port1, Port2, V1Start, V1Stop, V1Step, V2, I1Limit, IntegTime, HoldTime, DelayTime, Port1MinRng
TestParameter, Value, SMU1:MP	MPSMU, SMU2:MP	MPSMU, 0, 1, 0.05, 0, 0.01, MEDIUM, 0, 0, 1nA
DutParameter, Name, L, W, Temp
DutParameter, Value, 1E-05, 1E-06, 25
MetaData, TestRecord.EntryPoint, true
MetaData, TestRecord.RecordTime, 03/04/2023 18:26:52
MetaData, TestRecord.TestTarget, 
MetaData, TestRecord.IterationIndex, 225
MetaData, TestRecord.Preservation, true
MetaData, TestRecord.Flag, 
MetaData, TestRecord.Remarks, 
MetaData, TestRecord.LinkKey, 6326fe2f-ef86-4617-8be9-c08abac00d77
Dimension1, 21, 21, 21, 21
Dimension2, 1, 1, 1, 1
DataName, V1, I1, R, Rsheet
DataValue, 0, -1.5916E-11, -0, -0
DataValue, 0.05, 3.8731899999999994E-08, 1290925.5678136114, 129092.55678136113
DataValue, 0.1, 7.7409499999999989E-08, 1291831.1060012016, 129183.11060012014
DataValue, 0.15, 1.16138E-07, 1291566.9289982605, 129156.69289982604
DataValue, 0.2, 1.54772E-07, 1292223.3995813197, 129222.33995813194
DataValue, 0.25, 1.93465E-07, 1292223.3995813197, 129222.33995813194
DataValue, 0.3, 2.3209299999999999E-07, 1292585.2998582465, 129258.52998582463
DataValue, 0.35000000000000003, 2.70769E-07, 1292614.7380239246, 129261.47380239244
DataValue, 0.4, 3.09362E-07, 1292983.6243623975, 129298.36243623972
DataValue, 0.45, 3.47969E-07, 1293218.6487876794, 129321.86487876793
DataValue, 0.5, 3.8656699999999997E-07, 1293436.8427724044, 129343.68427724042
DataValue, 0.55, 4.2512699999999997E-07, 1293731.0497804189, 129373.10497804187
DataValue, 0.6, 4.63688E-07, 1293973.5339279859, 129397.35339279857
DataValue, 0.65, 5.02246E-07, 1294186.514178311, 129418.65141783108
DataValue, 0.70000000000000007, 5.40796E-07, 1294388.2721026046, 129438.82721026044
DataValue, 0.75, 5.79306E-07, 1294652.56703711, 129465.25670371097
DataValue, 0.8, 6.17837E-07, 1294839.9011389737, 129483.99011389734
DataValue, 0.85000000000000009, 6.5629499999999994E-07, 1295149.2850014097, 129514.92850014096
DataValue, 0.9, 6.94842E-07, 1295258.4904194048, 129525.84904194046
DataValue, 0.95000000000000007, 7.33316E-07, 1295485.166013015, 129548.51660130148
DataValue, 1, 7.71759E-07, 1295741.2871116502, 129574.12871116502
SetupTitle, R-V
PrimitiveTest, I/V Sweep
TestParameter, Context.MainFrame, B1500A
TestParameter, Channel.UnitType, SMU, SMU
TestParameter, Channel.Unit, Port1, Port2
TestParameter, Channel.IName, I1, I2
TestParameter, Channel.VName, V1, V2
TestParameter, Channel.Mode, V, V
TestParameter, Channel.Func, VAR1, CONST
TestParameter, Channel.Index, 
TestParameter, Channel.Time, 
TestParameter, Measurement.Port.Unit, Port1, Port2
TestParameter, Measurement.Port.SeriesResistor, NONE, NONE
TestParameter, Measurement.Port.Filter, OFF, OFF
TestParameter, Measurement.Port.OutputVoltageComparison, 0, 0
TestParameter, Measurement.Primary.Locus, Single
TestParameter, Measurement.Primary.Scale, LINEAR
TestParameter, Measurement.Primary.Start, V1Start
TestParameter, Measurement.Primary.Stop, V1Stop
TestParameter, Measurement.Primary.Step, V1Step
TestParameter, Measurement.Primary.Compliance, I1Limit
TestParameter, Measurement.Primary.PowerCompliance, 0
TestParameter, Measurement.Aborting.Condition, CONTINUE AT ANY
TestParameter, Measurement.PostOutput.Value, START
TestParameter, Measurement.PostOutput.Retention, OFF
TestParameter, Measurement.Bias.Source, 0, V2
TestParameter, Measurement.Bias.Compliance, 0.01, I1Limit
TestParameter, Measurement.Monitor.Unit, SMU:=Port1, SMU:=Port2
TestParameter, Measurement.Monitor.Adc, HR ADC, HR ADC
TestParameter, Measurement.Monitor.Measurement, Compliance Side, Compliance Side
TestParameter, Measurement.Monitor.RangingMode, LIMITED, LIMITED
TestParameter, Measurement.Monitor.RangeBoundary, Port1MinRng, 1nA
TestParameter, Measurement.Monitor.RangeRating, BY FULL RANGE, BY FULL RANGE
TestParameter, Measurement.Monitor.RangeRatingCoeff, 50, 50
TestParameter, Measurement.Timing.Hold, HoldTime
TestParameter, Measurement.Timing.Delay, DelayTime
TestParameter, Measurement.Adc.HighSpeed.Mode, AUTO
TestParameter, Measurement.Adc.HighSpeed.Coeff, 1
TestParameter, Measurement.Adc.HighResolution.AutoZero, ON
TestParameter, Measurement.Adc.HighResolution.Mode, IntegMode
TestParameter, Measurement.Adc.HighResolution.Coeff, AdcFactor
TestParameter, Measurement.WaitTime.Source.Coeff, 1
TestParameter, Measurement.WaitTime.Source.Offset, 0
TestParameter, Measurement.WaitTime.Monitor.Coeff, 1
TestParameter, Measurement.WaitTime.Monitor.Offset, 0
TestParameter, Function.User.Name, R, Rsheet
TestParameter, Function.User.Unit, ohm, ohm/sheet
TestParameter, Function.User.Definition, V1/I1, R*W/L
TestParameter, Output.Graph.Enabled, true
TestParameter, Output.Graph.AutoScaling, false
TestParameter, Output.Graph.XAxis.Data, V1
TestParameter, Output.Graph.XAxis.Scale, Linear
TestParameter, Output.Graph.XAxis.Left, V1Start
TestParameter, Output.Graph.XAxis.Right, V1Stop
TestParameter, Output.Graph.XAxis.RunTimeAutoScale, false
TestParameter, Output.Graph.YAxis.Data, R, I1
TestParameter, Output.Graph.YAxis.Scale, Linear, Linear
TestParameter, Output.Graph.YAxis.Bottom, 0, 0
TestParameter, Output.Graph.YAxis.Top, V1Stop/I1Limit, I1Limit
TestParameter, Output.Graph.YAxis.Group, , 
TestParameter, Output.Graph.YAxis.RunTimeAutoScale, false, false
TestParameter, Output.List.Data, V1, I1, R, Rsheet
TestParameter, AutoAnalysis.Interpolation, false
TestParameter, AutoAnalysis.Line1.Enabled, false
TestParameter, AutoAnalysis.Line1.Type, 1
TestParameter, AutoAnalysis.Line1.Fix, False
TestParameter, AutoAnalysis.Line1.YAxis, 0
TestParameter, AutoAnalysis.Line1.Point1.Type, 0
TestParameter, AutoAnalysis.Line1.Point1.XY.X, 
TestParameter, AutoAnalysis.Line1.Point1.XY.Y, 
TestParameter, AutoAnalysis.Line1.Point1.Data.Var, 
TestParameter, AutoAnalysis.Line1.Point1.Data.Condition, 
TestParameter, AutoAnalysis.Line1.Point1.Data.Start, false
TestParameter, AutoAnalysis.Line1.Point1.Data.StartVar, 
TestParameter, AutoAnalysis.Line1.Point1.Data.StartCondition, 
TestParameter, AutoAnalysis.Line1.Point2.Type, 0
TestParameter, AutoAnalysis.Line1.Point2.XY.X, 
TestParameter, AutoAnalysis.Line1.Point2.XY.Y, 
TestParameter, AutoAnalysis.Line1.Point2.Data.Var, 
TestParameter, AutoAnalysis.Line1.Point2.Data.Condition, 
TestParameter, AutoAnalysis.Line1.Point2.Data.Start, false
TestParameter, AutoAnalysis.Line1.Point2.Data.StartVar, 
TestParameter, AutoAnalysis.Line1.Point2.Data.StartCondition, 
TestParameter, AutoAnalysis.Line1.GradientExpr, 0
TestParameter, AutoAnalysis.Line2.Enabled, false
TestParameter, AutoAnalysis.Line2.Type, 1
TestParameter, AutoAnalysis.Line2.Fix, False
TestParameter, AutoAnalysis.Line2.YAxis, 0
TestParameter, AutoAnalysis.Line2.Point1.Type, 0
TestParameter, AutoAnalysis.Line2.Point1.XY.X, 
TestParameter, AutoAnalysis.Line2.Point1.XY.Y, 
TestParameter, AutoAnalysis.Line2.Point1.Data.Var, 
TestParameter, AutoAnalysis.Line2.Point1.Data.Condition, 
TestParameter, AutoAnalysis.Line2.Point1.Data.Start, false
TestParameter, AutoAnalysis.Line2.Point1.Data.StartVar, 
TestParameter, AutoAnalysis.Line2.Point1.Data.StartCondition, 
TestParameter, AutoAnalysis.Line2.Point2.Type, 0
TestParameter, AutoAnalysis.Line2.Point2.XY.X, 
TestParameter, AutoAnalysis.Line2.Point2.XY.Y, 
TestParameter, AutoAnalysis.Line2.Point2.Data.Var, 
TestParameter, AutoAnalysis.Line2.Point2.Data.Condition, 
TestParameter, AutoAnalysis.Line2.Point2.Data.Start, false
TestParameter, AutoAnalysis.Line2.Point2.Data.StartVar, 
TestParameter, AutoAnalysis.Line2.Point2.Data.StartCondition, 
TestParameter, AutoAnalysis.Line2.GradientExpr, 0
TestParameter, AutoAnalysis.Marker.Enabled, false
TestParameter, AutoAnalysis.Marker.Data.Var, 
TestParameter, AutoAnalysis.Marker.Data.Condition, 
TestParameter, AutoAnalysis.Marker.Data.Start, false
TestParameter, AutoAnalysis.Marker.Data.StartVar, 
TestParameter, AutoAnalysis.Marker.Data.StartCondition, 
MetaData, TestRecord.EntryPoint, false
MetaData, TestRecord.RecordTime, 03/04/2023 18:26:52
MetaData, TestRecord.TestTarget, 
MetaData, TestRecord.IterationIndex, 225
MetaData, TestRecord.Preservation, true
MetaData, TestRecord.Flag, 
MetaData, TestRecord.Remarks, 
MetaData, TestRecord.LinkKey, 6326fe2f-ef86-4617-8be9-c08abac00d77
Dimension1, 21, 21, 21, 21
Dimension2, 1, 1, 1, 1
DataName, V1, I1, R, Rsheet
DataValue, 0, -1.5916E-11, -0, -0
DataValue, 0.05, 3.8731899999999994E-08, 1290925.5678136114, 129092.55678136113
DataValue, 0.1, 7.7409499999999989E-08, 1291831.1060012016, 129183.11060012014
DataValue, 0.15, 1.16138E-07, 1291566.9289982605, 129156.69289982604
DataValue, 0.2, 1.54772E-07, 1292223.3995813197, 129222.33995813194
DataValue, 0.25, 1.93465E-07, 1292223.3995813197, 129222.33995813194
DataValue, 0.3, 2.3209299999999999E-07, 1292585.2998582465, 129258.52998582463
DataValue, 0.35000000000000003, 2.70769E-07, 1292614.7380239246, 129261.47380239244
DataValue, 0.4, 3.09362E-07, 1292983.6243623975, 129298.36243623972
DataValue, 0.45, 3.47969E-07, 1293218.6487876794, 129321.86487876793
DataValue, 0.5, 3.8656699999999997E-07, 1293436.8427724044, 129343.68427724042
DataValue, 0.55, 4.2512699999999997E-07, 1293731.0497804189, 129373.10497804187
DataValue, 0.6, 4.63688E-07, 1293973.5339279859, 129397.35339279857
DataValue, 0.65, 5.02246E-07, 1294186.514178311, 129418.65141783108
DataValue, 0.70000000000000007, 5.40796E-07, 1294388.2721026046, 129438.82721026044
DataValue, 0.75, 5.79306E-07, 1294652.56703711, 129465.25670371097
DataValue, 0.8, 6.17837E-07, 1294839.9011389737, 129483.99011389734
DataValue, 0.85000000000000009, 6.5629499999999994E-07, 1295149.2850014097, 129514.92850014096
DataValue, 0.9, 6.94842E-07, 1295258.4904194048, 129525.84904194046
DataValue, 0.95000000000000007, 7.33316E-07, 1295485.166013015, 129548.51660130148
DataValue, 1, 7.71759E-07, 1295741.2871116502, 129574.12871116502