
SetupTitle, R-V
ApplicationTest, R-V, Public
TestParameter, Name, Port1, Port2, V1Start, V1Stop, V1Step, V2, I1Limit, IntegTime, HoldTime, DelayTime, Port1MinRng
TestParameter, Value, SMU1:MP	MPSMU, SMU2:MP	MPSMU, 0, 1, 0.05, 0, 0.01, MEDIUM, 0, 0, 1nA
DutParameter, Name, L, W, Temp
DutParameter, Value, 1E-05, 1E-06, 25
MetaData, TestRecord.EntryPoint, true
MetaData, TestRecord.RecordTime, 03/04/2023 18:28:41
MetaData, TestRecord.TestTarget, 
MetaData, TestRecord.IterationIndex, 229
MetaData, TestRecord.Preservation, true
MetaData, TestRecord.Flag, 
MetaData, TestRecord.Remarks, 
MetaData, TestRecord.LinkKey, f179e3cd-915e-4bba-b4f6-329c97ec707c
Dimension1, 21, 21, 21, 21
Dimension2, 1, 1, 1, 1
DataName, V1, I1, R, Rsheet
DataValue, 0, -8.609000000000001E-12, -0, -0
DataValue, 0.05, 2.0330199999999998E-08, 2459395.3822392304, 245939.538223923
DataValue, 0.1, 4.06341E-08, 2460987.2004055711, 246098.72004055709
DataValue, 0.15, 6.0961299999999989E-08, 2460577.4483155711, 246057.7448315571
DataValue, 0.2, 8.1242599999999987E-08, 2461762.6713079102, 246176.26713079098
DataValue, 0.25, 1.015503E-07, 2461834.1846355945, 246183.41846355941
DataValue, 0.3, 1.21816E-07, 2462730.675773297, 246273.06757732967
DataValue, 0.35000000000000003, 1.42115E-07, 2462794.21595187, 246279.42159518696
DataValue, 0.4, 1.62375E-07, 2463433.4103156277, 246343.34103156271
DataValue, 0.45, 1.8262799999999999E-07, 2464025.2316183718, 246402.52316183713
DataValue, 0.5, 2.02899E-07, 2464280.2576651438, 246428.02576651436
DataValue, 0.55, 2.23138E-07, 2464842.3845333382, 246484.23845333379
DataValue, 0.6, 2.43369E-07, 2465392.058972178, 246539.20589721776
DataValue, 0.65, 2.63611E-07, 2465754.4639639473, 246575.44639639472
DataValue, 0.70000000000000007, 2.83854E-07, 2466056.493831336, 246605.64938313357
DataValue, 0.75, 3.04055E-07, 2466658.9926164672, 246665.89926164667
DataValue, 0.8, 3.24278E-07, 2467019.0392194353, 246701.90392194351
DataValue, 0.85000000000000009, 3.4447E-07, 2467558.8585363021, 246755.88585363017
DataValue, 0.9, 3.64691E-07, 2467842.6393851233, 246784.2639385123
DataValue, 0.95000000000000007, 3.84891E-07, 2468231.2654751609, 246823.12654751606
DataValue, 1, 4.05071E-07, 2468703.0174956983, 246870.3017495698
SetupTitle, R-V
PrimitiveTest, I/V Sweep
TestParameter, Context.MainFrame, B1500A
TestParameter, Channel.UnitType, SMU, SMU
TestParameter, Channel.Unit, Port1, Port2
TestParameter, Channel.IName, I1, I2
TestParameter, Channel.VName, V1, V2
TestParameter, Channel.Mode, V, V
TestParameter, Channel.Func, VAR1, CONST
TestParameter, Channel.Index, 
TestParameter, Channel.Time, 
TestParameter, Measurement.Port.Unit, Port1, Port2
TestParameter, Measurement.Port.SeriesResistor, NONE, NONE
TestParameter, Measurement.Port.Filter, OFF, OFF
TestParameter, Measurement.Port.OutputVoltageComparison, 0, 0
TestParameter, Measurement.Primary.Locus, Single
TestParameter, Measurement.Primary.Scale, LINEAR
TestParameter, Measurement.Primary.Start, V1Start
TestParameter, Measurement.Primary.Stop, V1Stop
TestParameter, Measurement.Primary.Step, V1Step
TestParameter, Measurement.Primary.Compliance, I1Limit
TestParameter, Measurement.Primary.PowerCompliance, 0
TestParameter, Measurement.Aborting.Condition, CONTINUE AT ANY
TestParameter, Measurement.PostOutput.Value, START
TestParameter, Measurement.PostOutput.Retention, OFF
TestParameter, Measurement.Bias.Source, 0, V2
TestParameter, Measurement.Bias.Compliance, 0.01, I1Limit
TestParameter, Measurement.Monitor.Unit, SMU:=Port1, SMU:=Port2
TestParameter, Measurement.Monitor.Adc, HR ADC, HR ADC
TestParameter, Measurement.Monitor.Measurement, Compliance Side, Compliance Side
TestParameter, Measurement.Monitor.RangingMode, LIMITED, LIMITED
TestParameter, Measurement.Monitor.RangeBoundary, Port1MinRng, 1nA
TestParameter, Measurement.Monitor.RangeRating, BY FULL RANGE, BY FULL RANGE
TestParameter, Measurement.Monitor.RangeRatingCoeff, 50, 50
TestParameter, Measurement.Timing.Hold, HoldTime
TestParameter, Measurement.Timing.Delay, DelayTime
TestParameter, Measurement.Adc.HighSpeed.Mode, AUTO
TestParameter, Measurement.Adc.HighSpeed.Coeff, 1
TestParameter, Measurement.Adc.HighResolution.AutoZero, ON
TestParameter, Measurement.Adc.HighResolution.Mode, IntegMode
TestParameter, Measurement.Adc.HighResolution.Coeff, AdcFactor
TestParameter, Measurement.WaitTime.Source.Coeff, 1
TestParameter, Measurement.WaitTime.Source.Offset, 0
TestParameter, Measurement.WaitTime.Monitor.Coeff, 1
TestParameter, Measurement.WaitTime.Monitor.Offset, 0
TestParameter, Function.User.Name, R, Rsheet
TestParameter, Function.User.Unit, ohm, ohm/sheet
TestParameter, Function.User.Definition, V1/I1, R*W/L
TestParameter, Output.Graph.Enabled, true
TestParameter, Output.Graph.AutoScaling, false
TestParameter, Output.Graph.XAxis.Data, V1
TestParameter, Output.Graph.XAxis.Scale, Linear
TestParameter, Output.Graph.XAxis.Left, V1Start
TestParameter, Output.Graph.XAxis.Right, V1Stop
TestParameter, Output.Graph.XAxis.RunTimeAutoScale, false
TestParameter, Output.Graph.YAxis.Data, R, I1
TestParameter, Output.Graph.YAxis.Scale, Linear, Linear
TestParameter, Output.Graph.YAxis.Bottom, 0, 0
TestParameter, Output.Graph.YAxis.Top, V1Stop/I1Limit, I1Limit
TestParameter, Output.Graph.YAxis.Group, , 
TestParameter, Output.Graph.YAxis.RunTimeAutoScale, false, false
TestParameter, Output.List.Data, V1, I1, R, Rsheet
TestParameter, AutoAnalysis.Interpolation, false
TestParameter, AutoAnalysis.Line1.Enabled, false
TestParameter, AutoAnalysis.Line1.Type, 1
TestParameter, AutoAnalysis.Line1.Fix, False
TestParameter, AutoAnalysis.Line1.YAxis, 0
TestParameter, AutoAnalysis.Line1.Point1.Type, 0
TestParameter, AutoAnalysis.Line1.Point1.XY.X, 
TestParameter, AutoAnalysis.Line1.Point1.XY.Y, 
TestParameter, AutoAnalysis.Line1.Point1.Data.Var, 
TestParameter, AutoAnalysis.Line1.Point1.Data.Condition, 
TestParameter, AutoAnalysis.Line1.Point1.Data.Start, false
TestParameter, AutoAnalysis.Line1.Point1.Data.StartVar, 
TestParameter, AutoAnalysis.Line1.Point1.Data.StartCondition, 
TestParameter, AutoAnalysis.Line1.Point2.Type, 0
TestParameter, AutoAnalysis.Line1.Point2.XY.X, 
TestParameter, AutoAnalysis.Line1.Point2.XY.Y, 
TestParameter, AutoAnalysis.Line1.Point2.Data.Var, 
TestParameter, AutoAnalysis.Line1.Point2.Data.Condition, 
TestParameter, AutoAnalysis.Line1.Point2.Data.Start, false
TestParameter, AutoAnalysis.Line1.Point2.Data.StartVar, 
TestParameter, AutoAnalysis.Line1.Point2.Data.StartCondition, 
TestParameter, AutoAnalysis.Line1.GradientExpr, 0
TestParameter, AutoAnalysis.Line2.Enabled, false
TestParameter, AutoAnalysis.Line2.Type, 1
TestParameter, AutoAnalysis.Line2.Fix, False
TestParameter, AutoAnalysis.Line2.YAxis, 0
TestParameter, AutoAnalysis.Line2.Point1.Type, 0
TestParameter, AutoAnalysis.Line2.Point1.XY.X, 
TestParameter, AutoAnalysis.Line2.Point1.XY.Y, 
TestParameter, AutoAnalysis.Line2.Point1.Data.Var, 
TestParameter, AutoAnalysis.Line2.Point1.Data.Condition, 
TestParameter, AutoAnalysis.Line2.Point1.Data.Start, false
TestParameter, AutoAnalysis.Line2.Point1.Data.StartVar, 
TestParameter, AutoAnalysis.Line2.Point1.Data.StartCondition, 
TestParameter, AutoAnalysis.Line2.Point2.Type, 0
TestParameter, AutoAnalysis.Line2.Point2.XY.X, 
TestParameter, AutoAnalysis.Line2.Point2.XY.Y, 
TestParameter, AutoAnalysis.Line2.Point2.Data.Var, 
TestParameter, AutoAnalysis.Line2.Point2.Data.Condition, 
TestParameter, AutoAnalysis.Line2.Point2.Data.Start, false
TestParameter, AutoAnalysis.Line2.Point2.Data.StartVar, 
TestParameter, AutoAnalysis.Line2.Point2.Data.StartCondition, 
TestParameter, AutoAnalysis.Line2.GradientExpr, 0
TestParameter, AutoAnalysis.Marker.Enabled, false
TestParameter, AutoAnalysis.Marker.Data.Var, 
TestParameter, AutoAnalysis.Marker.Data.Condition, 
TestParameter, AutoAnalysis.Marker.Data.Start, false
TestParameter, AutoAnalysis.Marker.Data.StartVar, 
TestParameter, AutoAnalysis.Marker.Data.StartCondition, 
MetaData, TestRecord.EntryPoint, false
MetaData, TestRecord.RecordTime, 03/04/2023 18:28:41
MetaData, TestRecord.TestTarget, 
MetaData, TestRecord.IterationIndex, 229
MetaData, TestRecord.Preservation, true
MetaData, TestRecord.Flag, 
MetaData, TestRecord.Remarks, 
MetaData, TestRecord.LinkKey, f179e3cd-915e-4bba-b4f6-329c97ec707c
Dimension1, 21, 21, 21, 21
Dimension2, 1, 1, 1, 1
DataName, V1, I1, R, Rsheet
DataValue, 0, -8.609000000000001E-12, -0, -0
DataValue, 0.05, 2.0330199999999998E-08, 2459395.3822392304, 245939.538223923
DataValue, 0.1, 4.06341E-08, 2460987.2004055711, 246098.72004055709
DataValue, 0.15, 6.0961299999999989E-08, 2460577.4483155711, 246057.7448315571
DataValue, 0.2, 8.1242599999999987E-08, 2461762.6713079102, 246176.26713079098
DataValue, 0.25, 1.015503E-07, 2461834.1846355945, 246183.41846355941
DataValue, 0.3, 1.21816E-07, 2462730.675773297, 246273.06757732967
DataValue, 0.35000000000000003, 1.42115E-07, 2462794.21595187, 246279.42159518696
DataValue, 0.4, 1.62375E-07, 2463433.4103156277, 246343.34103156271
DataValue, 0.45, 1.8262799999999999E-07, 2464025.2316183718, 246402.52316183713
DataValue, 0.5, 2.02899E-07, 2464280.2576651438, 246428.02576651436
DataValue, 0.55, 2.23138E-07, 2464842.3845333382, 246484.23845333379
DataValue, 0.6, 2.43369E-07, 2465392.058972178, 246539.20589721776
DataValue, 0.65, 2.63611E-07, 2465754.4639639473, 246575.44639639472
DataValue, 0.70000000000000007, 2.83854E-07, 2466056.493831336, 246605.64938313357
DataValue, 0.75, 3.04055E-07, 2466658.9926164672, 246665.89926164667
DataValue, 0.8, 3.24278E-07, 2467019.0392194353, 246701.90392194351
DataValue, 0.85000000000000009, 3.4447E-07, 2467558.8585363021, 246755.88585363017
DataValue, 0.9, 3.64691E-07, 2467842.6393851233, 246784.2639385123
DataValue, 0.95000000000000007, 3.84891E-07, 2468231.2654751609, 246823.12654751606
DataValue, 1, 4.05071E-07, 2468703.0174956983, 246870.3017495698