
SetupTitle, R-V
ApplicationTest, R-V, Public
TestParameter, Name, Port1, Port2, V1Start, V1Stop, V1Step, V2, I1Limit, IntegTime, HoldTime, DelayTime, Port1MinRng
TestParameter, Value, SMU1:MP	MPSMU, SMU2:MP	MPSMU, 0, 1, 0.05, 0, 0.01, MEDIUM, 0, 0, 1nA
DutParameter, Name, L, W, Temp
DutParameter, Value, 1E-05, 1E-06, 25
MetaData, TestRecord.EntryPoint, true
MetaData, TestRecord.RecordTime, 03/04/2023 16:07:33
MetaData, TestRecord.TestTarget, 
MetaData, TestRecord.IterationIndex, 19
MetaData, TestRecord.Preservation, true
MetaData, TestRecord.Flag, 
MetaData, TestRecord.Remarks, 
MetaData, TestRecord.LinkKey, f093c142-e279-4fd3-99f8-f9e61a360a01
Dimension1, 21, 21, 21, 21
Dimension2, 1, 1, 1, 1
DataName, V1, I1, R, Rsheet
DataValue, 0, 1.132E-12, 0, 0
DataValue, 0.05, 7.77E-13, 64350064350.064354, 6435006435.0064344
DataValue, 0.1, 9.7900000000000017E-13, 102145045965.27068, 10214504596.527067
DataValue, 0.15, 6.9300000000000008E-13, 216450216450.21643, 21645021645.021641
DataValue, 0.2, 8.23E-13, 243013365735.11545, 24301336573.511539
DataValue, 0.25, 1.1020000000000002E-12, 226860254083.48453, 22686025408.34845
DataValue, 0.3, 1.1520000000000001E-12, 260416666666.66663, 26041666666.66666
DataValue, 0.35000000000000003, 1.2310000000000001E-12, 284321689683.18439, 28432168968.318436
DataValue, 0.4, 9.48E-13, 421940928270.04224, 42194092827.004219
DataValue, 0.45, 1.4220000000000002E-12, 316455696202.53162, 31645569620.253155
DataValue, 0.5, 1.272E-12, 393081761006.28931, 39308176100.628922
DataValue, 0.55, 1.107E-12, 496838301716.35052, 49683830171.635048
DataValue, 0.6, 1.6240000000000002E-12, 369458128078.81769, 36945812807.881767
DataValue, 0.65, 1.558E-12, 417201540436.45703, 41720154043.6457
DataValue, 0.70000000000000007, 1.37E-12, 510948905109.48907, 51094890510.9489
DataValue, 0.75, 1.4950000000000002E-12, 501672240802.67554, 50167224080.267548
DataValue, 0.8, 1.5740000000000002E-12, 508259212198.22107, 50825921219.822105
DataValue, 0.85000000000000009, 1.5860000000000001E-12, 535939470365.69989, 53593947036.569977
DataValue, 0.9, 1.402E-12, 641940085592.01135, 64194008559.201126
DataValue, 0.95000000000000007, 1.909E-12, 497642744892.61395, 49764274489.261383
DataValue, 1, 1.6850000000000002E-12, 593471810089.02075, 59347181008.902069
SetupTitle, R-V
PrimitiveTest, I/V Sweep
TestParameter, Context.MainFrame, B1500A
TestParameter, Channel.UnitType, SMU, SMU
TestParameter, Channel.Unit, Port1, Port2
TestParameter, Channel.IName, I1, I2
TestParameter, Channel.VName, V1, V2
TestParameter, Channel.Mode, V, V
TestParameter, Channel.Func, VAR1, CONST
TestParameter, Channel.Index, 
TestParameter, Channel.Time, 
TestParameter, Measurement.Port.Unit, Port1, Port2
TestParameter, Measurement.Port.SeriesResistor, NONE, NONE
TestParameter, Measurement.Port.Filter, OFF, OFF
TestParameter, Measurement.Port.OutputVoltageComparison, 0, 0
TestParameter, Measurement.Primary.Locus, Single
TestParameter, Measurement.Primary.Scale, LINEAR
TestParameter, Measurement.Primary.Start, V1Start
TestParameter, Measurement.Primary.Stop, V1Stop
TestParameter, Measurement.Primary.Step, V1Step
TestParameter, Measurement.Primary.Compliance, I1Limit
TestParameter, Measurement.Primary.PowerCompliance, 0
TestParameter, Measurement.Aborting.Condition, CONTINUE AT ANY
TestParameter, Measurement.PostOutput.Value, START
TestParameter, Measurement.PostOutput.Retention, OFF
TestParameter, Measurement.Bias.Source, 0, V2
TestParameter, Measurement.Bias.Compliance, 0.01, I1Limit
TestParameter, Measurement.Monitor.Unit, SMU:=Port1, SMU:=Port2
TestParameter, Measurement.Monitor.Adc, HR ADC, HR ADC
TestParameter, Measurement.Monitor.Measurement, Compliance Side, Compliance Side
TestParameter, Measurement.Monitor.RangingMode, LIMITED, LIMITED
TestParameter, Measurement.Monitor.RangeBoundary, Port1MinRng, 1nA
TestParameter, Measurement.Monitor.RangeRating, BY FULL RANGE, BY FULL RANGE
TestParameter, Measurement.Monitor.RangeRatingCoeff, 50, 50
TestParameter, Measurement.Timing.Hold, HoldTime
TestParameter, Measurement.Timing.Delay, DelayTime
TestParameter, Measurement.Adc.HighSpeed.Mode, AUTO
TestParameter, Measurement.Adc.HighSpeed.Coeff, 1
TestParameter, Measurement.Adc.HighResolution.AutoZero, ON
TestParameter, Measurement.Adc.HighResolution.Mode, IntegMode
TestParameter, Measurement.Adc.HighResolution.Coeff, AdcFactor
TestParameter, Measurement.WaitTime.Source.Coeff, 1
TestParameter, Measurement.WaitTime.Source.Offset, 0
TestParameter, Measurement.WaitTime.Monitor.Coeff, 1
TestParameter, Measurement.WaitTime.Monitor.Offset, 0
TestParameter, Function.User.Name, R, Rsheet
TestParameter, Function.User.Unit, ohm, ohm/sheet
TestParameter, Function.User.Definition, V1/I1, R*W/L
TestParameter, Output.Graph.Enabled, true
TestParameter, Output.Graph.AutoScaling, false
TestParameter, Output.Graph.XAxis.Data, V1
TestParameter, Output.Graph.XAxis.Scale, Linear
TestParameter, Output.Graph.XAxis.Left, V1Start
TestParameter, Output.Graph.XAxis.Right, V1Stop
TestParameter, Output.Graph.XAxis.RunTimeAutoScale, false
TestParameter, Output.Graph.YAxis.Data, R, I1
TestParameter, Output.Graph.YAxis.Scale, Linear, Linear
TestParameter, Output.Graph.YAxis.Bottom, 0, 0
TestParameter, Output.Graph.YAxis.Top, V1Stop/I1Limit, I1Limit
TestParameter, Output.Graph.YAxis.Group, , 
TestParameter, Output.Graph.YAxis.RunTimeAutoScale, false, false
TestParameter, Output.List.Data, V1, I1, R, Rsheet
TestParameter, AutoAnalysis.Interpolation, false
TestParameter, AutoAnalysis.Line1.Enabled, false
TestParameter, AutoAnalysis.Line1.Type, 1
TestParameter, AutoAnalysis.Line1.Fix, False
TestParameter, AutoAnalysis.Line1.YAxis, 0
TestParameter, AutoAnalysis.Line1.Point1.Type, 0
TestParameter, AutoAnalysis.Line1.Point1.XY.X, 
TestParameter, AutoAnalysis.Line1.Point1.XY.Y, 
TestParameter, AutoAnalysis.Line1.Point1.Data.Var, 
TestParameter, AutoAnalysis.Line1.Point1.Data.Condition, 
TestParameter, AutoAnalysis.Line1.Point1.Data.Start, false
TestParameter, AutoAnalysis.Line1.Point1.Data.StartVar, 
TestParameter, AutoAnalysis.Line1.Point1.Data.StartCondition, 
TestParameter, AutoAnalysis.Line1.Point2.Type, 0
TestParameter, AutoAnalysis.Line1.Point2.XY.X, 
TestParameter, AutoAnalysis.Line1.Point2.XY.Y, 
TestParameter, AutoAnalysis.Line1.Point2.Data.Var, 
TestParameter, AutoAnalysis.Line1.Point2.Data.Condition, 
TestParameter, AutoAnalysis.Line1.Point2.Data.Start, false
TestParameter, AutoAnalysis.Line1.Point2.Data.StartVar, 
TestParameter, AutoAnalysis.Line1.Point2.Data.StartCondition, 
TestParameter, AutoAnalysis.Line1.GradientExpr, 0
TestParameter, AutoAnalysis.Line2.Enabled, false
TestParameter, AutoAnalysis.Line2.Type, 1
TestParameter, AutoAnalysis.Line2.Fix, False
TestParameter, AutoAnalysis.Line2.YAxis, 0
TestParameter, AutoAnalysis.Line2.Point1.Type, 0
TestParameter, AutoAnalysis.Line2.Point1.XY.X, 
TestParameter, AutoAnalysis.Line2.Point1.XY.Y, 
TestParameter, AutoAnalysis.Line2.Point1.Data.Var, 
TestParameter, AutoAnalysis.Line2.Point1.Data.Condition, 
TestParameter, AutoAnalysis.Line2.Point1.Data.Start, false
TestParameter, AutoAnalysis.Line2.Point1.Data.StartVar, 
TestParameter, AutoAnalysis.Line2.Point1.Data.StartCondition, 
TestParameter, AutoAnalysis.Line2.Point2.Type, 0
TestParameter, AutoAnalysis.Line2.Point2.XY.X, 
TestParameter, AutoAnalysis.Line2.Point2.XY.Y, 
TestParameter, AutoAnalysis.Line2.Point2.Data.Var, 
TestParameter, AutoAnalysis.Line2.Point2.Data.Condition, 
TestParameter, AutoAnalysis.Line2.Point2.Data.Start, false
TestParameter, AutoAnalysis.Line2.Point2.Data.StartVar, 
TestParameter, AutoAnalysis.Line2.Point2.Data.StartCondition, 
TestParameter, AutoAnalysis.Line2.GradientExpr, 0
TestParameter, AutoAnalysis.Marker.Enabled, false
TestParameter, AutoAnalysis.Marker.Data.Var, 
TestParameter, AutoAnalysis.Marker.Data.Condition, 
TestParameter, AutoAnalysis.Marker.Data.Start, false
TestParameter, AutoAnalysis.Marker.Data.StartVar, 
TestParameter, AutoAnalysis.Marker.Data.StartCondition, 
MetaData, TestRecord.EntryPoint, false
MetaData, TestRecord.RecordTime, 03/04/2023 16:07:33
MetaData, TestRecord.TestTarget, 
MetaData, TestRecord.IterationIndex, 19
MetaData, TestRecord.Preservation, true
MetaData, TestRecord.Flag, 
MetaData, TestRecord.Remarks, 
MetaData, TestRecord.LinkKey, f093c142-e279-4fd3-99f8-f9e61a360a01
Dimension1, 21, 21, 21, 21
Dimension2, 1, 1, 1, 1
DataName, V1, I1, R, Rsheet
DataValue, 0, 1.132E-12, 0, 0
DataValue, 0.05, 7.77E-13, 64350064350.064354, 6435006435.0064344
DataValue, 0.1, 9.7900000000000017E-13, 102145045965.27068, 10214504596.527067
DataValue, 0.15, 6.9300000000000008E-13, 216450216450.21643, 21645021645.021641
DataValue, 0.2, 8.23E-13, 243013365735.11545, 24301336573.511539
DataValue, 0.25, 1.1020000000000002E-12, 226860254083.48453, 22686025408.34845
DataValue, 0.3, 1.1520000000000001E-12, 260416666666.66663, 26041666666.66666
DataValue, 0.35000000000000003, 1.2310000000000001E-12, 284321689683.18439, 28432168968.318436
DataValue, 0.4, 9.48E-13, 421940928270.04224, 42194092827.004219
DataValue, 0.45, 1.4220000000000002E-12, 316455696202.53162, 31645569620.253155
DataValue, 0.5, 1.272E-12, 393081761006.28931, 39308176100.628922
DataValue, 0.55, 1.107E-12, 496838301716.35052, 49683830171.635048
DataValue, 0.6, 1.6240000000000002E-12, 369458128078.81769, 36945812807.881767
DataValue, 0.65, 1.558E-12, 417201540436.45703, 41720154043.6457
DataValue, 0.70000000000000007, 1.37E-12, 510948905109.48907, 51094890510.9489
DataValue, 0.75, 1.4950000000000002E-12, 501672240802.67554, 50167224080.267548
DataValue, 0.8, 1.5740000000000002E-12, 508259212198.22107, 50825921219.822105
DataValue, 0.85000000000000009, 1.5860000000000001E-12, 535939470365.69989, 53593947036.569977
DataValue, 0.9, 1.402E-12, 641940085592.01135, 64194008559.201126
DataValue, 0.95000000000000007, 1.909E-12, 497642744892.61395, 49764274489.261383
DataValue, 1, 1.6850000000000002E-12, 593471810089.02075, 59347181008.902069