
SetupTitle, R-V
ApplicationTest, R-V, Public
TestParameter, Name, Port1, Port2, V1Start, V1Stop, V1Step, V2, I1Limit, IntegTime, HoldTime, DelayTime, Port1MinRng
TestParameter, Value, SMU1:MP	MPSMU, SMU2:MP	MPSMU, 0, 1, 0.05, 0, 0.01, MEDIUM, 0, 0, 1nA
DutParameter, Name, L, W, Temp
DutParameter, Value, 1E-05, 1E-06, 25
MetaData, TestRecord.EntryPoint, true
MetaData, TestRecord.RecordTime, 03/04/2023 17:07:03
MetaData, TestRecord.TestTarget, 
MetaData, TestRecord.IterationIndex, 100
MetaData, TestRecord.Preservation, true
MetaData, TestRecord.Flag, 
MetaData, TestRecord.Remarks, 
MetaData, TestRecord.LinkKey, ad7c0e95-b7f1-4c67-9215-0b4e0363a4b8
Dimension1, 21, 21, 21, 21
Dimension2, 1, 1, 1, 1
DataName, V1, I1, R, Rsheet
DataValue, 0, -1.89581E-08, -0, -0
DataValue, 0.05, 8.4784800000000009E-05, 589.728347533992, 58.972834753399184
DataValue, 0.1, 0.000169476, 590.054048950884, 59.00540489508839
DataValue, 0.15, 0.000254308, 589.83594696195155, 58.983594696195141
DataValue, 0.2, 0.00033896800000000004, 590.026197163154, 59.002619716315394
DataValue, 0.25, 0.00042377900000000005, 589.93012867555956, 58.993012867555954
DataValue, 0.3, 0.00050847400000000008, 590.00066866742441, 59.000066866742436
DataValue, 0.35000000000000003, 0.00059328700000000007, 589.93370830643516, 58.993370830643514
DataValue, 0.4, 0.000677988, 589.98094361552126, 58.99809436155212
DataValue, 0.45, 0.000762658, 590.04167005394288, 59.004167005394272
DataValue, 0.5, 0.00084740400000000006, 590.037337562721, 59.003733756272084
DataValue, 0.55, 0.000932044, 590.10089652419845, 59.010089652419836
DataValue, 0.6, 0.001016667, 590.163740929921, 59.016374092992088
DataValue, 0.65, 0.0011013420000000002, 590.18906025557908, 59.0189060255579
DataValue, 0.70000000000000007, 0.0011860500000000001, 590.1943425656591, 59.0194342565659
DataValue, 0.75, 0.00127053, 590.30483341597608, 59.0304833415976
DataValue, 0.8, 0.0013551400000000001, 590.34490901309084, 59.034490901309077
DataValue, 0.85000000000000009, 0.00143965, 590.42128295071723, 59.042128295071713
DataValue, 0.9, 0.0015242300000000001, 590.46206937273246, 59.04620693727324
DataValue, 0.95000000000000007, 0.0016087, 590.5389444893392, 59.053894448933917
DataValue, 1, 0.00169314, 590.61861393623678, 59.061861393623666
SetupTitle, R-V
PrimitiveTest, I/V Sweep
TestParameter, Context.MainFrame, B1500A
TestParameter, Channel.UnitType, SMU, SMU
TestParameter, Channel.Unit, Port1, Port2
TestParameter, Channel.IName, I1, I2
TestParameter, Channel.VName, V1, V2
TestParameter, Channel.Mode, V, V
TestParameter, Channel.Func, VAR1, CONST
TestParameter, Channel.Index, 
TestParameter, Channel.Time, 
TestParameter, Measurement.Port.Unit, Port1, Port2
TestParameter, Measurement.Port.SeriesResistor, NONE, NONE
TestParameter, Measurement.Port.Filter, OFF, OFF
TestParameter, Measurement.Port.OutputVoltageComparison, 0, 0
TestParameter, Measurement.Primary.Locus, Single
TestParameter, Measurement.Primary.Scale, LINEAR
TestParameter, Measurement.Primary.Start, V1Start
TestParameter, Measurement.Primary.Stop, V1Stop
TestParameter, Measurement.Primary.Step, V1Step
TestParameter, Measurement.Primary.Compliance, I1Limit
TestParameter, Measurement.Primary.PowerCompliance, 0
TestParameter, Measurement.Aborting.Condition, CONTINUE AT ANY
TestParameter, Measurement.PostOutput.Value, START
TestParameter, Measurement.PostOutput.Retention, OFF
TestParameter, Measurement.Bias.Source, 0, V2
TestParameter, Measurement.Bias.Compliance, 0.01, I1Limit
TestParameter, Measurement.Monitor.Unit, SMU:=Port1, SMU:=Port2
TestParameter, Measurement.Monitor.Adc, HR ADC, HR ADC
TestParameter, Measurement.Monitor.Measurement, Compliance Side, Compliance Side
TestParameter, Measurement.Monitor.RangingMode, LIMITED, LIMITED
TestParameter, Measurement.Monitor.RangeBoundary, Port1MinRng, 1nA
TestParameter, Measurement.Monitor.RangeRating, BY FULL RANGE, BY FULL RANGE
TestParameter, Measurement.Monitor.RangeRatingCoeff, 50, 50
TestParameter, Measurement.Timing.Hold, HoldTime
TestParameter, Measurement.Timing.Delay, DelayTime
TestParameter, Measurement.Adc.HighSpeed.Mode, AUTO
TestParameter, Measurement.Adc.HighSpeed.Coeff, 1
TestParameter, Measurement.Adc.HighResolution.AutoZero, ON
TestParameter, Measurement.Adc.HighResolution.Mode, IntegMode
TestParameter, Measurement.Adc.HighResolution.Coeff, AdcFactor
TestParameter, Measurement.WaitTime.Source.Coeff, 1
TestParameter, Measurement.WaitTime.Source.Offset, 0
TestParameter, Measurement.WaitTime.Monitor.Coeff, 1
TestParameter, Measurement.WaitTime.Monitor.Offset, 0
TestParameter, Function.User.Name, R, Rsheet
TestParameter, Function.User.Unit, ohm, ohm/sheet
TestParameter, Function.User.Definition, V1/I1, R*W/L
TestParameter, Output.Graph.Enabled, true
TestParameter, Output.Graph.AutoScaling, false
TestParameter, Output.Graph.XAxis.Data, V1
TestParameter, Output.Graph.XAxis.Scale, Linear
TestParameter, Output.Graph.XAxis.Left, V1Start
TestParameter, Output.Graph.XAxis.Right, V1Stop
TestParameter, Output.Graph.XAxis.RunTimeAutoScale, false
TestParameter, Output.Graph.YAxis.Data, R, I1
TestParameter, Output.Graph.YAxis.Scale, Linear, Linear
TestParameter, Output.Graph.YAxis.Bottom, 0, 0
TestParameter, Output.Graph.YAxis.Top, V1Stop/I1Limit, I1Limit
TestParameter, Output.Graph.YAxis.Group, , 
TestParameter, Output.Graph.YAxis.RunTimeAutoScale, false, false
TestParameter, Output.List.Data, V1, I1, R, Rsheet
TestParameter, AutoAnalysis.Interpolation, false
TestParameter, AutoAnalysis.Line1.Enabled, false
TestParameter, AutoAnalysis.Line1.Type, 1
TestParameter, AutoAnalysis.Line1.Fix, False
TestParameter, AutoAnalysis.Line1.YAxis, 0
TestParameter, AutoAnalysis.Line1.Point1.Type, 0
TestParameter, AutoAnalysis.Line1.Point1.XY.X, 
TestParameter, AutoAnalysis.Line1.Point1.XY.Y, 
TestParameter, AutoAnalysis.Line1.Point1.Data.Var, 
TestParameter, AutoAnalysis.Line1.Point1.Data.Condition, 
TestParameter, AutoAnalysis.Line1.Point1.Data.Start, false
TestParameter, AutoAnalysis.Line1.Point1.Data.StartVar, 
TestParameter, AutoAnalysis.Line1.Point1.Data.StartCondition, 
TestParameter, AutoAnalysis.Line1.Point2.Type, 0
TestParameter, AutoAnalysis.Line1.Point2.XY.X, 
TestParameter, AutoAnalysis.Line1.Point2.XY.Y, 
TestParameter, AutoAnalysis.Line1.Point2.Data.Var, 
TestParameter, AutoAnalysis.Line1.Point2.Data.Condition, 
TestParameter, AutoAnalysis.Line1.Point2.Data.Start, false
TestParameter, AutoAnalysis.Line1.Point2.Data.StartVar, 
TestParameter, AutoAnalysis.Line1.Point2.Data.StartCondition, 
TestParameter, AutoAnalysis.Line1.GradientExpr, 0
TestParameter, AutoAnalysis.Line2.Enabled, false
TestParameter, AutoAnalysis.Line2.Type, 1
TestParameter, AutoAnalysis.Line2.Fix, False
TestParameter, AutoAnalysis.Line2.YAxis, 0
TestParameter, AutoAnalysis.Line2.Point1.Type, 0
TestParameter, AutoAnalysis.Line2.Point1.XY.X, 
TestParameter, AutoAnalysis.Line2.Point1.XY.Y, 
TestParameter, AutoAnalysis.Line2.Point1.Data.Var, 
TestParameter, AutoAnalysis.Line2.Point1.Data.Condition, 
TestParameter, AutoAnalysis.Line2.Point1.Data.Start, false
TestParameter, AutoAnalysis.Line2.Point1.Data.StartVar, 
TestParameter, AutoAnalysis.Line2.Point1.Data.StartCondition, 
TestParameter, AutoAnalysis.Line2.Point2.Type, 0
TestParameter, AutoAnalysis.Line2.Point2.XY.X, 
TestParameter, AutoAnalysis.Line2.Point2.XY.Y, 
TestParameter, AutoAnalysis.Line2.Point2.Data.Var, 
TestParameter, AutoAnalysis.Line2.Point2.Data.Condition, 
TestParameter, AutoAnalysis.Line2.Point2.Data.Start, false
TestParameter, AutoAnalysis.Line2.Point2.Data.StartVar, 
TestParameter, AutoAnalysis.Line2.Point2.Data.StartCondition, 
TestParameter, AutoAnalysis.Line2.GradientExpr, 0
TestParameter, AutoAnalysis.Marker.Enabled, false
TestParameter, AutoAnalysis.Marker.Data.Var, 
TestParameter, AutoAnalysis.Marker.Data.Condition, 
TestParameter, AutoAnalysis.Marker.Data.Start, false
TestParameter, AutoAnalysis.Marker.Data.StartVar, 
TestParameter, AutoAnalysis.Marker.Data.StartCondition, 
MetaData, TestRecord.EntryPoint, false
MetaData, TestRecord.RecordTime, 03/04/2023 17:07:02
MetaData, TestRecord.TestTarget, 
MetaData, TestRecord.IterationIndex, 100
MetaData, TestRecord.Preservation, true
MetaData, TestRecord.Flag, 
MetaData, TestRecord.Remarks, 
MetaData, TestRecord.LinkKey, ad7c0e95-b7f1-4c67-9215-0b4e0363a4b8
Dimension1, 21, 21, 21, 21
Dimension2, 1, 1, 1, 1
DataName, V1, I1, R, Rsheet
DataValue, 0, -1.89581E-08, -0, -0
DataValue, 0.05, 8.4784800000000009E-05, 589.728347533992, 58.972834753399184
DataValue, 0.1, 0.000169476, 590.054048950884, 59.00540489508839
DataValue, 0.15, 0.000254308, 589.83594696195155, 58.983594696195141
DataValue, 0.2, 0.00033896800000000004, 590.026197163154, 59.002619716315394
DataValue, 0.25, 0.00042377900000000005, 589.93012867555956, 58.993012867555954
DataValue, 0.3, 0.00050847400000000008, 590.00066866742441, 59.000066866742436
DataValue, 0.35000000000000003, 0.00059328700000000007, 589.93370830643516, 58.993370830643514
DataValue, 0.4, 0.000677988, 589.98094361552126, 58.99809436155212
DataValue, 0.45, 0.000762658, 590.04167005394288, 59.004167005394272
DataValue, 0.5, 0.00084740400000000006, 590.037337562721, 59.003733756272084
DataValue, 0.55, 0.000932044, 590.10089652419845, 59.010089652419836
DataValue, 0.6, 0.001016667, 590.163740929921, 59.016374092992088
DataValue, 0.65, 0.0011013420000000002, 590.18906025557908, 59.0189060255579
DataValue, 0.70000000000000007, 0.0011860500000000001, 590.1943425656591, 59.0194342565659
DataValue, 0.75, 0.00127053, 590.30483341597608, 59.0304833415976
DataValue, 0.8, 0.0013551400000000001, 590.34490901309084, 59.034490901309077
DataValue, 0.85000000000000009, 0.00143965, 590.42128295071723, 59.042128295071713
DataValue, 0.9, 0.0015242300000000001, 590.46206937273246, 59.04620693727324
DataValue, 0.95000000000000007, 0.0016087, 590.5389444893392, 59.053894448933917
DataValue, 1, 0.00169314, 590.61861393623678, 59.061861393623666