
SetupTitle, R-V
ApplicationTest, R-V, Public
TestParameter, Name, Port1, Port2, V1Start, V1Stop, V1Step, V2, I1Limit, IntegTime, HoldTime, DelayTime, Port1MinRng
TestParameter, Value, SMU1:MP	MPSMU, SMU2:MP	MPSMU, 0, 1, 0.05, 0, 0.01, MEDIUM, 0, 0, 1nA
DutParameter, Name, L, W, Temp
DutParameter, Value, 1E-05, 1E-06, 25
MetaData, TestRecord.EntryPoint, true
MetaData, TestRecord.RecordTime, 03/04/2023 18:56:43
MetaData, TestRecord.TestTarget, 
MetaData, TestRecord.IterationIndex, 281
MetaData, TestRecord.Preservation, true
MetaData, TestRecord.Flag, 
MetaData, TestRecord.Remarks, 
MetaData, TestRecord.LinkKey, 5a7dc281-616e-4426-a59f-fa410fbd41d1
Dimension1, 21, 21, 21, 21
Dimension2, 1, 1, 1, 1
DataName, V1, I1, R, Rsheet
DataValue, 0, 3.05E-13, 0, 0
DataValue, 0.05, 7.1800000000000007E-13, 69637883008.356537, 6963788300.8356533
DataValue, 0.1, 9.3900000000000014E-13, 106496272630.45793, 10649627263.045792
DataValue, 0.15, 1.141E-12, 131463628396.14372, 13146362839.614372
DataValue, 0.2, 1.366E-12, 146412884333.82138, 14641288433.382135
DataValue, 0.25, 1.464E-12, 170765027322.40436, 17076502732.240433
DataValue, 0.3, 1.6640000000000002E-12, 180288461538.46152, 18028846153.846149
DataValue, 0.35000000000000003, 1.8120000000000002E-12, 193156732891.83225, 19315673289.183224
DataValue, 0.4, 1.9830000000000003E-12, 201714573877.96265, 20171457387.796261
DataValue, 0.45, 2.0250000000000004E-12, 222222222222.2222, 22222222222.222218
DataValue, 0.5, 2.228E-12, 224416517055.65527, 22441651705.565525
DataValue, 0.55, 2.4050000000000004E-12, 228690228690.22867, 22869022869.022865
DataValue, 0.6, 2.4380000000000003E-12, 246103363412.63327, 24610336341.263321
DataValue, 0.65, 2.661E-12, 244269071777.52725, 24426907177.752724
DataValue, 0.70000000000000007, 2.6640000000000004E-12, 262762762762.76276, 26276276276.276272
DataValue, 0.75, 2.812E-12, 266714082503.55618, 26671408250.355614
DataValue, 0.8, 2.8650000000000004E-12, 279232111692.84467, 27923211169.284462
DataValue, 0.85000000000000009, 3.0850000000000003E-12, 275526742301.45868, 27552674230.145866
DataValue, 0.9, 3.1280000000000004E-12, 287723785166.24036, 28772378516.624035
DataValue, 0.95000000000000007, 3.138E-12, 302740599107.71191, 30274059910.771191
DataValue, 1, 3.2570000000000004E-12, 307031010132.02332, 30703101013.202328
SetupTitle, R-V
PrimitiveTest, I/V Sweep
TestParameter, Context.MainFrame, B1500A
TestParameter, Channel.UnitType, SMU, SMU
TestParameter, Channel.Unit, Port1, Port2
TestParameter, Channel.IName, I1, I2
TestParameter, Channel.VName, V1, V2
TestParameter, Channel.Mode, V, V
TestParameter, Channel.Func, VAR1, CONST
TestParameter, Channel.Index, 
TestParameter, Channel.Time, 
TestParameter, Measurement.Port.Unit, Port1, Port2
TestParameter, Measurement.Port.SeriesResistor, NONE, NONE
TestParameter, Measurement.Port.Filter, OFF, OFF
TestParameter, Measurement.Port.OutputVoltageComparison, 0, 0
TestParameter, Measurement.Primary.Locus, Single
TestParameter, Measurement.Primary.Scale, LINEAR
TestParameter, Measurement.Primary.Start, V1Start
TestParameter, Measurement.Primary.Stop, V1Stop
TestParameter, Measurement.Primary.Step, V1Step
TestParameter, Measurement.Primary.Compliance, I1Limit
TestParameter, Measurement.Primary.PowerCompliance, 0
TestParameter, Measurement.Aborting.Condition, CONTINUE AT ANY
TestParameter, Measurement.PostOutput.Value, START
TestParameter, Measurement.PostOutput.Retention, OFF
TestParameter, Measurement.Bias.Source, 0, V2
TestParameter, Measurement.Bias.Compliance, 0.01, I1Limit
TestParameter, Measurement.Monitor.Unit, SMU:=Port1, SMU:=Port2
TestParameter, Measurement.Monitor.Adc, HR ADC, HR ADC
TestParameter, Measurement.Monitor.Measurement, Compliance Side, Compliance Side
TestParameter, Measurement.Monitor.RangingMode, LIMITED, LIMITED
TestParameter, Measurement.Monitor.RangeBoundary, Port1MinRng, 1nA
TestParameter, Measurement.Monitor.RangeRating, BY FULL RANGE, BY FULL RANGE
TestParameter, Measurement.Monitor.RangeRatingCoeff, 50, 50
TestParameter, Measurement.Timing.Hold, HoldTime
TestParameter, Measurement.Timing.Delay, DelayTime
TestParameter, Measurement.Adc.HighSpeed.Mode, AUTO
TestParameter, Measurement.Adc.HighSpeed.Coeff, 1
TestParameter, Measurement.Adc.HighResolution.AutoZero, ON
TestParameter, Measurement.Adc.HighResolution.Mode, IntegMode
TestParameter, Measurement.Adc.HighResolution.Coeff, AdcFactor
TestParameter, Measurement.WaitTime.Source.Coeff, 1
TestParameter, Measurement.WaitTime.Source.Offset, 0
TestParameter, Measurement.WaitTime.Monitor.Coeff, 1
TestParameter, Measurement.WaitTime.Monitor.Offset, 0
TestParameter, Function.User.Name, R, Rsheet
TestParameter, Function.User.Unit, ohm, ohm/sheet
TestParameter, Function.User.Definition, V1/I1, R*W/L
TestParameter, Output.Graph.Enabled, true
TestParameter, Output.Graph.AutoScaling, false
TestParameter, Output.Graph.XAxis.Data, V1
TestParameter, Output.Graph.XAxis.Scale, Linear
TestParameter, Output.Graph.XAxis.Left, V1Start
TestParameter, Output.Graph.XAxis.Right, V1Stop
TestParameter, Output.Graph.XAxis.RunTimeAutoScale, false
TestParameter, Output.Graph.YAxis.Data, R, I1
TestParameter, Output.Graph.YAxis.Scale, Linear, Linear
TestParameter, Output.Graph.YAxis.Bottom, 0, 0
TestParameter, Output.Graph.YAxis.Top, V1Stop/I1Limit, I1Limit
TestParameter, Output.Graph.YAxis.Group, , 
TestParameter, Output.Graph.YAxis.RunTimeAutoScale, false, false
TestParameter, Output.List.Data, V1, I1, R, Rsheet
TestParameter, AutoAnalysis.Interpolation, false
TestParameter, AutoAnalysis.Line1.Enabled, false
TestParameter, AutoAnalysis.Line1.Type, 1
TestParameter, AutoAnalysis.Line1.Fix, False
TestParameter, AutoAnalysis.Line1.YAxis, 0
TestParameter, AutoAnalysis.Line1.Point1.Type, 0
TestParameter, AutoAnalysis.Line1.Point1.XY.X, 
TestParameter, AutoAnalysis.Line1.Point1.XY.Y, 
TestParameter, AutoAnalysis.Line1.Point1.Data.Var, 
TestParameter, AutoAnalysis.Line1.Point1.Data.Condition, 
TestParameter, AutoAnalysis.Line1.Point1.Data.Start, false
TestParameter, AutoAnalysis.Line1.Point1.Data.StartVar, 
TestParameter, AutoAnalysis.Line1.Point1.Data.StartCondition, 
TestParameter, AutoAnalysis.Line1.Point2.Type, 0
TestParameter, AutoAnalysis.Line1.Point2.XY.X, 
TestParameter, AutoAnalysis.Line1.Point2.XY.Y, 
TestParameter, AutoAnalysis.Line1.Point2.Data.Var, 
TestParameter, AutoAnalysis.Line1.Point2.Data.Condition, 
TestParameter, AutoAnalysis.Line1.Point2.Data.Start, false
TestParameter, AutoAnalysis.Line1.Point2.Data.StartVar, 
TestParameter, AutoAnalysis.Line1.Point2.Data.StartCondition, 
TestParameter, AutoAnalysis.Line1.GradientExpr, 0
TestParameter, AutoAnalysis.Line2.Enabled, false
TestParameter, AutoAnalysis.Line2.Type, 1
TestParameter, AutoAnalysis.Line2.Fix, False
TestParameter, AutoAnalysis.Line2.YAxis, 0
TestParameter, AutoAnalysis.Line2.Point1.Type, 0
TestParameter, AutoAnalysis.Line2.Point1.XY.X, 
TestParameter, AutoAnalysis.Line2.Point1.XY.Y, 
TestParameter, AutoAnalysis.Line2.Point1.Data.Var, 
TestParameter, AutoAnalysis.Line2.Point1.Data.Condition, 
TestParameter, AutoAnalysis.Line2.Point1.Data.Start, false
TestParameter, AutoAnalysis.Line2.Point1.Data.StartVar, 
TestParameter, AutoAnalysis.Line2.Point1.Data.StartCondition, 
TestParameter, AutoAnalysis.Line2.Point2.Type, 0
TestParameter, AutoAnalysis.Line2.Point2.XY.X, 
TestParameter, AutoAnalysis.Line2.Point2.XY.Y, 
TestParameter, AutoAnalysis.Line2.Point2.Data.Var, 
TestParameter, AutoAnalysis.Line2.Point2.Data.Condition, 
TestParameter, AutoAnalysis.Line2.Point2.Data.Start, false
TestParameter, AutoAnalysis.Line2.Point2.Data.StartVar, 
TestParameter, AutoAnalysis.Line2.Point2.Data.StartCondition, 
TestParameter, AutoAnalysis.Line2.GradientExpr, 0
TestParameter, AutoAnalysis.Marker.Enabled, false
TestParameter, AutoAnalysis.Marker.Data.Var, 
TestParameter, AutoAnalysis.Marker.Data.Condition, 
TestParameter, AutoAnalysis.Marker.Data.Start, false
TestParameter, AutoAnalysis.Marker.Data.StartVar, 
TestParameter, AutoAnalysis.Marker.Data.StartCondition, 
MetaData, TestRecord.EntryPoint, false
MetaData, TestRecord.RecordTime, 03/04/2023 18:56:43
MetaData, TestRecord.TestTarget, 
MetaData, TestRecord.IterationIndex, 281
MetaData, TestRecord.Preservation, true
MetaData, TestRecord.Flag, 
MetaData, TestRecord.Remarks, 
MetaData, TestRecord.LinkKey, 5a7dc281-616e-4426-a59f-fa410fbd41d1
Dimension1, 21, 21, 21, 21
Dimension2, 1, 1, 1, 1
DataName, V1, I1, R, Rsheet
DataValue, 0, 3.05E-13, 0, 0
DataValue, 0.05, 7.1800000000000007E-13, 69637883008.356537, 6963788300.8356533
DataValue, 0.1, 9.3900000000000014E-13, 106496272630.45793, 10649627263.045792
DataValue, 0.15, 1.141E-12, 131463628396.14372, 13146362839.614372
DataValue, 0.2, 1.366E-12, 146412884333.82138, 14641288433.382135
DataValue, 0.25, 1.464E-12, 170765027322.40436, 17076502732.240433
DataValue, 0.3, 1.6640000000000002E-12, 180288461538.46152, 18028846153.846149
DataValue, 0.35000000000000003, 1.8120000000000002E-12, 193156732891.83225, 19315673289.183224
DataValue, 0.4, 1.9830000000000003E-12, 201714573877.96265, 20171457387.796261
DataValue, 0.45, 2.0250000000000004E-12, 222222222222.2222, 22222222222.222218
DataValue, 0.5, 2.228E-12, 224416517055.65527, 22441651705.565525
DataValue, 0.55, 2.4050000000000004E-12, 228690228690.22867, 22869022869.022865
DataValue, 0.6, 2.4380000000000003E-12, 246103363412.63327, 24610336341.263321
DataValue, 0.65, 2.661E-12, 244269071777.52725, 24426907177.752724
DataValue, 0.70000000000000007, 2.6640000000000004E-12, 262762762762.76276, 26276276276.276272
DataValue, 0.75, 2.812E-12, 266714082503.55618, 26671408250.355614
DataValue, 0.8, 2.8650000000000004E-12, 279232111692.84467, 27923211169.284462
DataValue, 0.85000000000000009, 3.0850000000000003E-12, 275526742301.45868, 27552674230.145866
DataValue, 0.9, 3.1280000000000004E-12, 287723785166.24036, 28772378516.624035
DataValue, 0.95000000000000007, 3.138E-12, 302740599107.71191, 30274059910.771191
DataValue, 1, 3.2570000000000004E-12, 307031010132.02332, 30703101013.202328