
SetupTitle, R-V
ApplicationTest, R-V, Public
TestParameter, Name, Port1, Port2, V1Start, V1Stop, V1Step, V2, I1Limit, IntegTime, HoldTime, DelayTime, Port1MinRng
TestParameter, Value, SMU1:MP	MPSMU, SMU2:MP	MPSMU, 0, 1, 0.05, 0, 0.01, MEDIUM, 0, 0, 1nA
DutParameter, Name, L, W, Temp
DutParameter, Value, 1E-05, 1E-06, 25
MetaData, TestRecord.EntryPoint, true
MetaData, TestRecord.RecordTime, 03/04/2023 18:15:59
MetaData, TestRecord.TestTarget, 
MetaData, TestRecord.IterationIndex, 208
MetaData, TestRecord.Preservation, true
MetaData, TestRecord.Flag, 
MetaData, TestRecord.Remarks, 
MetaData, TestRecord.LinkKey, 8ad2871c-d7ee-4e4b-a137-003efa3c58d3
Dimension1, 21, 21, 21, 21
Dimension2, 1, 1, 1, 1
DataName, V1, I1, R, Rsheet
DataValue, 0, 1.2000000000000002E-13, 0, 0
DataValue, 0.05, 8.25E-13, 60606060606.060608, 6060606060.60606
DataValue, 0.1, 1.1810000000000001E-12, 84674005080.4403, 8467400508.0440292
DataValue, 0.15, 1.182E-12, 126903553299.49239, 12690355329.949238
DataValue, 0.2, 1.519E-12, 131665569453.58789, 13166556945.358786
DataValue, 0.25, 1.659E-12, 150693188667.87219, 15069318866.787218
DataValue, 0.3, 1.8140000000000002E-12, 165380374862.183, 16538037486.218298
DataValue, 0.35000000000000003, 1.69E-12, 207100591715.97635, 20710059171.597633
DataValue, 0.4, 2.0490000000000003E-12, 195217179111.76181, 19521717911.176178
DataValue, 0.45, 2.0320000000000002E-12, 221456692913.3858, 22145669291.338577
DataValue, 0.5, 2.1870000000000003E-12, 228623685413.80884, 22862368541.380882
DataValue, 0.55, 2.3450000000000002E-12, 234541577825.15991, 23454157782.515987
DataValue, 0.6, 2.427E-12, 247218788627.9357, 24721878862.793568
DataValue, 0.65, 2.4010000000000004E-12, 270720533111.20364, 27072053311.120361
DataValue, 0.70000000000000007, 2.637E-12, 265453166477.05728, 26545316647.705723
DataValue, 0.75, 2.72E-12, 275735294117.64703, 27573529411.7647
DataValue, 0.8, 2.75E-12, 290909090909.09088, 29090909090.909084
DataValue, 0.85000000000000009, 2.9350000000000003E-12, 289608177172.06134, 28960817717.206131
DataValue, 0.9, 3.0230000000000003E-12, 297717499173.0069, 29771749917.300682
DataValue, 0.95000000000000007, 3.2350000000000003E-12, 293663060278.20709, 29366306027.820705
DataValue, 1, 3.397E-12, 294377391816.30847, 29437739181.63084
SetupTitle, R-V
PrimitiveTest, I/V Sweep
TestParameter, Context.MainFrame, B1500A
TestParameter, Channel.UnitType, SMU, SMU
TestParameter, Channel.Unit, Port1, Port2
TestParameter, Channel.IName, I1, I2
TestParameter, Channel.VName, V1, V2
TestParameter, Channel.Mode, V, V
TestParameter, Channel.Func, VAR1, CONST
TestParameter, Channel.Index, 
TestParameter, Channel.Time, 
TestParameter, Measurement.Port.Unit, Port1, Port2
TestParameter, Measurement.Port.SeriesResistor, NONE, NONE
TestParameter, Measurement.Port.Filter, OFF, OFF
TestParameter, Measurement.Port.OutputVoltageComparison, 0, 0
TestParameter, Measurement.Primary.Locus, Single
TestParameter, Measurement.Primary.Scale, LINEAR
TestParameter, Measurement.Primary.Start, V1Start
TestParameter, Measurement.Primary.Stop, V1Stop
TestParameter, Measurement.Primary.Step, V1Step
TestParameter, Measurement.Primary.Compliance, I1Limit
TestParameter, Measurement.Primary.PowerCompliance, 0
TestParameter, Measurement.Aborting.Condition, CONTINUE AT ANY
TestParameter, Measurement.PostOutput.Value, START
TestParameter, Measurement.PostOutput.Retention, OFF
TestParameter, Measurement.Bias.Source, 0, V2
TestParameter, Measurement.Bias.Compliance, 0.01, I1Limit
TestParameter, Measurement.Monitor.Unit, SMU:=Port1, SMU:=Port2
TestParameter, Measurement.Monitor.Adc, HR ADC, HR ADC
TestParameter, Measurement.Monitor.Measurement, Compliance Side, Compliance Side
TestParameter, Measurement.Monitor.RangingMode, LIMITED, LIMITED
TestParameter, Measurement.Monitor.RangeBoundary, Port1MinRng, 1nA
TestParameter, Measurement.Monitor.RangeRating, BY FULL RANGE, BY FULL RANGE
TestParameter, Measurement.Monitor.RangeRatingCoeff, 50, 50
TestParameter, Measurement.Timing.Hold, HoldTime
TestParameter, Measurement.Timing.Delay, DelayTime
TestParameter, Measurement.Adc.HighSpeed.Mode, AUTO
TestParameter, Measurement.Adc.HighSpeed.Coeff, 1
TestParameter, Measurement.Adc.HighResolution.AutoZero, ON
TestParameter, Measurement.Adc.HighResolution.Mode, IntegMode
TestParameter, Measurement.Adc.HighResolution.Coeff, AdcFactor
TestParameter, Measurement.WaitTime.Source.Coeff, 1
TestParameter, Measurement.WaitTime.Source.Offset, 0
TestParameter, Measurement.WaitTime.Monitor.Coeff, 1
TestParameter, Measurement.WaitTime.Monitor.Offset, 0
TestParameter, Function.User.Name, R, Rsheet
TestParameter, Function.User.Unit, ohm, ohm/sheet
TestParameter, Function.User.Definition, V1/I1, R*W/L
TestParameter, Output.Graph.Enabled, true
TestParameter, Output.Graph.AutoScaling, false
TestParameter, Output.Graph.XAxis.Data, V1
TestParameter, Output.Graph.XAxis.Scale, Linear
TestParameter, Output.Graph.XAxis.Left, V1Start
TestParameter, Output.Graph.XAxis.Right, V1Stop
TestParameter, Output.Graph.XAxis.RunTimeAutoScale, false
TestParameter, Output.Graph.YAxis.Data, R, I1
TestParameter, Output.Graph.YAxis.Scale, Linear, Linear
TestParameter, Output.Graph.YAxis.Bottom, 0, 0
TestParameter, Output.Graph.YAxis.Top, V1Stop/I1Limit, I1Limit
TestParameter, Output.Graph.YAxis.Group, , 
TestParameter, Output.Graph.YAxis.RunTimeAutoScale, false, false
TestParameter, Output.List.Data, V1, I1, R, Rsheet
TestParameter, AutoAnalysis.Interpolation, false
TestParameter, AutoAnalysis.Line1.Enabled, false
TestParameter, AutoAnalysis.Line1.Type, 1
TestParameter, AutoAnalysis.Line1.Fix, False
TestParameter, AutoAnalysis.Line1.YAxis, 0
TestParameter, AutoAnalysis.Line1.Point1.Type, 0
TestParameter, AutoAnalysis.Line1.Point1.XY.X, 
TestParameter, AutoAnalysis.Line1.Point1.XY.Y, 
TestParameter, AutoAnalysis.Line1.Point1.Data.Var, 
TestParameter, AutoAnalysis.Line1.Point1.Data.Condition, 
TestParameter, AutoAnalysis.Line1.Point1.Data.Start, false
TestParameter, AutoAnalysis.Line1.Point1.Data.StartVar, 
TestParameter, AutoAnalysis.Line1.Point1.Data.StartCondition, 
TestParameter, AutoAnalysis.Line1.Point2.Type, 0
TestParameter, AutoAnalysis.Line1.Point2.XY.X, 
TestParameter, AutoAnalysis.Line1.Point2.XY.Y, 
TestParameter, AutoAnalysis.Line1.Point2.Data.Var, 
TestParameter, AutoAnalysis.Line1.Point2.Data.Condition, 
TestParameter, AutoAnalysis.Line1.Point2.Data.Start, false
TestParameter, AutoAnalysis.Line1.Point2.Data.StartVar, 
TestParameter, AutoAnalysis.Line1.Point2.Data.StartCondition, 
TestParameter, AutoAnalysis.Line1.GradientExpr, 0
TestParameter, AutoAnalysis.Line2.Enabled, false
TestParameter, AutoAnalysis.Line2.Type, 1
TestParameter, AutoAnalysis.Line2.Fix, False
TestParameter, AutoAnalysis.Line2.YAxis, 0
TestParameter, AutoAnalysis.Line2.Point1.Type, 0
TestParameter, AutoAnalysis.Line2.Point1.XY.X, 
TestParameter, AutoAnalysis.Line2.Point1.XY.Y, 
TestParameter, AutoAnalysis.Line2.Point1.Data.Var, 
TestParameter, AutoAnalysis.Line2.Point1.Data.Condition, 
TestParameter, AutoAnalysis.Line2.Point1.Data.Start, false
TestParameter, AutoAnalysis.Line2.Point1.Data.StartVar, 
TestParameter, AutoAnalysis.Line2.Point1.Data.StartCondition, 
TestParameter, AutoAnalysis.Line2.Point2.Type, 0
TestParameter, AutoAnalysis.Line2.Point2.XY.X, 
TestParameter, AutoAnalysis.Line2.Point2.XY.Y, 
TestParameter, AutoAnalysis.Line2.Point2.Data.Var, 
TestParameter, AutoAnalysis.Line2.Point2.Data.Condition, 
TestParameter, AutoAnalysis.Line2.Point2.Data.Start, false
TestParameter, AutoAnalysis.Line2.Point2.Data.StartVar, 
TestParameter, AutoAnalysis.Line2.Point2.Data.StartCondition, 
TestParameter, AutoAnalysis.Line2.GradientExpr, 0
TestParameter, AutoAnalysis.Marker.Enabled, false
TestParameter, AutoAnalysis.Marker.Data.Var, 
TestParameter, AutoAnalysis.Marker.Data.Condition, 
TestParameter, AutoAnalysis.Marker.Data.Start, false
TestParameter, AutoAnalysis.Marker.Data.StartVar, 
TestParameter, AutoAnalysis.Marker.Data.StartCondition, 
MetaData, TestRecord.EntryPoint, false
MetaData, TestRecord.RecordTime, 03/04/2023 18:15:59
MetaData, TestRecord.TestTarget, 
MetaData, TestRecord.IterationIndex, 208
MetaData, TestRecord.Preservation, true
MetaData, TestRecord.Flag, 
MetaData, TestRecord.Remarks, 
MetaData, TestRecord.LinkKey, 8ad2871c-d7ee-4e4b-a137-003efa3c58d3
Dimension1, 21, 21, 21, 21
Dimension2, 1, 1, 1, 1
DataName, V1, I1, R, Rsheet
DataValue, 0, 1.2000000000000002E-13, 0, 0
DataValue, 0.05, 8.25E-13, 60606060606.060608, 6060606060.60606
DataValue, 0.1, 1.1810000000000001E-12, 84674005080.4403, 8467400508.0440292
DataValue, 0.15, 1.182E-12, 126903553299.49239, 12690355329.949238
DataValue, 0.2, 1.519E-12, 131665569453.58789, 13166556945.358786
DataValue, 0.25, 1.659E-12, 150693188667.87219, 15069318866.787218
DataValue, 0.3, 1.8140000000000002E-12, 165380374862.183, 16538037486.218298
DataValue, 0.35000000000000003, 1.69E-12, 207100591715.97635, 20710059171.597633
DataValue, 0.4, 2.0490000000000003E-12, 195217179111.76181, 19521717911.176178
DataValue, 0.45, 2.0320000000000002E-12, 221456692913.3858, 22145669291.338577
DataValue, 0.5, 2.1870000000000003E-12, 228623685413.80884, 22862368541.380882
DataValue, 0.55, 2.3450000000000002E-12, 234541577825.15991, 23454157782.515987
DataValue, 0.6, 2.427E-12, 247218788627.9357, 24721878862.793568
DataValue, 0.65, 2.4010000000000004E-12, 270720533111.20364, 27072053311.120361
DataValue, 0.70000000000000007, 2.637E-12, 265453166477.05728, 26545316647.705723
DataValue, 0.75, 2.72E-12, 275735294117.64703, 27573529411.7647
DataValue, 0.8, 2.75E-12, 290909090909.09088, 29090909090.909084
DataValue, 0.85000000000000009, 2.9350000000000003E-12, 289608177172.06134, 28960817717.206131
DataValue, 0.9, 3.0230000000000003E-12, 297717499173.0069, 29771749917.300682
DataValue, 0.95000000000000007, 3.2350000000000003E-12, 293663060278.20709, 29366306027.820705
DataValue, 1, 3.397E-12, 294377391816.30847, 29437739181.63084