
SetupTitle, R-V
ApplicationTest, R-V, Public
TestParameter, Name, Port1, Port2, V1Start, V1Stop, V1Step, V2, I1Limit, IntegTime, HoldTime, DelayTime, Port1MinRng
TestParameter, Value, SMU1:MP	MPSMU, SMU2:MP	MPSMU, 0, 1, 0.05, 0, 0.01, MEDIUM, 0, 0, 1nA
DutParameter, Name, L, W, Temp
DutParameter, Value, 1E-05, 1E-06, 25
MetaData, TestRecord.EntryPoint, true
MetaData, TestRecord.RecordTime, 03/04/2023 18:13:40
MetaData, TestRecord.TestTarget, 
MetaData, TestRecord.IterationIndex, 203
MetaData, TestRecord.Preservation, true
MetaData, TestRecord.Flag, 
MetaData, TestRecord.Remarks, 
MetaData, TestRecord.LinkKey, ec677aa7-d7d0-47e2-a763-500d7d1f345d
Dimension1, 21, 21, 21, 21
Dimension2, 1, 1, 1, 1
DataName, V1, I1, R, Rsheet
DataValue, 0, 6.2E-14, 0, 0
DataValue, 0.05, 2.72E-13, 183823529411.76471, 18382352941.176468
DataValue, 0.1, 4.1800000000000004E-13, 239234449760.76553, 23923444976.076553
DataValue, 0.15, 4.7E-13, 319148936170.21277, 31914893617.021271
DataValue, 0.2, 7.5E-13, 266666666666.66666, 26666666666.66666
DataValue, 0.25, 8.25E-13, 303030303030.30304, 30303030303.0303
DataValue, 0.3, 8.1100000000000008E-13, 369913686806.4118, 36991368680.641174
DataValue, 0.35000000000000003, 9.71E-13, 360453141091.65814, 36045314109.16581
DataValue, 0.4, 1.074E-12, 372439478584.73, 37243947858.472992
DataValue, 0.45, 1.051E-12, 428163653663.17792, 42816365366.317787
DataValue, 0.5, 1.193E-12, 419111483654.6521, 41911148365.4652
DataValue, 0.55, 1.268E-12, 433753943217.66565, 43375394321.766563
DataValue, 0.6, 1.32E-12, 454545454545.45453, 45454545454.545448
DataValue, 0.65, 1.441E-12, 451075641915.33661, 45107564191.533653
DataValue, 0.70000000000000007, 1.523E-12, 459619172685.4892, 45961917268.548912
DataValue, 0.75, 1.502E-12, 499334221038.61517, 49933422103.861511
DataValue, 0.8, 1.529E-12, 523217789404.83978, 52321778940.483971
DataValue, 0.85000000000000009, 1.6090000000000001E-12, 528278433809.81976, 52827843380.981972
DataValue, 0.9, 1.7410000000000002E-12, 516944284893.7392, 51694428489.373909
DataValue, 0.95000000000000007, 1.765E-12, 538243626062.323, 53824362606.232292
DataValue, 1, 1.7460000000000002E-12, 572737686139.74792, 57273768613.974777
SetupTitle, R-V
PrimitiveTest, I/V Sweep
TestParameter, Context.MainFrame, B1500A
TestParameter, Channel.UnitType, SMU, SMU
TestParameter, Channel.Unit, Port1, Port2
TestParameter, Channel.IName, I1, I2
TestParameter, Channel.VName, V1, V2
TestParameter, Channel.Mode, V, V
TestParameter, Channel.Func, VAR1, CONST
TestParameter, Channel.Index, 
TestParameter, Channel.Time, 
TestParameter, Measurement.Port.Unit, Port1, Port2
TestParameter, Measurement.Port.SeriesResistor, NONE, NONE
TestParameter, Measurement.Port.Filter, OFF, OFF
TestParameter, Measurement.Port.OutputVoltageComparison, 0, 0
TestParameter, Measurement.Primary.Locus, Single
TestParameter, Measurement.Primary.Scale, LINEAR
TestParameter, Measurement.Primary.Start, V1Start
TestParameter, Measurement.Primary.Stop, V1Stop
TestParameter, Measurement.Primary.Step, V1Step
TestParameter, Measurement.Primary.Compliance, I1Limit
TestParameter, Measurement.Primary.PowerCompliance, 0
TestParameter, Measurement.Aborting.Condition, CONTINUE AT ANY
TestParameter, Measurement.PostOutput.Value, START
TestParameter, Measurement.PostOutput.Retention, OFF
TestParameter, Measurement.Bias.Source, 0, V2
TestParameter, Measurement.Bias.Compliance, 0.01, I1Limit
TestParameter, Measurement.Monitor.Unit, SMU:=Port1, SMU:=Port2
TestParameter, Measurement.Monitor.Adc, HR ADC, HR ADC
TestParameter, Measurement.Monitor.Measurement, Compliance Side, Compliance Side
TestParameter, Measurement.Monitor.RangingMode, LIMITED, LIMITED
TestParameter, Measurement.Monitor.RangeBoundary, Port1MinRng, 1nA
TestParameter, Measurement.Monitor.RangeRating, BY FULL RANGE, BY FULL RANGE
TestParameter, Measurement.Monitor.RangeRatingCoeff, 50, 50
TestParameter, Measurement.Timing.Hold, HoldTime
TestParameter, Measurement.Timing.Delay, DelayTime
TestParameter, Measurement.Adc.HighSpeed.Mode, AUTO
TestParameter, Measurement.Adc.HighSpeed.Coeff, 1
TestParameter, Measurement.Adc.HighResolution.AutoZero, ON
TestParameter, Measurement.Adc.HighResolution.Mode, IntegMode
TestParameter, Measurement.Adc.HighResolution.Coeff, AdcFactor
TestParameter, Measurement.WaitTime.Source.Coeff, 1
TestParameter, Measurement.WaitTime.Source.Offset, 0
TestParameter, Measurement.WaitTime.Monitor.Coeff, 1
TestParameter, Measurement.WaitTime.Monitor.Offset, 0
TestParameter, Function.User.Name, R, Rsheet
TestParameter, Function.User.Unit, ohm, ohm/sheet
TestParameter, Function.User.Definition, V1/I1, R*W/L
TestParameter, Output.Graph.Enabled, true
TestParameter, Output.Graph.AutoScaling, false
TestParameter, Output.Graph.XAxis.Data, V1
TestParameter, Output.Graph.XAxis.Scale, Linear
TestParameter, Output.Graph.XAxis.Left, V1Start
TestParameter, Output.Graph.XAxis.Right, V1Stop
TestParameter, Output.Graph.XAxis.RunTimeAutoScale, false
TestParameter, Output.Graph.YAxis.Data, R, I1
TestParameter, Output.Graph.YAxis.Scale, Linear, Linear
TestParameter, Output.Graph.YAxis.Bottom, 0, 0
TestParameter, Output.Graph.YAxis.Top, V1Stop/I1Limit, I1Limit
TestParameter, Output.Graph.YAxis.Group, , 
TestParameter, Output.Graph.YAxis.RunTimeAutoScale, false, false
TestParameter, Output.List.Data, V1, I1, R, Rsheet
TestParameter, AutoAnalysis.Interpolation, false
TestParameter, AutoAnalysis.Line1.Enabled, false
TestParameter, AutoAnalysis.Line1.Type, 1
TestParameter, AutoAnalysis.Line1.Fix, False
TestParameter, AutoAnalysis.Line1.YAxis, 0
TestParameter, AutoAnalysis.Line1.Point1.Type, 0
TestParameter, AutoAnalysis.Line1.Point1.XY.X, 
TestParameter, AutoAnalysis.Line1.Point1.XY.Y, 
TestParameter, AutoAnalysis.Line1.Point1.Data.Var, 
TestParameter, AutoAnalysis.Line1.Point1.Data.Condition, 
TestParameter, AutoAnalysis.Line1.Point1.Data.Start, false
TestParameter, AutoAnalysis.Line1.Point1.Data.StartVar, 
TestParameter, AutoAnalysis.Line1.Point1.Data.StartCondition, 
TestParameter, AutoAnalysis.Line1.Point2.Type, 0
TestParameter, AutoAnalysis.Line1.Point2.XY.X, 
TestParameter, AutoAnalysis.Line1.Point2.XY.Y, 
TestParameter, AutoAnalysis.Line1.Point2.Data.Var, 
TestParameter, AutoAnalysis.Line1.Point2.Data.Condition, 
TestParameter, AutoAnalysis.Line1.Point2.Data.Start, false
TestParameter, AutoAnalysis.Line1.Point2.Data.StartVar, 
TestParameter, AutoAnalysis.Line1.Point2.Data.StartCondition, 
TestParameter, AutoAnalysis.Line1.GradientExpr, 0
TestParameter, AutoAnalysis.Line2.Enabled, false
TestParameter, AutoAnalysis.Line2.Type, 1
TestParameter, AutoAnalysis.Line2.Fix, False
TestParameter, AutoAnalysis.Line2.YAxis, 0
TestParameter, AutoAnalysis.Line2.Point1.Type, 0
TestParameter, AutoAnalysis.Line2.Point1.XY.X, 
TestParameter, AutoAnalysis.Line2.Point1.XY.Y, 
TestParameter, AutoAnalysis.Line2.Point1.Data.Var, 
TestParameter, AutoAnalysis.Line2.Point1.Data.Condition, 
TestParameter, AutoAnalysis.Line2.Point1.Data.Start, false
TestParameter, AutoAnalysis.Line2.Point1.Data.StartVar, 
TestParameter, AutoAnalysis.Line2.Point1.Data.StartCondition, 
TestParameter, AutoAnalysis.Line2.Point2.Type, 0
TestParameter, AutoAnalysis.Line2.Point2.XY.X, 
TestParameter, AutoAnalysis.Line2.Point2.XY.Y, 
TestParameter, AutoAnalysis.Line2.Point2.Data.Var, 
TestParameter, AutoAnalysis.Line2.Point2.Data.Condition, 
TestParameter, AutoAnalysis.Line2.Point2.Data.Start, false
TestParameter, AutoAnalysis.Line2.Point2.Data.StartVar, 
TestParameter, AutoAnalysis.Line2.Point2.Data.StartCondition, 
TestParameter, AutoAnalysis.Line2.GradientExpr, 0
TestParameter, AutoAnalysis.Marker.Enabled, false
TestParameter, AutoAnalysis.Marker.Data.Var, 
TestParameter, AutoAnalysis.Marker.Data.Condition, 
TestParameter, AutoAnalysis.Marker.Data.Start, false
TestParameter, AutoAnalysis.Marker.Data.StartVar, 
TestParameter, AutoAnalysis.Marker.Data.StartCondition, 
MetaData, TestRecord.EntryPoint, false
MetaData, TestRecord.RecordTime, 03/04/2023 18:13:40
MetaData, TestRecord.TestTarget, 
MetaData, TestRecord.IterationIndex, 203
MetaData, TestRecord.Preservation, true
MetaData, TestRecord.Flag, 
MetaData, TestRecord.Remarks, 
MetaData, TestRecord.LinkKey, ec677aa7-d7d0-47e2-a763-500d7d1f345d
Dimension1, 21, 21, 21, 21
Dimension2, 1, 1, 1, 1
DataName, V1, I1, R, Rsheet
DataValue, 0, 6.2E-14, 0, 0
DataValue, 0.05, 2.72E-13, 183823529411.76471, 18382352941.176468
DataValue, 0.1, 4.1800000000000004E-13, 239234449760.76553, 23923444976.076553
DataValue, 0.15, 4.7E-13, 319148936170.21277, 31914893617.021271
DataValue, 0.2, 7.5E-13, 266666666666.66666, 26666666666.66666
DataValue, 0.25, 8.25E-13, 303030303030.30304, 30303030303.0303
DataValue, 0.3, 8.1100000000000008E-13, 369913686806.4118, 36991368680.641174
DataValue, 0.35000000000000003, 9.71E-13, 360453141091.65814, 36045314109.16581
DataValue, 0.4, 1.074E-12, 372439478584.73, 37243947858.472992
DataValue, 0.45, 1.051E-12, 428163653663.17792, 42816365366.317787
DataValue, 0.5, 1.193E-12, 419111483654.6521, 41911148365.4652
DataValue, 0.55, 1.268E-12, 433753943217.66565, 43375394321.766563
DataValue, 0.6, 1.32E-12, 454545454545.45453, 45454545454.545448
DataValue, 0.65, 1.441E-12, 451075641915.33661, 45107564191.533653
DataValue, 0.70000000000000007, 1.523E-12, 459619172685.4892, 45961917268.548912
DataValue, 0.75, 1.502E-12, 499334221038.61517, 49933422103.861511
DataValue, 0.8, 1.529E-12, 523217789404.83978, 52321778940.483971
DataValue, 0.85000000000000009, 1.6090000000000001E-12, 528278433809.81976, 52827843380.981972
DataValue, 0.9, 1.7410000000000002E-12, 516944284893.7392, 51694428489.373909
DataValue, 0.95000000000000007, 1.765E-12, 538243626062.323, 53824362606.232292
DataValue, 1, 1.7460000000000002E-12, 572737686139.74792, 57273768613.974777