
SetupTitle, R-V
ApplicationTest, R-V, Public
TestParameter, Name, Port1, Port2, V1Start, V1Stop, V1Step, V2, I1Limit, IntegTime, HoldTime, DelayTime, Port1MinRng
TestParameter, Value, SMU1:MP	MPSMU, SMU2:MP	MPSMU, 0, 1, 0.05, 0, 0.01, MEDIUM, 0, 0, 1nA
DutParameter, Name, L, W, Temp
DutParameter, Value, 1E-05, 1E-06, 25
MetaData, TestRecord.EntryPoint, true
MetaData, TestRecord.RecordTime, 03/04/2023 14:26:32
MetaData, TestRecord.TestTarget, 
MetaData, TestRecord.IterationIndex, 13
MetaData, TestRecord.Preservation, true
MetaData, TestRecord.Flag, 
MetaData, TestRecord.Remarks, 
MetaData, TestRecord.LinkKey, c0e7c460-e78a-4a47-8ee5-b27d6130d050
Dimension1, 21, 21, 21, 21
Dimension2, 1, 1, 1, 1
DataName, V1, I1, R, Rsheet
DataValue, 0, -3.9000000000000004E-14, -0, -0
DataValue, 0.05, 2.8600000000000004E-13, 174825174825.17481, 17482517482.517479
DataValue, 0.1, 1.9000000000000002E-13, 526315789473.6842, 52631578947.368408
DataValue, 0.15, 1.81E-13, 828729281767.95569, 82872928176.795563
DataValue, 0.2, 4.66E-13, 429184549356.22314, 42918454935.622314
DataValue, 0.25, 3.14E-13, 796178343949.04456, 79617834394.904434
DataValue, 0.3, 2.32E-13, 1293103448275.8618, 129310344827.58617
DataValue, 0.35000000000000003, 3.87E-13, 904392764857.88123, 90439276485.788116
DataValue, 0.4, 3.54E-13, 1129943502824.8589, 112994350282.48587
DataValue, 0.45, 9.0000000000000008E-14, 5000000000000, 499999999999.99994
DataValue, 0.5, 3.66E-13, 1366120218579.2349, 136612021857.92346
DataValue, 0.55, 4.2700000000000005E-13, 1288056206088.9929, 128805620608.89926
DataValue, 0.6, 2.37E-13, 2531645569620.2529, 253164556962.02524
DataValue, 0.65, 3.4500000000000004E-13, 1884057971014.4927, 188405797101.44925
DataValue, 0.70000000000000007, 4.97E-13, 1408450704225.3523, 140845070422.53522
DataValue, 0.75, 3.5900000000000004E-13, 2089136490250.6963, 208913649025.06961
DataValue, 0.8, 3.6000000000000003E-13, 2222222222222.2222, 222222222222.2222
DataValue, 0.85000000000000009, 3.4600000000000004E-13, 2456647398843.9307, 245664739884.39304
DataValue, 0.9, 4.9E-13, 1836734693877.551, 183673469387.7551
DataValue, 0.95000000000000007, 3.4E-13, 2794117647058.8237, 279411764705.88232
DataValue, 1, 4.3800000000000005E-13, 2283105022831.05, 228310502283.10495
SetupTitle, R-V
PrimitiveTest, I/V Sweep
TestParameter, Context.MainFrame, B1500A
TestParameter, Channel.UnitType, SMU, SMU
TestParameter, Channel.Unit, Port1, Port2
TestParameter, Channel.IName, I1, I2
TestParameter, Channel.VName, V1, V2
TestParameter, Channel.Mode, V, V
TestParameter, Channel.Func, VAR1, CONST
TestParameter, Channel.Index, 
TestParameter, Channel.Time, 
TestParameter, Measurement.Port.Unit, Port1, Port2
TestParameter, Measurement.Port.SeriesResistor, NONE, NONE
TestParameter, Measurement.Port.Filter, OFF, OFF
TestParameter, Measurement.Port.OutputVoltageComparison, 0, 0
TestParameter, Measurement.Primary.Locus, Single
TestParameter, Measurement.Primary.Scale, LINEAR
TestParameter, Measurement.Primary.Start, V1Start
TestParameter, Measurement.Primary.Stop, V1Stop
TestParameter, Measurement.Primary.Step, V1Step
TestParameter, Measurement.Primary.Compliance, I1Limit
TestParameter, Measurement.Primary.PowerCompliance, 0
TestParameter, Measurement.Aborting.Condition, CONTINUE AT ANY
TestParameter, Measurement.PostOutput.Value, START
TestParameter, Measurement.PostOutput.Retention, OFF
TestParameter, Measurement.Bias.Source, 0, V2
TestParameter, Measurement.Bias.Compliance, 0.01, I1Limit
TestParameter, Measurement.Monitor.Unit, SMU:=Port1, SMU:=Port2
TestParameter, Measurement.Monitor.Adc, HR ADC, HR ADC
TestParameter, Measurement.Monitor.Measurement, Compliance Side, Compliance Side
TestParameter, Measurement.Monitor.RangingMode, LIMITED, LIMITED
TestParameter, Measurement.Monitor.RangeBoundary, Port1MinRng, 1nA
TestParameter, Measurement.Monitor.RangeRating, BY FULL RANGE, BY FULL RANGE
TestParameter, Measurement.Monitor.RangeRatingCoeff, 50, 50
TestParameter, Measurement.Timing.Hold, HoldTime
TestParameter, Measurement.Timing.Delay, DelayTime
TestParameter, Measurement.Adc.HighSpeed.Mode, AUTO
TestParameter, Measurement.Adc.HighSpeed.Coeff, 1
TestParameter, Measurement.Adc.HighResolution.AutoZero, ON
TestParameter, Measurement.Adc.HighResolution.Mode, IntegMode
TestParameter, Measurement.Adc.HighResolution.Coeff, AdcFactor
TestParameter, Measurement.WaitTime.Source.Coeff, 1
TestParameter, Measurement.WaitTime.Source.Offset, 0
TestParameter, Measurement.WaitTime.Monitor.Coeff, 1
TestParameter, Measurement.WaitTime.Monitor.Offset, 0
TestParameter, Function.User.Name, R, Rsheet
TestParameter, Function.User.Unit, ohm, ohm/sheet
TestParameter, Function.User.Definition, V1/I1, R*W/L
TestParameter, Output.Graph.Enabled, true
TestParameter, Output.Graph.AutoScaling, false
TestParameter, Output.Graph.XAxis.Data, V1
TestParameter, Output.Graph.XAxis.Scale, Linear
TestParameter, Output.Graph.XAxis.Left, V1Start
TestParameter, Output.Graph.XAxis.Right, V1Stop
TestParameter, Output.Graph.XAxis.RunTimeAutoScale, false
TestParameter, Output.Graph.YAxis.Data, R, I1
TestParameter, Output.Graph.YAxis.Scale, Linear, Linear
TestParameter, Output.Graph.YAxis.Bottom, 0, 0
TestParameter, Output.Graph.YAxis.Top, V1Stop/I1Limit, I1Limit
TestParameter, Output.Graph.YAxis.Group, , 
TestParameter, Output.Graph.YAxis.RunTimeAutoScale, false, false
TestParameter, Output.List.Data, V1, I1, R, Rsheet
TestParameter, AutoAnalysis.Interpolation, false
TestParameter, AutoAnalysis.Line1.Enabled, false
TestParameter, AutoAnalysis.Line1.Type, 1
TestParameter, AutoAnalysis.Line1.Fix, False
TestParameter, AutoAnalysis.Line1.YAxis, 0
TestParameter, AutoAnalysis.Line1.Point1.Type, 0
TestParameter, AutoAnalysis.Line1.Point1.XY.X, 
TestParameter, AutoAnalysis.Line1.Point1.XY.Y, 
TestParameter, AutoAnalysis.Line1.Point1.Data.Var, 
TestParameter, AutoAnalysis.Line1.Point1.Data.Condition, 
TestParameter, AutoAnalysis.Line1.Point1.Data.Start, false
TestParameter, AutoAnalysis.Line1.Point1.Data.StartVar, 
TestParameter, AutoAnalysis.Line1.Point1.Data.StartCondition, 
TestParameter, AutoAnalysis.Line1.Point2.Type, 0
TestParameter, AutoAnalysis.Line1.Point2.XY.X, 
TestParameter, AutoAnalysis.Line1.Point2.XY.Y, 
TestParameter, AutoAnalysis.Line1.Point2.Data.Var, 
TestParameter, AutoAnalysis.Line1.Point2.Data.Condition, 
TestParameter, AutoAnalysis.Line1.Point2.Data.Start, false
TestParameter, AutoAnalysis.Line1.Point2.Data.StartVar, 
TestParameter, AutoAnalysis.Line1.Point2.Data.StartCondition, 
TestParameter, AutoAnalysis.Line1.GradientExpr, 0
TestParameter, AutoAnalysis.Line2.Enabled, false
TestParameter, AutoAnalysis.Line2.Type, 1
TestParameter, AutoAnalysis.Line2.Fix, False
TestParameter, AutoAnalysis.Line2.YAxis, 0
TestParameter, AutoAnalysis.Line2.Point1.Type, 0
TestParameter, AutoAnalysis.Line2.Point1.XY.X, 
TestParameter, AutoAnalysis.Line2.Point1.XY.Y, 
TestParameter, AutoAnalysis.Line2.Point1.Data.Var, 
TestParameter, AutoAnalysis.Line2.Point1.Data.Condition, 
TestParameter, AutoAnalysis.Line2.Point1.Data.Start, false
TestParameter, AutoAnalysis.Line2.Point1.Data.StartVar, 
TestParameter, AutoAnalysis.Line2.Point1.Data.StartCondition, 
TestParameter, AutoAnalysis.Line2.Point2.Type, 0
TestParameter, AutoAnalysis.Line2.Point2.XY.X, 
TestParameter, AutoAnalysis.Line2.Point2.XY.Y, 
TestParameter, AutoAnalysis.Line2.Point2.Data.Var, 
TestParameter, AutoAnalysis.Line2.Point2.Data.Condition, 
TestParameter, AutoAnalysis.Line2.Point2.Data.Start, false
TestParameter, AutoAnalysis.Line2.Point2.Data.StartVar, 
TestParameter, AutoAnalysis.Line2.Point2.Data.StartCondition, 
TestParameter, AutoAnalysis.Line2.GradientExpr, 0
TestParameter, AutoAnalysis.Marker.Enabled, false
TestParameter, AutoAnalysis.Marker.Data.Var, 
TestParameter, AutoAnalysis.Marker.Data.Condition, 
TestParameter, AutoAnalysis.Marker.Data.Start, false
TestParameter, AutoAnalysis.Marker.Data.StartVar, 
TestParameter, AutoAnalysis.Marker.Data.StartCondition, 
MetaData, TestRecord.EntryPoint, false
MetaData, TestRecord.RecordTime, 03/04/2023 14:26:32
MetaData, TestRecord.TestTarget, 
MetaData, TestRecord.IterationIndex, 13
MetaData, TestRecord.Preservation, true
MetaData, TestRecord.Flag, 
MetaData, TestRecord.Remarks, 
MetaData, TestRecord.LinkKey, c0e7c460-e78a-4a47-8ee5-b27d6130d050
Dimension1, 21, 21, 21, 21
Dimension2, 1, 1, 1, 1
DataName, V1, I1, R, Rsheet
DataValue, 0, -3.9000000000000004E-14, -0, -0
DataValue, 0.05, 2.8600000000000004E-13, 174825174825.17481, 17482517482.517479
DataValue, 0.1, 1.9000000000000002E-13, 526315789473.6842, 52631578947.368408
DataValue, 0.15, 1.81E-13, 828729281767.95569, 82872928176.795563
DataValue, 0.2, 4.66E-13, 429184549356.22314, 42918454935.622314
DataValue, 0.25, 3.14E-13, 796178343949.04456, 79617834394.904434
DataValue, 0.3, 2.32E-13, 1293103448275.8618, 129310344827.58617
DataValue, 0.35000000000000003, 3.87E-13, 904392764857.88123, 90439276485.788116
DataValue, 0.4, 3.54E-13, 1129943502824.8589, 112994350282.48587
DataValue, 0.45, 9.0000000000000008E-14, 5000000000000, 499999999999.99994
DataValue, 0.5, 3.66E-13, 1366120218579.2349, 136612021857.92346
DataValue, 0.55, 4.2700000000000005E-13, 1288056206088.9929, 128805620608.89926
DataValue, 0.6, 2.37E-13, 2531645569620.2529, 253164556962.02524
DataValue, 0.65, 3.4500000000000004E-13, 1884057971014.4927, 188405797101.44925
DataValue, 0.70000000000000007, 4.97E-13, 1408450704225.3523, 140845070422.53522
DataValue, 0.75, 3.5900000000000004E-13, 2089136490250.6963, 208913649025.06961
DataValue, 0.8, 3.6000000000000003E-13, 2222222222222.2222, 222222222222.2222
DataValue, 0.85000000000000009, 3.4600000000000004E-13, 2456647398843.9307, 245664739884.39304
DataValue, 0.9, 4.9E-13, 1836734693877.551, 183673469387.7551
DataValue, 0.95000000000000007, 3.4E-13, 2794117647058.8237, 279411764705.88232
DataValue, 1, 4.3800000000000005E-13, 2283105022831.05, 228310502283.10495