
SetupTitle, R-V
ApplicationTest, R-V, Public
TestParameter, Name, Port1, Port2, V1Start, V1Stop, V1Step, V2, I1Limit, IntegTime, HoldTime, DelayTime, Port1MinRng
TestParameter, Value, SMU1:MP	MPSMU, SMU2:MP	MPSMU, 0, 1, 0.05, 0, 0.01, MEDIUM, 0, 0, 1nA
DutParameter, Name, L, W, Temp
DutParameter, Value, 1E-05, 1E-06, 25
MetaData, TestRecord.EntryPoint, true
MetaData, TestRecord.RecordTime, 03/04/2023 15:01:59
MetaData, TestRecord.TestTarget, 
MetaData, TestRecord.IterationIndex, 51
MetaData, TestRecord.Preservation, true
MetaData, TestRecord.Flag, 
MetaData, TestRecord.Remarks, 
MetaData, TestRecord.LinkKey, 1fdefa42-39fc-4805-8f5a-a523d0e9b830
Dimension1, 21, 21, 21, 21
Dimension2, 1, 1, 1, 1
DataName, V1, I1, R, Rsheet
DataValue, 0, -3.1E-14, -0, -0
DataValue, 0.05, 9.9000000000000007E-14, 505050505050.50507, 50505050505.0505
DataValue, 0.1, 2.06E-13, 485436893203.88348, 48543689320.388344
DataValue, 0.15, 2.0300000000000002E-13, 738916256157.63538, 73891625615.763535
DataValue, 0.2, 2.2100000000000002E-13, 904977375565.61084, 90497737556.561081
DataValue, 0.25, 2.32E-13, 1077586206896.5516, 107758620689.65515
DataValue, 0.3, 2.8E-13, 1071428571428.5713, 107142857142.8571
DataValue, 0.35000000000000003, 3.0900000000000005E-13, 1132686084142.3948, 113268608414.23947
DataValue, 0.4, 3.5900000000000004E-13, 1114206128133.7046, 111420612813.37045
DataValue, 0.45, 3.26E-13, 1380368098159.509, 138036809815.9509
DataValue, 0.5, 3.2200000000000004E-13, 1552795031055.9004, 155279503105.59003
DataValue, 0.55, 3.41E-13, 1612903225806.4517, 161290322580.64514
DataValue, 0.6, 2.8700000000000004E-13, 2090592334494.7732, 209059233449.4773
DataValue, 0.65, 4.0800000000000003E-13, 1593137254901.9607, 159313725490.19605
DataValue, 0.70000000000000007, 4.2800000000000004E-13, 1635514018691.5889, 163551401869.15888
DataValue, 0.75, 3.63E-13, 2066115702479.3386, 206611570247.93384
DataValue, 0.8, 4.92E-13, 1626016260162.6016, 162601626016.26013
DataValue, 0.85000000000000009, 4.34E-13, 1958525345622.1199, 195852534562.21195
DataValue, 0.9, 4.4400000000000003E-13, 2027027027027.0269, 202702702702.70267
DataValue, 0.95000000000000007, 3.75E-13, 2533333333333.3335, 253333333333.33331
DataValue, 1, 3.62E-13, 2762430939226.519, 276243093922.65186
SetupTitle, R-V
PrimitiveTest, I/V Sweep
TestParameter, Context.MainFrame, B1500A
TestParameter, Channel.UnitType, SMU, SMU
TestParameter, Channel.Unit, Port1, Port2
TestParameter, Channel.IName, I1, I2
TestParameter, Channel.VName, V1, V2
TestParameter, Channel.Mode, V, V
TestParameter, Channel.Func, VAR1, CONST
TestParameter, Channel.Index, 
TestParameter, Channel.Time, 
TestParameter, Measurement.Port.Unit, Port1, Port2
TestParameter, Measurement.Port.SeriesResistor, NONE, NONE
TestParameter, Measurement.Port.Filter, OFF, OFF
TestParameter, Measurement.Port.OutputVoltageComparison, 0, 0
TestParameter, Measurement.Primary.Locus, Single
TestParameter, Measurement.Primary.Scale, LINEAR
TestParameter, Measurement.Primary.Start, V1Start
TestParameter, Measurement.Primary.Stop, V1Stop
TestParameter, Measurement.Primary.Step, V1Step
TestParameter, Measurement.Primary.Compliance, I1Limit
TestParameter, Measurement.Primary.PowerCompliance, 0
TestParameter, Measurement.Aborting.Condition, CONTINUE AT ANY
TestParameter, Measurement.PostOutput.Value, START
TestParameter, Measurement.PostOutput.Retention, OFF
TestParameter, Measurement.Bias.Source, 0, V2
TestParameter, Measurement.Bias.Compliance, 0.01, I1Limit
TestParameter, Measurement.Monitor.Unit, SMU:=Port1, SMU:=Port2
TestParameter, Measurement.Monitor.Adc, HR ADC, HR ADC
TestParameter, Measurement.Monitor.Measurement, Compliance Side, Compliance Side
TestParameter, Measurement.Monitor.RangingMode, LIMITED, LIMITED
TestParameter, Measurement.Monitor.RangeBoundary, Port1MinRng, 1nA
TestParameter, Measurement.Monitor.RangeRating, BY FULL RANGE, BY FULL RANGE
TestParameter, Measurement.Monitor.RangeRatingCoeff, 50, 50
TestParameter, Measurement.Timing.Hold, HoldTime
TestParameter, Measurement.Timing.Delay, DelayTime
TestParameter, Measurement.Adc.HighSpeed.Mode, AUTO
TestParameter, Measurement.Adc.HighSpeed.Coeff, 1
TestParameter, Measurement.Adc.HighResolution.AutoZero, ON
TestParameter, Measurement.Adc.HighResolution.Mode, IntegMode
TestParameter, Measurement.Adc.HighResolution.Coeff, AdcFactor
TestParameter, Measurement.WaitTime.Source.Coeff, 1
TestParameter, Measurement.WaitTime.Source.Offset, 0
TestParameter, Measurement.WaitTime.Monitor.Coeff, 1
TestParameter, Measurement.WaitTime.Monitor.Offset, 0
TestParameter, Function.User.Name, R, Rsheet
TestParameter, Function.User.Unit, ohm, ohm/sheet
TestParameter, Function.User.Definition, V1/I1, R*W/L
TestParameter, Output.Graph.Enabled, true
TestParameter, Output.Graph.AutoScaling, false
TestParameter, Output.Graph.XAxis.Data, V1
TestParameter, Output.Graph.XAxis.Scale, Linear
TestParameter, Output.Graph.XAxis.Left, V1Start
TestParameter, Output.Graph.XAxis.Right, V1Stop
TestParameter, Output.Graph.XAxis.RunTimeAutoScale, false
TestParameter, Output.Graph.YAxis.Data, R, I1
TestParameter, Output.Graph.YAxis.Scale, Linear, Linear
TestParameter, Output.Graph.YAxis.Bottom, 0, 0
TestParameter, Output.Graph.YAxis.Top, V1Stop/I1Limit, I1Limit
TestParameter, Output.Graph.YAxis.Group, , 
TestParameter, Output.Graph.YAxis.RunTimeAutoScale, false, false
TestParameter, Output.List.Data, V1, I1, R, Rsheet
TestParameter, AutoAnalysis.Interpolation, false
TestParameter, AutoAnalysis.Line1.Enabled, false
TestParameter, AutoAnalysis.Line1.Type, 1
TestParameter, AutoAnalysis.Line1.Fix, False
TestParameter, AutoAnalysis.Line1.YAxis, 0
TestParameter, AutoAnalysis.Line1.Point1.Type, 0
TestParameter, AutoAnalysis.Line1.Point1.XY.X, 
TestParameter, AutoAnalysis.Line1.Point1.XY.Y, 
TestParameter, AutoAnalysis.Line1.Point1.Data.Var, 
TestParameter, AutoAnalysis.Line1.Point1.Data.Condition, 
TestParameter, AutoAnalysis.Line1.Point1.Data.Start, false
TestParameter, AutoAnalysis.Line1.Point1.Data.StartVar, 
TestParameter, AutoAnalysis.Line1.Point1.Data.StartCondition, 
TestParameter, AutoAnalysis.Line1.Point2.Type, 0
TestParameter, AutoAnalysis.Line1.Point2.XY.X, 
TestParameter, AutoAnalysis.Line1.Point2.XY.Y, 
TestParameter, AutoAnalysis.Line1.Point2.Data.Var, 
TestParameter, AutoAnalysis.Line1.Point2.Data.Condition, 
TestParameter, AutoAnalysis.Line1.Point2.Data.Start, false
TestParameter, AutoAnalysis.Line1.Point2.Data.StartVar, 
TestParameter, AutoAnalysis.Line1.Point2.Data.StartCondition, 
TestParameter, AutoAnalysis.Line1.GradientExpr, 0
TestParameter, AutoAnalysis.Line2.Enabled, false
TestParameter, AutoAnalysis.Line2.Type, 1
TestParameter, AutoAnalysis.Line2.Fix, False
TestParameter, AutoAnalysis.Line2.YAxis, 0
TestParameter, AutoAnalysis.Line2.Point1.Type, 0
TestParameter, AutoAnalysis.Line2.Point1.XY.X, 
TestParameter, AutoAnalysis.Line2.Point1.XY.Y, 
TestParameter, AutoAnalysis.Line2.Point1.Data.Var, 
TestParameter, AutoAnalysis.Line2.Point1.Data.Condition, 
TestParameter, AutoAnalysis.Line2.Point1.Data.Start, false
TestParameter, AutoAnalysis.Line2.Point1.Data.StartVar, 
TestParameter, AutoAnalysis.Line2.Point1.Data.StartCondition, 
TestParameter, AutoAnalysis.Line2.Point2.Type, 0
TestParameter, AutoAnalysis.Line2.Point2.XY.X, 
TestParameter, AutoAnalysis.Line2.Point2.XY.Y, 
TestParameter, AutoAnalysis.Line2.Point2.Data.Var, 
TestParameter, AutoAnalysis.Line2.Point2.Data.Condition, 
TestParameter, AutoAnalysis.Line2.Point2.Data.Start, false
TestParameter, AutoAnalysis.Line2.Point2.Data.StartVar, 
TestParameter, AutoAnalysis.Line2.Point2.Data.StartCondition, 
TestParameter, AutoAnalysis.Line2.GradientExpr, 0
TestParameter, AutoAnalysis.Marker.Enabled, false
TestParameter, AutoAnalysis.Marker.Data.Var, 
TestParameter, AutoAnalysis.Marker.Data.Condition, 
TestParameter, AutoAnalysis.Marker.Data.Start, false
TestParameter, AutoAnalysis.Marker.Data.StartVar, 
TestParameter, AutoAnalysis.Marker.Data.StartCondition, 
MetaData, TestRecord.EntryPoint, false
MetaData, TestRecord.RecordTime, 03/04/2023 15:01:59
MetaData, TestRecord.TestTarget, 
MetaData, TestRecord.IterationIndex, 51
MetaData, TestRecord.Preservation, true
MetaData, TestRecord.Flag, 
MetaData, TestRecord.Remarks, 
MetaData, TestRecord.LinkKey, 1fdefa42-39fc-4805-8f5a-a523d0e9b830
Dimension1, 21, 21, 21, 21
Dimension2, 1, 1, 1, 1
DataName, V1, I1, R, Rsheet
DataValue, 0, -3.1E-14, -0, -0
DataValue, 0.05, 9.9000000000000007E-14, 505050505050.50507, 50505050505.0505
DataValue, 0.1, 2.06E-13, 485436893203.88348, 48543689320.388344
DataValue, 0.15, 2.0300000000000002E-13, 738916256157.63538, 73891625615.763535
DataValue, 0.2, 2.2100000000000002E-13, 904977375565.61084, 90497737556.561081
DataValue, 0.25, 2.32E-13, 1077586206896.5516, 107758620689.65515
DataValue, 0.3, 2.8E-13, 1071428571428.5713, 107142857142.8571
DataValue, 0.35000000000000003, 3.0900000000000005E-13, 1132686084142.3948, 113268608414.23947
DataValue, 0.4, 3.5900000000000004E-13, 1114206128133.7046, 111420612813.37045
DataValue, 0.45, 3.26E-13, 1380368098159.509, 138036809815.9509
DataValue, 0.5, 3.2200000000000004E-13, 1552795031055.9004, 155279503105.59003
DataValue, 0.55, 3.41E-13, 1612903225806.4517, 161290322580.64514
DataValue, 0.6, 2.8700000000000004E-13, 2090592334494.7732, 209059233449.4773
DataValue, 0.65, 4.0800000000000003E-13, 1593137254901.9607, 159313725490.19605
DataValue, 0.70000000000000007, 4.2800000000000004E-13, 1635514018691.5889, 163551401869.15888
DataValue, 0.75, 3.63E-13, 2066115702479.3386, 206611570247.93384
DataValue, 0.8, 4.92E-13, 1626016260162.6016, 162601626016.26013
DataValue, 0.85000000000000009, 4.34E-13, 1958525345622.1199, 195852534562.21195
DataValue, 0.9, 4.4400000000000003E-13, 2027027027027.0269, 202702702702.70267
DataValue, 0.95000000000000007, 3.75E-13, 2533333333333.3335, 253333333333.33331
DataValue, 1, 3.62E-13, 2762430939226.519, 276243093922.65186