
SetupTitle, R-V
ApplicationTest, R-V, Public
TestParameter, Name, Port1, Port2, V1Start, V1Stop, V1Step, V2, I1Limit, IntegTime, HoldTime, DelayTime, Port1MinRng
TestParameter, Value, SMU1:MP	MPSMU, SMU2:MP	MPSMU, 0, 1, 0.05, 0, 0.01, MEDIUM, 0, 0, 1nA
DutParameter, Name, L, W, Temp
DutParameter, Value, 1E-05, 1E-06, 25
MetaData, TestRecord.EntryPoint, true
MetaData, TestRecord.RecordTime, 03/04/2023 17:45:55
MetaData, TestRecord.TestTarget, 
MetaData, TestRecord.IterationIndex, 160
MetaData, TestRecord.Preservation, true
MetaData, TestRecord.Flag, 
MetaData, TestRecord.Remarks, 
MetaData, TestRecord.LinkKey, 2d26a9d7-01a0-4708-b58b-d884d6052c88
Dimension1, 21, 21, 21, 21
Dimension2, 1, 1, 1, 1
DataName, V1, I1, R, Rsheet
DataValue, 0, 4.5000000000000004E-14, 0, 0
DataValue, 0.05, 4.69E-13, 106609808102.34541, 10660980810.234541
DataValue, 0.1, 8.3100000000000009E-13, 120336943441.63658, 12033694344.163656
DataValue, 0.15, 9.5E-13, 157894736842.10526, 15789473684.210524
DataValue, 0.2, 1.111E-12, 180018001800.18002, 18001800180.017998
DataValue, 0.25, 1.2130000000000002E-12, 206100577081.61578, 20610057708.161575
DataValue, 0.3, 1.27E-12, 236220472440.94486, 23622047244.094482
DataValue, 0.35000000000000003, 1.4030000000000002E-12, 249465431218.8168, 24946543121.881676
DataValue, 0.4, 1.448E-12, 276243093922.65192, 27624309392.265186
DataValue, 0.45, 1.498E-12, 300400534045.39386, 30040053404.539383
DataValue, 0.5, 1.6540000000000002E-12, 302297460701.33008, 30229746070.133003
DataValue, 0.55, 1.7140000000000002E-12, 320886814469.07819, 32088681446.907814
DataValue, 0.6, 1.6540000000000002E-12, 362756952841.59607, 36275695284.1596
DataValue, 0.65, 1.8280000000000003E-12, 355579868708.9715, 35557986870.897148
DataValue, 0.70000000000000007, 1.8740000000000003E-12, 373532550693.70331, 37353255069.370323
DataValue, 0.75, 1.888E-12, 397245762711.86438, 39724576271.186432
DataValue, 0.8, 2.043E-12, 391581008321.09644, 39158100832.109642
DataValue, 0.85000000000000009, 2.114E-12, 402081362346.26306, 40208136234.6263
DataValue, 0.9, 2.223E-12, 404858299595.14166, 40485829959.51416
DataValue, 0.95000000000000007, 2.377E-12, 399663441312.57892, 39966344131.257889
DataValue, 1, 2.4470000000000004E-12, 408663669799.75476, 40866366979.975471
SetupTitle, R-V
PrimitiveTest, I/V Sweep
TestParameter, Context.MainFrame, B1500A
TestParameter, Channel.UnitType, SMU, SMU
TestParameter, Channel.Unit, Port1, Port2
TestParameter, Channel.IName, I1, I2
TestParameter, Channel.VName, V1, V2
TestParameter, Channel.Mode, V, V
TestParameter, Channel.Func, VAR1, CONST
TestParameter, Channel.Index, 
TestParameter, Channel.Time, 
TestParameter, Measurement.Port.Unit, Port1, Port2
TestParameter, Measurement.Port.SeriesResistor, NONE, NONE
TestParameter, Measurement.Port.Filter, OFF, OFF
TestParameter, Measurement.Port.OutputVoltageComparison, 0, 0
TestParameter, Measurement.Primary.Locus, Single
TestParameter, Measurement.Primary.Scale, LINEAR
TestParameter, Measurement.Primary.Start, V1Start
TestParameter, Measurement.Primary.Stop, V1Stop
TestParameter, Measurement.Primary.Step, V1Step
TestParameter, Measurement.Primary.Compliance, I1Limit
TestParameter, Measurement.Primary.PowerCompliance, 0
TestParameter, Measurement.Aborting.Condition, CONTINUE AT ANY
TestParameter, Measurement.PostOutput.Value, START
TestParameter, Measurement.PostOutput.Retention, OFF
TestParameter, Measurement.Bias.Source, 0, V2
TestParameter, Measurement.Bias.Compliance, 0.01, I1Limit
TestParameter, Measurement.Monitor.Unit, SMU:=Port1, SMU:=Port2
TestParameter, Measurement.Monitor.Adc, HR ADC, HR ADC
TestParameter, Measurement.Monitor.Measurement, Compliance Side, Compliance Side
TestParameter, Measurement.Monitor.RangingMode, LIMITED, LIMITED
TestParameter, Measurement.Monitor.RangeBoundary, Port1MinRng, 1nA
TestParameter, Measurement.Monitor.RangeRating, BY FULL RANGE, BY FULL RANGE
TestParameter, Measurement.Monitor.RangeRatingCoeff, 50, 50
TestParameter, Measurement.Timing.Hold, HoldTime
TestParameter, Measurement.Timing.Delay, DelayTime
TestParameter, Measurement.Adc.HighSpeed.Mode, AUTO
TestParameter, Measurement.Adc.HighSpeed.Coeff, 1
TestParameter, Measurement.Adc.HighResolution.AutoZero, ON
TestParameter, Measurement.Adc.HighResolution.Mode, IntegMode
TestParameter, Measurement.Adc.HighResolution.Coeff, AdcFactor
TestParameter, Measurement.WaitTime.Source.Coeff, 1
TestParameter, Measurement.WaitTime.Source.Offset, 0
TestParameter, Measurement.WaitTime.Monitor.Coeff, 1
TestParameter, Measurement.WaitTime.Monitor.Offset, 0
TestParameter, Function.User.Name, R, Rsheet
TestParameter, Function.User.Unit, ohm, ohm/sheet
TestParameter, Function.User.Definition, V1/I1, R*W/L
TestParameter, Output.Graph.Enabled, true
TestParameter, Output.Graph.AutoScaling, false
TestParameter, Output.Graph.XAxis.Data, V1
TestParameter, Output.Graph.XAxis.Scale, Linear
TestParameter, Output.Graph.XAxis.Left, V1Start
TestParameter, Output.Graph.XAxis.Right, V1Stop
TestParameter, Output.Graph.XAxis.RunTimeAutoScale, false
TestParameter, Output.Graph.YAxis.Data, R, I1
TestParameter, Output.Graph.YAxis.Scale, Linear, Linear
TestParameter, Output.Graph.YAxis.Bottom, 0, 0
TestParameter, Output.Graph.YAxis.Top, V1Stop/I1Limit, I1Limit
TestParameter, Output.Graph.YAxis.Group, , 
TestParameter, Output.Graph.YAxis.RunTimeAutoScale, false, false
TestParameter, Output.List.Data, V1, I1, R, Rsheet
TestParameter, AutoAnalysis.Interpolation, false
TestParameter, AutoAnalysis.Line1.Enabled, false
TestParameter, AutoAnalysis.Line1.Type, 1
TestParameter, AutoAnalysis.Line1.Fix, False
TestParameter, AutoAnalysis.Line1.YAxis, 0
TestParameter, AutoAnalysis.Line1.Point1.Type, 0
TestParameter, AutoAnalysis.Line1.Point1.XY.X, 
TestParameter, AutoAnalysis.Line1.Point1.XY.Y, 
TestParameter, AutoAnalysis.Line1.Point1.Data.Var, 
TestParameter, AutoAnalysis.Line1.Point1.Data.Condition, 
TestParameter, AutoAnalysis.Line1.Point1.Data.Start, false
TestParameter, AutoAnalysis.Line1.Point1.Data.StartVar, 
TestParameter, AutoAnalysis.Line1.Point1.Data.StartCondition, 
TestParameter, AutoAnalysis.Line1.Point2.Type, 0
TestParameter, AutoAnalysis.Line1.Point2.XY.X, 
TestParameter, AutoAnalysis.Line1.Point2.XY.Y, 
TestParameter, AutoAnalysis.Line1.Point2.Data.Var, 
TestParameter, AutoAnalysis.Line1.Point2.Data.Condition, 
TestParameter, AutoAnalysis.Line1.Point2.Data.Start, false
TestParameter, AutoAnalysis.Line1.Point2.Data.StartVar, 
TestParameter, AutoAnalysis.Line1.Point2.Data.StartCondition, 
TestParameter, AutoAnalysis.Line1.GradientExpr, 0
TestParameter, AutoAnalysis.Line2.Enabled, false
TestParameter, AutoAnalysis.Line2.Type, 1
TestParameter, AutoAnalysis.Line2.Fix, False
TestParameter, AutoAnalysis.Line2.YAxis, 0
TestParameter, AutoAnalysis.Line2.Point1.Type, 0
TestParameter, AutoAnalysis.Line2.Point1.XY.X, 
TestParameter, AutoAnalysis.Line2.Point1.XY.Y, 
TestParameter, AutoAnalysis.Line2.Point1.Data.Var, 
TestParameter, AutoAnalysis.Line2.Point1.Data.Condition, 
TestParameter, AutoAnalysis.Line2.Point1.Data.Start, false
TestParameter, AutoAnalysis.Line2.Point1.Data.StartVar, 
TestParameter, AutoAnalysis.Line2.Point1.Data.StartCondition, 
TestParameter, AutoAnalysis.Line2.Point2.Type, 0
TestParameter, AutoAnalysis.Line2.Point2.XY.X, 
TestParameter, AutoAnalysis.Line2.Point2.XY.Y, 
TestParameter, AutoAnalysis.Line2.Point2.Data.Var, 
TestParameter, AutoAnalysis.Line2.Point2.Data.Condition, 
TestParameter, AutoAnalysis.Line2.Point2.Data.Start, false
TestParameter, AutoAnalysis.Line2.Point2.Data.StartVar, 
TestParameter, AutoAnalysis.Line2.Point2.Data.StartCondition, 
TestParameter, AutoAnalysis.Line2.GradientExpr, 0
TestParameter, AutoAnalysis.Marker.Enabled, false
TestParameter, AutoAnalysis.Marker.Data.Var, 
TestParameter, AutoAnalysis.Marker.Data.Condition, 
TestParameter, AutoAnalysis.Marker.Data.Start, false
TestParameter, AutoAnalysis.Marker.Data.StartVar, 
TestParameter, AutoAnalysis.Marker.Data.StartCondition, 
MetaData, TestRecord.EntryPoint, false
MetaData, TestRecord.RecordTime, 03/04/2023 17:45:55
MetaData, TestRecord.TestTarget, 
MetaData, TestRecord.IterationIndex, 160
MetaData, TestRecord.Preservation, true
MetaData, TestRecord.Flag, 
MetaData, TestRecord.Remarks, 
MetaData, TestRecord.LinkKey, 2d26a9d7-01a0-4708-b58b-d884d6052c88
Dimension1, 21, 21, 21, 21
Dimension2, 1, 1, 1, 1
DataName, V1, I1, R, Rsheet
DataValue, 0, 4.5000000000000004E-14, 0, 0
DataValue, 0.05, 4.69E-13, 106609808102.34541, 10660980810.234541
DataValue, 0.1, 8.3100000000000009E-13, 120336943441.63658, 12033694344.163656
DataValue, 0.15, 9.5E-13, 157894736842.10526, 15789473684.210524
DataValue, 0.2, 1.111E-12, 180018001800.18002, 18001800180.017998
DataValue, 0.25, 1.2130000000000002E-12, 206100577081.61578, 20610057708.161575
DataValue, 0.3, 1.27E-12, 236220472440.94486, 23622047244.094482
DataValue, 0.35000000000000003, 1.4030000000000002E-12, 249465431218.8168, 24946543121.881676
DataValue, 0.4, 1.448E-12, 276243093922.65192, 27624309392.265186
DataValue, 0.45, 1.498E-12, 300400534045.39386, 30040053404.539383
DataValue, 0.5, 1.6540000000000002E-12, 302297460701.33008, 30229746070.133003
DataValue, 0.55, 1.7140000000000002E-12, 320886814469.07819, 32088681446.907814
DataValue, 0.6, 1.6540000000000002E-12, 362756952841.59607, 36275695284.1596
DataValue, 0.65, 1.8280000000000003E-12, 355579868708.9715, 35557986870.897148
DataValue, 0.70000000000000007, 1.8740000000000003E-12, 373532550693.70331, 37353255069.370323
DataValue, 0.75, 1.888E-12, 397245762711.86438, 39724576271.186432
DataValue, 0.8, 2.043E-12, 391581008321.09644, 39158100832.109642
DataValue, 0.85000000000000009, 2.114E-12, 402081362346.26306, 40208136234.6263
DataValue, 0.9, 2.223E-12, 404858299595.14166, 40485829959.51416
DataValue, 0.95000000000000007, 2.377E-12, 399663441312.57892, 39966344131.257889
DataValue, 1, 2.4470000000000004E-12, 408663669799.75476, 40866366979.975471