
SetupTitle, R-V
ApplicationTest, R-V, Public
TestParameter, Name, Port1, Port2, V1Start, V1Stop, V1Step, V2, I1Limit, IntegTime, HoldTime, DelayTime, Port1MinRng
TestParameter, Value, SMU1:MP	MPSMU, SMU2:MP	MPSMU, 0, 1, 0.05, 0, 0.01, MEDIUM, 0, 0, 1nA
DutParameter, Name, L, W, Temp
DutParameter, Value, 1E-05, 1E-06, 25
MetaData, TestRecord.EntryPoint, true
MetaData, TestRecord.RecordTime, 03/04/2023 17:49:47
MetaData, TestRecord.TestTarget, 
MetaData, TestRecord.IterationIndex, 164
MetaData, TestRecord.Preservation, true
MetaData, TestRecord.Flag, 
MetaData, TestRecord.Remarks, 
MetaData, TestRecord.LinkKey, 1cd1e810-5518-420f-84ae-71fe9c9de328
Dimension1, 21, 21, 21, 21
Dimension2, 1, 1, 1, 1
DataName, V1, I1, R, Rsheet
DataValue, 0, -8E-15, -0, -0
DataValue, 0.05, 2.73E-13, 183150183150.18317, 18315018315.018314
DataValue, 0.1, 3.64E-13, 274725274725.27472, 27472527472.52747
DataValue, 0.15, 2.55E-13, 588235294117.647, 58823529411.764694
DataValue, 0.2, 3.3300000000000005E-13, 600600600600.60059, 60060060060.060051
DataValue, 0.25, 5.7900000000000006E-13, 431778929188.25555, 43177892918.825546
DataValue, 0.3, 3.15E-13, 952380952380.95227, 95238095238.095215
DataValue, 0.35000000000000003, -7.4E-14, -4729729729729.73, -472972972972.973
DataValue, 0.4, -1.4610000000000001E-12, -273785078713.21011, -27378507871.321011
DataValue, 0.45, 2.2200000000000001E-13, 2027027027027.0269, 202702702702.70267
DataValue, 0.5, 3.8200000000000004E-13, 1308900523560.2092, 130890052356.02091
DataValue, 0.55, 1.3E-13, 4230769230769.231, 423076923076.92303
DataValue, 0.6, 1.5030000000000002E-12, 399201596806.38715, 39920159680.63871
DataValue, 0.65, 7.6100000000000009E-13, 854139290407.35864, 85413929040.735855
DataValue, 0.70000000000000007, 3.42E-13, 2046783625730.9944, 204678362573.09943
DataValue, 0.75, 7.4300000000000007E-13, 1009421265141.3189, 100942126514.13187
DataValue, 0.8, 2.57E-13, 3112840466926.07, 311284046692.60693
DataValue, 0.85000000000000009, 2.318E-12, 366695427092.321, 36669542709.232094
DataValue, 0.9, 1.406E-12, 640113798008.53479, 64011379800.853462
DataValue, 0.95000000000000007, 2.44E-13, 3893442622950.82, 389344262295.082
DataValue, 1, 4.6200000000000005E-13, 2164502164502.1643, 216450216450.21643
SetupTitle, R-V
PrimitiveTest, I/V Sweep
TestParameter, Context.MainFrame, B1500A
TestParameter, Channel.UnitType, SMU, SMU
TestParameter, Channel.Unit, Port1, Port2
TestParameter, Channel.IName, I1, I2
TestParameter, Channel.VName, V1, V2
TestParameter, Channel.Mode, V, V
TestParameter, Channel.Func, VAR1, CONST
TestParameter, Channel.Index, 
TestParameter, Channel.Time, 
TestParameter, Measurement.Port.Unit, Port1, Port2
TestParameter, Measurement.Port.SeriesResistor, NONE, NONE
TestParameter, Measurement.Port.Filter, OFF, OFF
TestParameter, Measurement.Port.OutputVoltageComparison, 0, 0
TestParameter, Measurement.Primary.Locus, Single
TestParameter, Measurement.Primary.Scale, LINEAR
TestParameter, Measurement.Primary.Start, V1Start
TestParameter, Measurement.Primary.Stop, V1Stop
TestParameter, Measurement.Primary.Step, V1Step
TestParameter, Measurement.Primary.Compliance, I1Limit
TestParameter, Measurement.Primary.PowerCompliance, 0
TestParameter, Measurement.Aborting.Condition, CONTINUE AT ANY
TestParameter, Measurement.PostOutput.Value, START
TestParameter, Measurement.PostOutput.Retention, OFF
TestParameter, Measurement.Bias.Source, 0, V2
TestParameter, Measurement.Bias.Compliance, 0.01, I1Limit
TestParameter, Measurement.Monitor.Unit, SMU:=Port1, SMU:=Port2
TestParameter, Measurement.Monitor.Adc, HR ADC, HR ADC
TestParameter, Measurement.Monitor.Measurement, Compliance Side, Compliance Side
TestParameter, Measurement.Monitor.RangingMode, LIMITED, LIMITED
TestParameter, Measurement.Monitor.RangeBoundary, Port1MinRng, 1nA
TestParameter, Measurement.Monitor.RangeRating, BY FULL RANGE, BY FULL RANGE
TestParameter, Measurement.Monitor.RangeRatingCoeff, 50, 50
TestParameter, Measurement.Timing.Hold, HoldTime
TestParameter, Measurement.Timing.Delay, DelayTime
TestParameter, Measurement.Adc.HighSpeed.Mode, AUTO
TestParameter, Measurement.Adc.HighSpeed.Coeff, 1
TestParameter, Measurement.Adc.HighResolution.AutoZero, ON
TestParameter, Measurement.Adc.HighResolution.Mode, IntegMode
TestParameter, Measurement.Adc.HighResolution.Coeff, AdcFactor
TestParameter, Measurement.WaitTime.Source.Coeff, 1
TestParameter, Measurement.WaitTime.Source.Offset, 0
TestParameter, Measurement.WaitTime.Monitor.Coeff, 1
TestParameter, Measurement.WaitTime.Monitor.Offset, 0
TestParameter, Function.User.Name, R, Rsheet
TestParameter, Function.User.Unit, ohm, ohm/sheet
TestParameter, Function.User.Definition, V1/I1, R*W/L
TestParameter, Output.Graph.Enabled, true
TestParameter, Output.Graph.AutoScaling, false
TestParameter, Output.Graph.XAxis.Data, V1
TestParameter, Output.Graph.XAxis.Scale, Linear
TestParameter, Output.Graph.XAxis.Left, V1Start
TestParameter, Output.Graph.XAxis.Right, V1Stop
TestParameter, Output.Graph.XAxis.RunTimeAutoScale, false
TestParameter, Output.Graph.YAxis.Data, R, I1
TestParameter, Output.Graph.YAxis.Scale, Linear, Linear
TestParameter, Output.Graph.YAxis.Bottom, 0, 0
TestParameter, Output.Graph.YAxis.Top, V1Stop/I1Limit, I1Limit
TestParameter, Output.Graph.YAxis.Group, , 
TestParameter, Output.Graph.YAxis.RunTimeAutoScale, false, false
TestParameter, Output.List.Data, V1, I1, R, Rsheet
TestParameter, AutoAnalysis.Interpolation, false
TestParameter, AutoAnalysis.Line1.Enabled, false
TestParameter, AutoAnalysis.Line1.Type, 1
TestParameter, AutoAnalysis.Line1.Fix, False
TestParameter, AutoAnalysis.Line1.YAxis, 0
TestParameter, AutoAnalysis.Line1.Point1.Type, 0
TestParameter, AutoAnalysis.Line1.Point1.XY.X, 
TestParameter, AutoAnalysis.Line1.Point1.XY.Y, 
TestParameter, AutoAnalysis.Line1.Point1.Data.Var, 
TestParameter, AutoAnalysis.Line1.Point1.Data.Condition, 
TestParameter, AutoAnalysis.Line1.Point1.Data.Start, false
TestParameter, AutoAnalysis.Line1.Point1.Data.StartVar, 
TestParameter, AutoAnalysis.Line1.Point1.Data.StartCondition, 
TestParameter, AutoAnalysis.Line1.Point2.Type, 0
TestParameter, AutoAnalysis.Line1.Point2.XY.X, 
TestParameter, AutoAnalysis.Line1.Point2.XY.Y, 
TestParameter, AutoAnalysis.Line1.Point2.Data.Var, 
TestParameter, AutoAnalysis.Line1.Point2.Data.Condition, 
TestParameter, AutoAnalysis.Line1.Point2.Data.Start, false
TestParameter, AutoAnalysis.Line1.Point2.Data.StartVar, 
TestParameter, AutoAnalysis.Line1.Point2.Data.StartCondition, 
TestParameter, AutoAnalysis.Line1.GradientExpr, 0
TestParameter, AutoAnalysis.Line2.Enabled, false
TestParameter, AutoAnalysis.Line2.Type, 1
TestParameter, AutoAnalysis.Line2.Fix, False
TestParameter, AutoAnalysis.Line2.YAxis, 0
TestParameter, AutoAnalysis.Line2.Point1.Type, 0
TestParameter, AutoAnalysis.Line2.Point1.XY.X, 
TestParameter, AutoAnalysis.Line2.Point1.XY.Y, 
TestParameter, AutoAnalysis.Line2.Point1.Data.Var, 
TestParameter, AutoAnalysis.Line2.Point1.Data.Condition, 
TestParameter, AutoAnalysis.Line2.Point1.Data.Start, false
TestParameter, AutoAnalysis.Line2.Point1.Data.StartVar, 
TestParameter, AutoAnalysis.Line2.Point1.Data.StartCondition, 
TestParameter, AutoAnalysis.Line2.Point2.Type, 0
TestParameter, AutoAnalysis.Line2.Point2.XY.X, 
TestParameter, AutoAnalysis.Line2.Point2.XY.Y, 
TestParameter, AutoAnalysis.Line2.Point2.Data.Var, 
TestParameter, AutoAnalysis.Line2.Point2.Data.Condition, 
TestParameter, AutoAnalysis.Line2.Point2.Data.Start, false
TestParameter, AutoAnalysis.Line2.Point2.Data.StartVar, 
TestParameter, AutoAnalysis.Line2.Point2.Data.StartCondition, 
TestParameter, AutoAnalysis.Line2.GradientExpr, 0
TestParameter, AutoAnalysis.Marker.Enabled, false
TestParameter, AutoAnalysis.Marker.Data.Var, 
TestParameter, AutoAnalysis.Marker.Data.Condition, 
TestParameter, AutoAnalysis.Marker.Data.Start, false
TestParameter, AutoAnalysis.Marker.Data.StartVar, 
TestParameter, AutoAnalysis.Marker.Data.StartCondition, 
MetaData, TestRecord.EntryPoint, false
MetaData, TestRecord.RecordTime, 03/04/2023 17:49:47
MetaData, TestRecord.TestTarget, 
MetaData, TestRecord.IterationIndex, 164
MetaData, TestRecord.Preservation, true
MetaData, TestRecord.Flag, 
MetaData, TestRecord.Remarks, 
MetaData, TestRecord.LinkKey, 1cd1e810-5518-420f-84ae-71fe9c9de328
Dimension1, 21, 21, 21, 21
Dimension2, 1, 1, 1, 1
DataName, V1, I1, R, Rsheet
DataValue, 0, -8E-15, -0, -0
DataValue, 0.05, 2.73E-13, 183150183150.18317, 18315018315.018314
DataValue, 0.1, 3.64E-13, 274725274725.27472, 27472527472.52747
DataValue, 0.15, 2.55E-13, 588235294117.647, 58823529411.764694
DataValue, 0.2, 3.3300000000000005E-13, 600600600600.60059, 60060060060.060051
DataValue, 0.25, 5.7900000000000006E-13, 431778929188.25555, 43177892918.825546
DataValue, 0.3, 3.15E-13, 952380952380.95227, 95238095238.095215
DataValue, 0.35000000000000003, -7.4E-14, -4729729729729.73, -472972972972.973
DataValue, 0.4, -1.4610000000000001E-12, -273785078713.21011, -27378507871.321011
DataValue, 0.45, 2.2200000000000001E-13, 2027027027027.0269, 202702702702.70267
DataValue, 0.5, 3.8200000000000004E-13, 1308900523560.2092, 130890052356.02091
DataValue, 0.55, 1.3E-13, 4230769230769.231, 423076923076.92303
DataValue, 0.6, 1.5030000000000002E-12, 399201596806.38715, 39920159680.63871
DataValue, 0.65, 7.6100000000000009E-13, 854139290407.35864, 85413929040.735855
DataValue, 0.70000000000000007, 3.42E-13, 2046783625730.9944, 204678362573.09943
DataValue, 0.75, 7.4300000000000007E-13, 1009421265141.3189, 100942126514.13187
DataValue, 0.8, 2.57E-13, 3112840466926.07, 311284046692.60693
DataValue, 0.85000000000000009, 2.318E-12, 366695427092.321, 36669542709.232094
DataValue, 0.9, 1.406E-12, 640113798008.53479, 64011379800.853462
DataValue, 0.95000000000000007, 2.44E-13, 3893442622950.82, 389344262295.082
DataValue, 1, 4.6200000000000005E-13, 2164502164502.1643, 216450216450.21643